!
! Hittite Microwave Corporation
! 2 Elizabeth Drive
! Chelmsford, MA 01824
! http://www.hittite.com
! Tel: 978-250-3343
! Fax: 978-250-3373
! 
! Device:      HMC424LP3
! Description: 0.5 dB GaAs MMIC 6-Bit Digital Attenuator
! Frequency:    DC -  13.00 GHz
! Package:     LP3  - 3x3 mm Quad Flatpack No-Lead (QFN) Plastic Package: 16 pin
! Ports:       2 RF, 7 DC
!              Pad  1  = Ground
!              Pad  2  = RF IN   = Port 1
!              Pad  3  = Ground
!              Pad  4  = V6
!              Pad  5  = V5
!              Pad  6  = V4
!              Pad  7  = V3
!              Pad  8  = V2
!              Pad  9  = V1
!              Pad 10  = Ground
!              Pad 11  = RF OUT  = Port 2
!              Pad 12  = Ground
!              Pad 15  = VEE
!
! Control:     -5 Volt control voltage
! State:        13 
! Attenuation:  6.5 dB
! Voltages:    Vdd = -5.00 Volts  Idd =  -2.565 mA
!              V1  = -5.00 Volts  I1  =  -1.0 uA
!              V2  = 0.00 Volts  I2  =  29.0 uA
!              V3  = -5.00 Volts  I3  =  -1.0 uA
!              V4  = -5.00 Volts  I4  =  -1.0 uA
!              V5  = 0.00 Volts  I5  =  29.0 uA
!              V6  = 0.00 Volts  I6  =  30.0 uA
!
! Data:    The device was measured on evaluation board 105354-1. 
!          Data was collected using a calibrated network analyzer.
!          The evaluation circuit board was modeled and simulated.  This was use
!          to removed the evaluation board circuit from the measured data.
!          The reference plane is the edge of the package pin.
!
! Misc:    Lot xxxx, Unit 1
!          Application 20120001, Data collected in Application 20090083
!
! Date Measured:  2009-09-15
! Date:           2012-05-14  MJV
! Note: 
!   Hittite supplies this data as a sample of measured data at the package pin
!   for this product.  Your particular data for this product may vary.
!   Data was taken at 25 degrees C.
!   Hittite reserves the right to change this data at anytime.
!
# GHz S MA R 50

0.01	0.021977051	161.39683	0.35670694	-1.2613179	0.3551089	-1.3304179	0.13796763	2.1113413	
0.11	0.023874738	-179.16252	0.35358221	-2.4435782	0.35293149	-2.4249782	0.13367154	-1.8516738	
0.21	0.023257078	-176.76248	0.35273461	-4.1431253	0.35228818	-4.1617253	0.13275733	-5.7930968	
0.31	0.021467529	-174.03082	0.3521164	-5.8564666	0.35167076	-5.8274666	0.13778106	-8.0768767	
0.41	0.021114452	-170.73327	0.35180091	-7.5502169	0.35171991	-7.5870169	0.13855248	-9.6618655	
0.51	0.020150176	-166.08623	0.35115	-9.3320343	0.35090752	-9.3642343	0.13734625	-11.855072	
0.61	0.019825284	-162.34365	0.35089078	-10.975309	0.35064847	-11.014209	0.13841279	-15.458868	
0.71	0.018234889	-154.9953	0.35069834	-12.692493	0.35017385	-12.692993	0.14464406	-17.522579	
0.81	0.017787432	-149.70934	0.35031456	-14.388972	0.34987119	-14.351672	0.14458513	-18.414143	
0.91	0.016764783	-142.997	0.34975635	-16.083089	0.34919306	-16.094889	0.14533872	-21.564816	
1.01	0.015436462	-138.42706	0.34927335	-17.769324	0.34903217	-17.776624	0.14861429	-24.115858	
1.11	0.015133989	-129.7301	0.34898068	-19.464633	0.34882	-19.440433	0.15522704	-25.173577	
1.21	0.01472798	-123.93405	0.34867412	-21.140439	0.34823283	-21.134539	0.15356631	-25.667194	
1.31	0.014363753	-117.18007	0.34814549	-22.835852	0.3479852	-22.849652	0.15581794	-28.851592	
1.41	0.01343428	-108.38068	0.34801212	-24.456469	0.34761169	-24.460169	0.16041707	-30.145235	
1.51	0.013734493	-102.04872	0.34772047	-26.159124	0.34756038	-26.155524	0.16438213	-30.641241	
1.61	0.013826649	-94.236347	0.34721298	-27.810075	0.34677354	-27.846075	0.16176066	-31.224438	
1.71	0.013268234	-89.728715	0.34689211	-29.477705	0.34645307	-29.485105	0.16349374	-34.21013	
1.81	0.013585101	-81.285512	0.34663785	-31.087068	0.34639848	-31.077068	0.16769546	-35.010027	
1.91	0.013388538	-78.426811	0.34644299	-32.800257	0.34600453	-32.779657	0.16847554	-35.691199	
2.01	0.013162479	-75.692298	0.34590729	-34.401144	0.34550928	-34.484944	0.165769	-36.850431	
2.11	0.012646121	-71.1929	0.34559658	-36.098679	0.34531817	-36.117079	0.1676823	-39.949058	
2.21	0.013256165	-68.634888	0.34538728	-37.696564	0.34510904	-37.777464	0.17201967	-40.619167	
2.31	0.01336905	-68.585203	0.34528684	-39.426026	0.34465138	-39.379226	0.1710578	-41.509136	
2.41	0.013111652	-68.321434	0.34444405	-40.990277	0.3442062	-41.047077	0.16890188	-43.462543	
2.51	0.013066308	-66.685241	0.34441506	-42.673269	0.34389996	-42.671269	0.17202186	-46.377388	
2.61	0.013363501	-69.463043	0.34424633	-44.328292	0.34377107	-44.328892	0.17578748	-46.805139	
2.71	0.013634919	-72.140401	0.34367542	-45.956976	0.3433195	-45.998576	0.17321704	-48.224803	
2.81	0.012936556	-75.986007	0.34334144	-47.599421	0.34294638	-47.619521	0.17264372	-50.630757	
2.91	0.014132406	-78.017752	0.34313857	-49.194428	0.34278321	-49.269828	0.17621859	-53.155621	
3.01	0.014694207	-84.177982	0.34292434	-50.900966	0.34249032	-50.945366	0.17930297	-53.643559	
3.11	0.015373034	-89.582494	0.34238886	-52.54736	0.34219182	-52.56956	0.175568	-55.331733	
3.21	0.015645154	-93.777495	0.3420346	-54.198266	0.34179842	-54.222666	0.17621261	-58.147969	
3.31	0.017151732	-98.690995	0.34172668	-55.894651	0.34141208	-55.790951	0.17965218	-60.195816	
3.41	0.018837233	-104.38201	0.34137119	-57.499008	0.34105692	-57.530408	0.18113686	-60.950229	
3.51	0.02025456	-108.36757	0.34096458	-59.1102	0.34037627	-59.128	0.1776205	-63.17248	
3.61	0.022106268	-111.55679	0.34045224	-60.736587	0.33998221	-60.778187	0.1801943	-66.394171	
3.71	0.024750032	-113.11372	0.34022011	-62.403825	0.3397504	-62.406325	0.1841053	-68.079865	
3.81	0.026963702	-115.23492	0.33971864	-64.074718	0.33932775	-64.080918	0.18435871	-69.05133	
3.91	0.028960471	-116.8155	0.33912915	-65.659289	0.33877794	-65.664489	0.18188515	-71.920779	
4.01	0.034936109	-105.35974	0.33922315	-67.225755	0.33875482	-67.258355	0.19492473	-73.34768	
4.11	0.036996495	-105.69482	0.33873698	-68.912687	0.33830827	-68.876487	0.198667	-74.190805	
4.21	0.03936183	-105.74229	0.33818849	-70.505506	0.33791606	-70.532406	0.19907562	-75.223675	
4.31	0.04150185	-103.95843	0.33792762	-72.1112	0.33722805	-72.1668	0.19893779	-77.591552	
4.41	0.043503209	-102.35561	0.33744502	-73.763088	0.33705674	-73.732088	0.20595959	-79.136293	
4.51	0.045225225	-101.3327	0.33689297	-75.397965	0.3363504	-75.432765	0.20823377	-79.195779	
4.61	0.046904096	-99.882397	0.33633725	-77.032089	0.33591158	-77.012389	0.20791274	-80.000197	
4.71	0.049033465	-97.402065	0.33598527	-78.603994	0.33567596	-78.616594	0.20813759	-81.732946	
4.81	0.05079826	-95.380264	0.33560419	-80.234434	0.33525663	-80.212334	0.21489616	-82.657111	
4.91	0.052795258	-93.364693	0.33478715	-81.867456	0.33420949	-81.871056	0.21471609	-82.165925	
5.01	0.054145371	-90.712877	0.33442529	-83.418275	0.33404049	-83.426475	0.21324815	-83.058782	
5.11	0.056562305	-87.25902	0.33413227	-84.9972	0.33359414	-84.9892	0.21386744	-84.33368	
5.21	0.058328327	-84.786452	0.33371917	-86.603324	0.33337356	-86.625524	0.21931333	-84.95956	
5.31	0.060440058	-81.875461	0.33293198	-88.217231	0.33274038	-88.233731	0.21814507	-84.086043	
5.41	0.06239682	-78.227481	0.33268144	-89.788019	0.33237517	-89.798319	0.21622302	-85.216974	
5.51	0.065299012	-75.091211	0.33254273	-91.341042	0.33208362	-91.378642	0.21826511	-86.027819	
5.61	0.067853891	-71.717407	0.33206022	-92.942773	0.33175452	-92.960573	0.22219386	-86.156434	
5.71	0.06962738	-68.558745	0.33157455	-94.571489	0.3311549	-94.548989	0.22025466	-85.188836	
5.81	0.072855547	-64.791934	0.33157085	-96.09046	0.33111309	-96.11426	0.21767577	-86.225534	
5.91	0.075088177	-62.041066	0.33125317	-97.691193	0.33091012	-97.730793	0.22103015	-86.679591	
6.01	0.07804334	-58.871625	0.33098173	-99.311035	0.33063895	-99.342035	0.22334935	-86.101854	
6.11	0.080602553	-55.794696	0.33068879	-100.92927	0.3300802	-100.94627	0.21988409	-85.058544	
6.21	0.083944177	-52.124964	0.33061608	-102.52875	0.33012163	-102.50705	0.21630629	-86.043615	
6.31	0.086248866	-49.676434	0.33049696	-104.13167	0.33004068	-104.13757	0.21877083	-86.032434	
6.41	0.089096609	-46.171771	0.33008737	-105.75377	0.32955576	-105.75037	0.21751342	-85.180357	
6.51	0.09146387	-42.873362	0.32962988	-107.37499	0.32940226	-107.35299	0.21245511	-84.273542	
6.61	0.093783703	-39.772025	0.33002265	-109.01505	0.32960496	-108.99135	0.20703623	-85.298008	
6.71	0.095286664	-37.214873	0.32997189	-110.66265	0.3294784	-110.65335	0.2076226	-85.416012	
6.81	0.097255033	-34.29301	0.32963621	-112.32144	0.32918112	-112.31044	0.20260811	-84.776049	
6.91	0.09878433	-31.393172	0.3296443	-113.96931	0.3292271	-113.97891	0.19601702	-84.813282	
7.01	0.099522849	-28.840845	0.32998608	-115.66505	0.32956844	-115.66915	0.18895604	-86.279397	
7.11	0.099815778	-26.172267	0.3298492	-117.38563	0.32962143	-117.37163	0.18861426	-87.011255	
7.21	0.099755964	-23.222492	0.32956642	-119.06591	0.32930093	-119.05521	0.18067288	-86.684964	
7.31	0.099842798	-20.244076	0.33001146	-120.78548	0.32955585	-120.77468	0.17294379	-88.348151	
7.41	0.098699038	-17.453713	0.33050935	-122.53466	0.32997706	-122.52226	0.16700728	-90.729648	
7.51	0.097812445	-14.193889	0.33058913	-124.31321	0.32998073	-124.30131	0.16461525	-92.307185	
7.61	0.096113061	-11.183615	0.33035521	-126.0767	0.32986115	-126.0579	0.15595688	-92.812227	
7.71	0.094449689	-7.9470264	0.33086321	-127.90287	0.33029232	-127.86267	0.14757877	-96.129819	
7.81	0.091493908	-4.6077431	0.33097187	-129.73903	0.33055298	-129.70153	0.14196631	-99.591495	
7.91	0.089393293	-0.80936261	0.33095419	-131.55945	0.33042118	-131.54405	0.1384872	-102.28168	
8.01	0.086969426	3.1668695	0.33077697	-133.38266	0.33028227	-133.37016	0.1290573	-104.7832	
8.11	0.083521544	7.4310968	0.33102649	-135.25339	0.3306456	-135.24749	0.12255603	-110.77572	
8.21	0.080389683	12.000707	0.33101923	-137.17513	0.330372	-137.13013	0.11927369	-116.03271	
8.31	0.077745769	17.098135	0.33087938	-139.03311	0.33034649	-139.01771	0.1164683	-120.48938	
8.41	0.074748131	22.410206	0.33051384	-140.89633	0.32994356	-140.89333	0.10941043	-126.09101	
8.51	0.071617522	28.34521	0.33083054	-142.86119	0.33014566	-142.85329	0.10940963	-134.91195	
8.61	0.069439596	34.721945	0.33040841	-144.82995	0.32991426	-144.81315	0.1128767	-141.1913	
8.71	0.067401275	41.543294	0.33016018	-146.7137	0.32955256	-146.7163	0.11485083	-146.57943	
8.81	0.065471935	48.933904	0.32959202	-148.66165	0.32909909	-148.66785	0.11560611	-153.66425	
8.91	0.063585186	56.417527	0.32958007	-150.65255	0.32904928	-150.63505	0.12546804	-160.40087	
9.01	0.062814252	63.274965	0.32910543	-152.5867	0.32849975	-152.584	0.13323175	-163.82835	
9.11	0.063414055	70.806984	0.32834533	-154.50868	0.32777879	-154.49488	0.14076086	-167.30167	
9.21	0.062626533	78.976326	0.32788045	-156.40391	0.32742778	-156.39451	0.14645313	-170.98165	
9.31	0.06417369	86.013005	0.32730396	-158.40878	0.32673921	-158.38768	0.15981214	-174.5559	
9.41	0.065487308	94.138722	0.32639699	-160.31277	0.32602142	-160.29027	0.16803421	-174.83519	
9.51	0.066862787	100.79198	0.32536038	-162.14055	0.32464944	-162.13285	0.17331942	-177.19115	
9.61	0.068640961	107.94437	0.32457442	-164.03753	0.324089	-164.00793	0.18331343	-178.94254	
9.71	0.069713695	114.73565	0.32396696	-165.88751	0.32344521	-165.87401	0.19337317	-179.87261	
9.81	0.071309503	121.16469	0.32297659	-167.73213	0.32256783	-167.73573	0.20039077	-179.9708	
9.91	0.072990627	127.27861	0.32178909	-169.47905	0.32141883	-169.48065	0.20539139	178.8891	
10.01	0.075373485	133.15859	0.32109709	-171.36416	0.32065379	-171.35336	0.21493683	177.97333	
10.11	0.078300822	139.22259	0.32023207	-173.19131	0.31964273	-173.16041	0.2236375	177.89735	
10.21	0.080845441	144.91818	0.31927485	-174.92267	0.31876066	-174.94947	0.22921026	178.55452	
10.31	0.084163739	151.03896	0.317946	-176.69675	0.3173974	-176.67125	0.23266605	177.90501	
10.41	0.087274337	155.50717	0.31697006	-178.45537	0.31645958	-178.43587	0.24199177	177.83367	
10.51	0.091793954	160.59245	0.31598062	179.81044	0.31554437	179.86094	0.24959024	178.32753	
10.61	0.095944103	165.55947	0.31513731	178.12472	0.31473847	178.18122	0.25380256	179.06236	
10.71	0.10032385	170.10099	0.31402801	176.42392	0.31363056	176.44952	0.2573668	178.64274	
10.81	0.10532016	174.01617	0.31333101	174.67441	0.3130786	174.71761	0.26555128	178.91637	
10.91	0.10988103	177.92286	0.3124695	172.99211	0.31200219	173.05111	0.26985323	179.73703	
11.01	0.11555603	-178.87851	0.31151638	171.34469	0.3110863	171.37359	0.27166358	-179.69576	
11.11	0.12076408	-175.37837	0.31058648	169.69802	0.31001489	169.69362	0.27360925	-179.82898	
11.21	0.12554818	-172.86124	0.30965233	168.01188	0.30911804	168.03478	0.2792295	-179.57876	
11.31	0.13067116	-170.46001	0.30888164	166.32337	0.30831318	166.35857	0.28109354	-178.86993	
11.41	0.13656871	-168.52651	0.30801651	164.72195	0.30744964	164.75475	0.28117776	-178.43023	
11.51	0.14149524	-166.49689	0.30723317	163.10432	0.30652655	163.10852	0.28121081	-178.91293	
11.61	0.1461498	-165.06478	0.30626363	161.38158	0.30569999	161.39308	0.28629387	-179.03216	
11.71	0.1511384	-163.56909	0.30537471	159.7183	0.3048829	159.7274	0.28594791	-178.62339	
11.81	0.15589136	-162.42294	0.30446553	158.1098	0.30397518	158.1053	0.2859608	-178.94115	
11.91	0.16050958	-161.46293	0.30363202	156.40424	0.30324774	156.43274	0.28666043	-179.42142	
12.01	0.16515735	-160.65506	0.30276458	154.71388	0.30238139	154.72468	0.29019936	-179.70234	
12.11	0.16990287	-159.97986	0.30180351	153.02827	0.30149095	153.05287	0.28959272	-179.51658	
12.21	0.1747366	-159.56942	0.30091232	151.3853	0.3006353	151.4103	0.28946662	179.75879	
12.31	0.17951489	-159.31026	0.29984829	149.65173	0.29953776	149.67113	0.29185911	179.21138	
12.41	0.18407096	-159.3678	0.29841304	147.92448	0.29803536	147.92648	0.29580042	178.9188	
12.51	0.18759333	-159.57044	0.29740039	146.29826	0.29685306	146.31206	0.29537219	179.09617	
12.61	0.19099757	-159.44195	0.2960776	144.7726	0.2956348	144.7831	0.29602583	177.98094	
12.71	0.19608079	-158.84655	0.29542313	143.14426	0.29494734	143.15096	0.29992106	177.57148	
12.81	0.20101869	-158.59632	0.29459727	141.50269	0.29429218	141.48039	0.30282674	177.32513	
12.91	0.20733498	-158.47026	0.29427487	139.7934	0.29383476	139.8086	0.30329874	177.43511	
13.01	0.21268348	-158.50169	0.29349214	138.12198	0.29301946	138.16378	0.3046407	176.57692	
13.11	0.21948188	-158.64127	0.29239717	136.3963	0.29195987	136.4369	0.3088277	176.34872	
13.21	0.22596095	-158.68919	0.29141359	134.68346	0.29101127	134.72446	0.31143216	176.22306	
13.31	0.23214313	-158.83274	0.2903878	133.01057	0.28992012	133.04937	0.31338266	176.24237	
13.41	0.23898446	-159.02746	0.28923558	131.37892	0.28857035	131.40052	0.3157266	175.69083	
13.51	0.24646147	-158.9905	0.2880744	129.74228	0.28767668	129.73288	0.32133816	175.6479	
13.61	0.25390444	-159.18434	0.28697146	128.04744	0.28637738	128.08114	0.32459847	175.85817	
13.71	0.26265825	-159.26518	0.28588236	126.40502	0.28538909	126.43452	0.32694981	176.03878	
13.81	0.27085437	-159.11072	0.28456135	124.76206	0.28413577	124.80256	0.33049352	175.77143	
13.91	0.27894439	-159.1554	0.2832241	123.13855	0.28263777	123.15555	0.33697646	176.24536	
14.01	0.28823903	-159.17066	0.28196925	121.51416	0.28167723	121.54136	0.33892228	176.7998	
14.11	0.29667743	-158.91918	0.28072293	119.8878	0.28023856	119.879	0.34255309	177.19034	
14.21	0.30464271	-158.72384	0.27943219	118.32212	0.27891793	118.34822	0.34558896	177.45749	
14.31	0.31378136	-158.52079	0.27801039	116.74218	0.27759461	116.76228	0.35132707	178.31274	
14.41	0.3223748	-158.16555	0.2767538	115.15986	0.27630808	115.20686	0.35172577	179.10912	
14.51	0.33093068	-157.76549	0.27546243	113.63127	0.27505046	113.65517	0.35480616	179.65116	
14.61	0.3391611	-157.26522	0.27437342	112.10076	0.27386847	112.11506	0.35643649	-179.63021	
14.71	0.3470708	-156.70949	0.27299645	110.59281	0.27261955	110.62121	0.36043867	-178.62491	
14.81	0.35448685	-156.25628	0.27183187	109.07039	0.27139408	109.09769	0.35909556	-177.34369	
14.91	0.36200362	-155.48136	0.27074589	107.59442	0.27030985	107.60972	0.35986269	-176.72935	
15.01	0.3676165	-154.82107	0.26961048	106.09491	0.26917627	106.10351	0.35983109	-175.66465	
15.11	0.37322304	-154.10063	0.26851799	104.67942	0.26805468	104.70202	0.36100736	-174.61991	
15.21	0.37827748	-153.32476	0.26761685	103.25537	0.26724738	103.27327	0.35777588	-173.05046	
15.31	0.38289763	-152.49558	0.26690601	101.82681	0.26656821	101.85311	0.35579332	-172.31674	
15.41	0.38645993	-151.70834	0.2662252	100.3858	0.26582705	100.441	0.35401889	-170.81142	
15.51	0.38951472	-150.80844	0.2655502	98.974811	0.26518358	98.992711	0.3509835	-169.52297	
15.61	0.38976011	-149.78725	0.26508695	97.516377	0.26462956	97.533177	0.3447919	-167.79351	
15.71	0.38922279	-148.75248	0.26473144	96.148393	0.26442683	96.157193	0.33906707	-166.9798	
15.81	0.39004086	-147.45728	0.26456996	94.760266	0.26420469	94.802466	0.33546486	-165.28632	
15.91	0.39033914	-146.31343	0.2645405	93.272177	0.26414486	93.317477	0.32777441	-163.59393	
16.01	0.38811947	-145.16609	0.2646702	91.781641	0.26418311	91.814741	0.31892334	-161.87073	
16.11	0.38415421	-143.83705	0.26463434	90.305119	0.26423856	90.342819	0.31018385	-160.67637	
16.21	0.38058651	-142.13904	0.2645358	88.931876	0.26426184	88.956876	0.30362623	-158.70633	
16.31	0.3792547	-140.38205	0.26526684	87.47271	0.26480913	87.49821	0.29202961	-156.59896	
16.41	0.37708165	-138.77566	0.26620816	85.843929	0.26581003	85.882829	0.28014751	-154.82836	
16.51	0.3734396	-137.51472	0.26731987	84.170637	0.26692008	84.188037	0.26721574	-153.19986	
16.61	0.36879562	-136.44518	0.26814026	82.471723	0.2678009	82.511223	0.25723989	-151.32319	
16.71	0.36319877	-135.29849	0.26864697	80.7136	0.26830696	80.7522	0.24460546	-148.74923	
16.81	0.35476186	-134.21681	0.26972383	78.946255	0.26925843	78.945255	0.23060957	-146.52605	
16.91	0.34679493	-133.08552	0.2707128	77.04421	0.27030793	77.02071	0.21702289	-144.39485	
17.01	0.33640171	-132.14278	0.27177887	75.033517	0.27149741	75.067417	0.20492158	-142.02304	
17.11	0.32582186	-131.43183	0.27230838	72.990694	0.27190112	73.018694	0.190748	-139.00076	
17.21	0.31233973	-131.05171	0.2730634	70.851233	0.27262363	70.877733	0.17574084	-136.10942	
17.31	0.29747046	-130.61909	0.273439	68.615353	0.27312437	68.662452	0.16065577	-133.40768	
17.41	0.27804888	-130.28272	0.27351078	66.390884	0.27319606	66.458282	0.14734992	-130.27257	
17.51	0.25735468	-129.61732	0.27303298	64.181403	0.27253049	64.167003	0.130787	-126.45675	
17.61	0.23616392	-128.05468	0.27305309	62.064656	0.27273891	62.114956	0.11570704	-123.31264	
17.71	0.21894921	-126.39626	0.27418479	59.873119	0.27374321	59.868119	0.10058888	-119.26875	
17.81	0.199468	-126.74189	0.27498753	57.31579	0.27470274	57.29979	0.087912909	-115.04161	
17.91	0.17792631	-125.8734	0.27384212	54.740925	0.27343258	54.772825	0.071314228	-106.90365	
18.01	0.1598639	-123.17621	0.27375608	52.47856	0.27363003	52.49466	0.053891393	-101.79894	
18.11	0.1497151	-123.44341	0.27521535	50.136573	0.27483539	50.176972	0.041709534	-89.256869	
18.21	0.13874143	-127.64806	0.2771624	47.316553	0.27681161	47.354852	0.026122839	-69.17478	
18.31	0.12299257	-134.56735	0.27777082	44.255861	0.27738733	44.311959	0.021402532	-26.004937	
18.41	0.10493696	-145.75103	0.27758127	41.045533	0.27722996	41.064033	0.029023464	29.101579	
18.51	0.089444954	-159.82899	0.27671772	38.178766	0.27630387	38.202566	0.038891911	47.809431	
18.61	0.084056252	-177.32107	0.27624104	35.21848	0.27601851	35.25478	0.057636083	55.939169	
18.71	0.089822517	165.29933	0.2764594	32.142933	0.27604594	32.151833	0.074620122	61.877226	
18.81	0.10587485	145.83681	0.2752368	28.498821	0.27466701	28.495821	0.10032809	66.763174	
18.91	0.13228019	132.55207	0.27312808	24.942259	0.27265681	24.987556	0.12022548	72.708699	
19.01	0.15783297	122.70647	0.26890192	21.69991	0.26849975	21.711812	0.1414015	74.358715	
19.11	0.18153134	114.8332	0.26447091	18.690468	0.26422744	18.717267	0.16240949	77.255295	
19.21	0.20686623	111.70292	0.26203145	15.886767	0.26160944	15.912467	0.18310264	78.758814	
19.31	0.23378281	110.45933	0.2605167	12.764309	0.26012708	12.797109	0.20603042	81.278077	
