! Device     : ADRF5060				
! Description: Nonreflective RF Path Selector SP3T with Bypass, 100MHz to 20GHz			
! Frequency:   100 MHz -  20 GHz
! Ports:       										
!        RFIN = Port 1
!        RFOUT = Port 2
!        OUTA = Port 3
!		 OUTB = Port 4
!		 INA = Port 5
!		 INB = Port 6	
! VSS  =  -3.30 Volts
! VDD  =  +3.30 Volts
! V1   =  0.00 Volts
! V2   =  0.00 Volts
! XC   =  0.00 Volts
! Data:  Data was collected using an calibrated 4 port network analyzer and combining into 6 port touchstone file. 						
!        
! Notes: Analog Devices supplies this data as a sample of measured data						
!        for this product.  Your particular data for this product may vary.												
!        Analog Devices reserves the right to change this data at anytime.	
! 
# hz S db R 50    
          50000000         -24.93574          -2.053377         -0.7428207         -0.9576687          -77.24218           2.686457          -80.43249           28.92305
                        -85.00807          -24.26884           -82.8703           20.74989
                       -0.7428207         -0.9576687          -25.20794          -3.602084          -83.08409           -2.00629          -53.78445           35.40701
                        -84.06452           13.90794          -79.39029           3.758615
                        -77.24218           2.686457          -83.08409           -2.00629             -27.87          0.2966439          -96.71424           140.1678
                         -92.2631          -9.336511          -84.35512           100.1369
                        -80.43249           28.92305          -53.78445           35.40701          -96.71424           140.1678          -28.20181          -1.123257
                        -85.28044           27.96887          -88.58932          -94.38528
                        -85.00807          -24.26884          -84.06452           13.90794           -92.2631          -9.336511          -85.28044           27.96886
                        -28.03328         -0.3419406          -94.20355            104.566
                         -82.8703           20.74989          -79.39029           3.758615          -84.35512           100.1369          -88.58932          -94.38528
                        -94.20355            104.566          -27.91153          0.5329214

         100000000         -25.13381          -2.341577         -0.7565234          -1.730945          -78.44991           6.981108          -84.22445           52.00801
                        -87.96874           31.13168          -81.85134           23.42045
                       -0.7565234          -1.730945          -25.36095          -2.301502          -83.96579           28.83278          -54.84121           3.752527
                        -83.00527             22.952          -80.91881           5.874653
                        -78.44991           6.981108          -83.96579           28.83278          -27.87564          -1.213273           -83.4201           81.15089
                        -97.17836           40.37867          -94.96055           93.25658
                        -84.22445           52.00801          -54.84121           3.752527           -83.4201           81.15089          -28.16948          -1.117592
                        -99.70579          -46.65956          -101.1078           -171.451
                        -87.96874           31.13168          -83.00527             22.952          -97.17836           40.37867          -99.70579          -46.65956
                         -28.0584          -1.411155          -82.93922           73.11605
                        -81.85134           23.42045          -80.91881           5.874653          -94.96055           93.25658          -101.1078           -171.451
                        -82.93922           73.11605          -27.84646           -1.01192

         150000000         -24.97125          -2.585268         -0.7655343          -2.516279          -77.55955           24.10547          -80.89674           29.54249
                        -85.21939            46.5867          -84.61766           77.82483
                       -0.7655343          -2.516279          -25.27823          -3.135432          -80.39622            32.9413          -54.83426           15.07162
                         -84.6732            50.7767          -79.94562           29.78539
                        -77.55955           24.10547          -80.39622            32.9413          -27.82151          -1.351128          -79.10966            85.1414
                        -88.30179            31.1171          -95.65261          -58.09208
                        -80.89674           29.54249          -54.83426           15.07162          -79.10966            85.1414          -28.12952          -1.858242
                        -99.84122            124.915          -92.02998          -105.6063
                        -85.21939            46.5867           -84.6732            50.7767          -88.30179            31.1171          -99.84122            124.915
                        -28.01685          -1.698112          -80.29298           68.68028
                        -84.61766           77.82483          -79.94562           29.78539          -95.65261          -58.09208          -92.02998          -105.6063
                        -80.29298           68.68028          -27.87832          -1.147947

         200000000          -24.9597          -4.086109         -0.7721554          -3.300995          -76.45047            21.2329           -83.6714           56.20107
                        -81.90705           56.65638          -84.48192           35.37592
                       -0.7721554          -3.300995          -25.19226          -3.625636          -80.29204           60.12096          -54.80228           3.707625
                        -81.13032           44.68788          -78.75714           21.87521
                        -76.45047            21.2329          -80.29204           60.12096          -27.75551          -2.476924          -80.87606           84.93499
                        -90.20059           7.417518          -91.84328          -148.3563
                         -83.6714           56.20107          -54.80228           3.707625          -80.87606           84.93499          -28.03199          -2.421818
                         -92.2254          -131.5835          -88.32334           173.3163
                        -81.90705           56.65638          -81.13032           44.68788          -90.20059           7.417518           -92.2254          -131.5835
                        -27.96087          -2.561295          -77.83615           90.37455
                        -84.48192           35.37592          -78.75714           21.87521          -91.84328          -148.3563          -88.32334           173.3163
                        -77.83615           90.37455          -27.75544          -1.980502

         250000000         -24.88603          -4.818869         -0.7795372          -4.067338          -76.59826           29.52542          -86.21812           26.27042
                        -80.67867            55.2429          -83.05291           47.46113
                       -0.7795372          -4.067338          -25.12789          -5.374027          -81.22276           56.93573          -55.04444           12.15431
                        -80.16924           40.66255          -79.78346           40.84554
                        -76.59826           29.52542          -81.22276           56.93573          -27.69844          -3.126776          -77.45795           82.47639
                        -90.91152           19.09486          -91.54786           41.00215
                        -86.21812           26.27042          -55.04444           12.15431          -77.45795           82.47639          -27.98434          -3.565325
                        -93.39463           75.16277          -92.92662            91.0647
                        -80.67867            55.2429          -80.16924           40.66255          -90.91152           19.09486          -93.39463           75.16277
                        -27.88979          -3.258307          -77.53022           88.80128
                        -83.05291           47.46113          -79.78346           40.84554          -91.54786           41.00215          -92.92662            91.0647
                        -77.53022           88.80128          -27.77233          -2.675874

         300000000          -24.8187          -6.310406         -0.7844452          -4.860189          -75.24591           26.87571          -83.58604           66.33896
                        -78.74655           56.54786          -80.91722           29.80916
                       -0.7844452          -4.860189           -25.1556          -6.267283          -79.90715           52.70435          -54.67973           5.725835
                        -79.82723           57.26948           -77.0101           37.29467
                        -75.24591           26.87571          -79.90715           52.70435          -27.65311          -4.306232          -73.51909           83.45715
                        -92.14532            34.3375          -87.86348           90.36681
                        -83.58604           66.33896          -54.67973           5.725835          -73.51909           83.45715          -27.91774          -4.331257
                        -89.47089          -166.5217          -106.1129          -119.6405
                        -78.74655           56.54786          -79.82723           57.26948          -92.14532            34.3375          -89.47089          -166.5217
                        -27.84149          -4.366219          -74.76119           85.66342
                        -80.91722           29.80916           -77.0101           37.29467          -87.86348           90.36681          -106.1129          -119.6405
                        -74.76119           85.66342          -27.67356          -3.378476

         350000000         -24.77584           -7.76332         -0.7920774          -5.653889           -77.0261            31.6583          -85.37953           46.62778
                        -79.36007           48.11611          -79.54825           41.83475
                       -0.7920774          -5.653889          -25.10554          -7.318908          -78.58185           49.72712          -54.99861           10.75818
                        -78.55426           44.63235          -79.06737           43.13566
                         -77.0261            31.6583          -78.58185           49.72712          -27.59834          -4.958663          -72.92187            95.3131
                        -86.64719           34.01542          -119.7287          -169.9418
                        -85.37953           46.62778          -54.99861           10.75818          -72.92187            95.3131          -27.86222          -5.435797
                        -87.53175           42.51747          -95.66572           148.5536
                        -79.36007           48.11611          -78.55426           44.63235          -86.64719           34.01542          -87.53175           42.51747
                         -27.7847          -5.112567          -73.96644           94.40563
                        -79.54825           41.83475          -79.06737           43.13566          -119.7287          -169.9418          -95.66572           148.5536
                        -73.96644           94.40563          -27.66838          -4.156561

         400000000         -24.79368          -8.943093         -0.8015164          -6.410971          -74.56255           45.07104          -84.34751           22.87312
                         -79.1021           70.10816          -82.02575           35.55069
                       -0.8015164          -6.410971          -25.02561          -8.344003          -80.08443           50.89953          -54.75502           7.176496
                        -81.74564           24.24593          -76.19785           55.67046
                        -74.56255           45.07104          -80.08443           50.89953          -27.53072          -6.255889          -72.78132           97.86523
                        -88.63776           1.707941          -87.11354          -93.13322
                        -84.34751           22.87312          -54.75502           7.176496          -72.78132           97.86523          -27.77954          -6.378773
                        -91.27442           4.674198          -98.56068           100.6051
                         -79.1021           70.10816          -81.74564           24.24593          -88.63776           1.707941          -91.27442           4.674198
                        -27.71869          -6.283931           -72.4653           92.65937
                        -82.02575           35.55069          -76.19785           55.67046          -87.11354          -93.13322          -98.56068           100.6051
                         -72.4653           92.65937          -27.55315          -4.911774

         450000000         -24.67831          -10.11428          -0.805691          -7.175751          -74.00491           35.31761          -77.39974           78.20155
                        -76.52156           66.59468          -76.73224           55.69626
                        -0.805691          -7.175751          -24.99454          -10.10193          -76.54415           61.30669          -54.95629           11.84496
                        -80.50499           69.23424          -75.51221           53.36346
                        -74.00491           35.31761          -76.54415           61.30669          -27.50628          -7.070535          -71.20533           95.90292
                        -90.26021           35.48955          -93.89532           121.9641
                        -77.39974           78.20155          -54.95629           11.84496          -71.20533           95.90292          -27.74112          -7.695725
                        -89.02512           108.0268          -106.0413           98.89231
                        -76.52156           66.59468          -80.50499           69.23424          -90.26021           35.48955          -89.02512           108.0268
                        -27.67667          -7.201942          -71.92017           92.10986
                        -76.73224           55.69626          -75.51221           53.36346          -93.89532           121.9641          -106.0413           98.89231
                        -71.92017           92.10986          -27.55349          -5.965774

         500000000         -24.67056          -11.76874         -0.8114249          -7.943186          -74.70002           40.69986          -78.49835           56.65663
                        -75.85746           69.07555          -80.49725            64.0427
                       -0.8114249          -7.943186           -24.9955           -10.8413          -76.78012           69.90167          -54.64725           8.860715
                        -77.22038           43.14077          -74.13154           52.05979
                        -74.70002           40.69986          -76.78012           69.90167          -27.43356          -8.233923          -69.99322           83.71156
                        -88.62889            11.9933            -90.376           33.14844
                        -78.49835           56.65663          -54.64725           8.860715          -69.99322           83.71156          -27.68267          -8.575344
                        -88.38299          -155.6274           -109.184           163.0825
                        -75.85746           69.07555          -77.22038           43.14077          -88.62889            11.9933          -88.38299          -155.6274
                        -27.61768          -8.343104          -70.37916           89.78681
                        -80.49725            64.0427          -74.13154           52.05979            -90.376           33.14844           -109.184           163.0825
                        -70.37916           89.78681          -27.45444          -6.639339

         550000000         -24.56919          -13.23811         -0.8167412          -8.695987          -73.99288           47.02426          -77.81755           63.79115
                        -74.11802           61.82115          -77.43965           47.80871
                       -0.8167412          -8.695987          -24.85479          -12.46921          -75.55602           67.93962          -54.84441           12.97813
                        -77.18706           60.33436          -74.84696            50.1795
                        -73.99288           47.02426          -75.55602           67.93962          -27.40607          -9.200884          -70.46122            82.2257
                        -92.78571           41.05857          -97.14244           94.87495
                        -77.81755           63.79115          -54.84441           12.97813          -70.46122            82.2257          -27.63385          -9.895812
                        -84.42624           107.6887          -99.17837           173.3787
                        -74.11802           61.82115          -77.18706           60.33436          -92.78571           41.05857          -84.42624           107.6887
                        -27.58048          -9.299101          -69.73666           90.92962
                        -77.43965           47.80871          -74.84696            50.1795          -97.14244           94.87495          -99.17837           173.3787
                        -69.73666           90.92962          -27.45062          -7.836047

         600000000         -24.64498          -15.24069         -0.8243616          -9.483764          -72.70094           48.83531          -77.88945           62.50924
                         -75.4154           57.26595          -80.96621            41.1515
                       -0.8243616          -9.483764          -24.89747          -14.25748          -76.39265            68.3531          -54.45225           10.04816
                        -76.99253           59.86227          -73.39925           58.48196
                        -72.70094           48.83531          -76.39265            68.3531          -27.34468           -10.3508          -69.18096           88.67965
                        -88.73168           34.75255          -96.09614           94.66633
                        -77.88945           62.50924          -54.45225           10.04816          -69.18096           88.67965          -27.59239          -10.79842
                        -91.42421            58.7286          -98.42009           147.2216
                         -75.4154           57.26595          -76.99253           59.86227          -88.73168           34.75255          -91.42421            58.7286
                        -27.52269          -10.39444          -68.81681           92.60606
                        -80.96621            41.1515          -73.39925           58.48196          -96.09614           94.66633          -98.42009           147.2216
                        -68.81681           92.60606          -27.37201          -8.386528

         650000000         -24.57932           -15.9508          -0.832868           -10.2529          -72.50458           44.89841          -78.05659           67.11286
                        -74.45298           66.59671            -78.922           52.92696
                        -0.832868           -10.2529          -24.88528          -15.40688          -75.99244           53.57289          -54.80759           13.44742
                        -76.88955           40.62371          -72.87235           49.98232
