! Device: ADRF5080 
! Description: 20GHz Reflective SP8T Switch 
! Frequency: 100 MHz – 20 GHz 
! 
! Ports:   
! RFC = Port 1  
! RF1 = Port 2  
! RF2 = Port 3  
! RF3 = Port 4  
! RF4 = Port 5  
! RF5 = Port 6  
! RF6 = Port 7  
! RF7 = Port 8  
! RF8 = Port 9  
! 
! State: RF1 selected 
!  
! Supply Voltage: 
! VDD   =  +3.30 Volts 
! VSS   =  -3.30 Volts 
! 
! Control Voltages:  
! V1  = 0V, V2  = 0V, V3  = 0V, LS = 0V, EN = 0V 
! 
! Temperature = +25 C
!
! Data: Data was collected using a calibrated network analyzer.
!       The reference plane is the package pins of ADRF5080 switch. 
!
! Note: Analog Devices supplies this data as a sample of measured data for this product. 
!       Your particular data for this product may vary. 
!       Analog Devices reserves the right to change this data at anytime 

# GHz S DB R 50

5.000000000000000e-02 -2.6690290000000001e+01 -2.1158230400000000e+00 -9.0969900823594851e-01 -5.1138758208746360e+00 -8.2501193999999998e+01 -3.2172659600000003e+01 -9.3383257600000007e+01 -1.7194043700000000e+02
                        -9.6778566400000003e+01  2.6576827000000002e+01 -9.8464572300000000e+01 -8.5511813099999998e+01 -1.0073997300000001e+02  1.3933202100000003e+02 -9.8071088099999997e+01 -6.1228888000000005e+01
                        -1.0174551599999999e+02 -7.9324454500000002e+01
                        -8.5944425646512934e-01 -5.2780000000000005e+00 -2.7234009999999998e+01 -2.0934376200000000e+00 -7.9888157500000005e+01  4.1096570700000008e+01 -9.0866377400000005e+01  1.1021168800000000e+02
                        -9.0925353599999994e+01 -2.4059143300000002e+01 -1.0004703200000000e+02  2.5734577000000002e+01 -9.9531281500000006e+01  5.3896186799999995e+01 -9.4001799699999992e+01  1.5017421999999999e+02
                        -1.0332741999999999e+02 -1.7168405900000000e+01
                        -7.9512342300000000e+01 -2.8200640300000000e+01 -7.8316786199999996e+01  4.5011218399999997e+01 -7.2528922899999970e-01  1.7915126400000003e+02 -7.7797030000000007e+01  7.5107050200000003e+01
                        -8.7088601299999993e+01  7.6477342500000006e+01 -9.3672048899999993e+01  9.2619020800000001e+01 -9.4673873700000001e+01  1.0311768400000000e+02 -9.4884740300000004e+01  1.2930278600000000e+02
                        -9.3837957799999998e+01 -1.5174482900000001e+02
                        -1.0179391500000000e+02  3.6315390700000001e+00 -9.9737271800000002e+01 -8.7442090199999996e+01 -8.1062190599999994e+01  7.4505480100000000e+01 -7.1325114699999970e-01  1.7911871199999999e+02
                        -7.9117302699999996e+01  5.7806834699999996e+01 -8.9789678399999985e+01  2.5324679799999998e+01 -9.9218396100000007e+01 -1.4465533800000000e+02 -9.6191287200000005e+01  1.6970025000000001e+02
                        -8.8058312799999996e+01  4.0664584400000003e+01
                        -8.9212263800000002e+01 -7.4706232799999995e+01 -8.5833749400000002e+01  8.2074465900000007e+01 -9.8091474000000005e+01  6.3537970700000002e+01 -7.9959694999999996e+01  6.8577601200000004e+01
                        -7.3631026000000044e-01  1.7920287200000001e+02 -8.2809999899999994e+01  8.0458895100000007e+01 -9.3087093400000001e+01  8.3402102700000000e+01 -8.9930138200000002e+01  1.4902225899999999e+02
                        -9.9310280599999999e+01 -9.8921258199999997e+01
                        -8.9615460400000003e+01 -5.6841921400000011e+01 -8.9454482100000007e+01  6.7197835399999988e+01 -1.0050136800000001e+02 -1.1414595100000000e+02 -9.4213587300000000e+01  4.2944600199999996e+01
                        -8.3016810300000003e+01  9.3571936800000003e+01 -7.3608449099999984e-01  1.7915542600000001e+02 -7.9102198400000006e+01  6.3560130499999993e+01 -9.9887295100000003e+01 -7.9565873800000006e+01
                        -8.9595042699999993e+01  1.0490429300000001e+02
                        -1.0198598699999999e+02 -1.7631558200000001e+02 -1.0684398200000001e+02 -1.6137792999999999e+02 -8.4896613799999997e+01  4.2492197800000000e+01 -9.5821895600000005e+01  1.5567495900000000e+02
                        -9.4596801900000003e+01  9.1316369800000004e+01 -7.9389063899999996e+01  7.1216753300000008e+01 -7.3743894600000104e-01  1.7907697500000000e+02 -8.2319880200000000e+01  7.3663701700000004e+01
                        -9.1254820899999999e+01  1.1648556300000001e+02
                        -9.0699287499999997e+01  4.3905187299999994e+01 -8.6375670000000014e+01  1.6450879700000002e+01 -9.5773167200000003e+01 -3.8762281900000005e+01 -9.3741078000000016e+01  4.3968132600000004e+01
                        -8.4156071800000007e+01  7.1760350900000006e+01 -9.3187340000000006e+01  1.0121712599999998e+02 -7.9145794199999997e+01  9.1659463799999983e+01 -7.3988913299999992e-01  1.7912064400000000e+02
                        -7.7835467600000001e+01  7.9348593500000007e+01
                        -9.0451979700000010e+01  1.1239347600000002e+02 -8.5579423300000002e+01 -1.8356842200000003e+01 -9.1678488799999997e+01  4.5771190399999995e+00 -8.9461601900000005e+01  1.3846086600000001e+02
                        -8.5436588700000001e+01 -1.7374550400000000e+01 -8.4433005399999985e+01  9.6313661800000006e+01 -9.1935186999999999e+01  9.1447242399999979e+01 -7.7658106599999996e+01  6.2890340299999991e+01
                        -7.2405730599999973e-01  1.7913333399999999e+02
1.000000000000000e-01 -2.6366170000000004e+01 -4.2307189000000003e+00 -9.1419462922667238e-01 -9.7040630430432540e+00 -8.2182547200000016e+01 -5.0895119899999997e+01 -9.0123899300000005e+01 -4.3320865400000002e+01
                        -9.4080610399999998e+01 -5.8920420900000003e+01 -9.7102719199999996e+01 -5.0737175399999998e+01 -1.0943528100000000e+02  4.6997045599999993e+01 -1.1287944500000000e+02 -1.3372828699999999e+02
                        -9.6027679199999994e+01 -1.5644189200000000e+02
                        -9.0361171373133109e-01 -9.6600000000000019e+00 -2.6943440000000002e+01 -4.1861900000000007e+00 -7.5090912799999998e+01  5.3927725500000001e+01 -1.0324332500000000e+02  6.2225895400000006e+01
                        -9.5952808000000005e+01 -5.3064777999999997e+01 -9.3491542999999979e+01  1.0469627900000002e+02 -9.1957153199999993e+01 -8.7583902300000005e+01 -1.0304585299999999e+02 -9.1220782399999990e+01
                        -9.4490689700000004e+01  5.6733017900000018e+00
                        -8.3958147200000013e+01 -3.4564776799999997e+01 -7.5404606400000006e+01  6.5026726900000000e+01 -7.7493655500000036e-01  1.7833303699999999e+02 -7.5722266200000007e+01  8.0093271099999995e+01
                        -8.5291443099999995e+01  9.3428483600000007e+01 -9.4967424600000001e+01  5.1958419499999991e+01 -9.2508063199999981e+01 -1.5722795099999999e+02 -9.6510864800000007e+01  9.2165001400000008e+01
                        -8.8564313400000003e+01  4.5440157300000017e+01
                        -1.0627891500000001e+02 -7.3564984400000000e+01 -1.0221150000000000e+02  1.6433921300000000e+02 -7.3389257999999998e+01  7.8977868700000002e+01 -7.6273877100000009e-01  1.7802559199999996e+02
                        -7.4419558499999994e+01  6.5359757200000004e+01 -9.7259941799999993e+01  1.0273527700000000e+02 -9.3604683699999995e+01  1.0170052900000002e+02 -1.0102931500000000e+02  2.6185791599999998e+01
                        -9.9791426999999999e+01  2.4399856500000002e+01
                        -9.1985851999999994e+01 -5.1715245699999990e+01 -8.8674372899999995e+01 -9.9388832000000008e+01 -8.7895344199999982e+01  7.6826245200000002e+01 -7.4928313000000003e+01  6.7651123000000013e+01
                        -7.8217921499999843e-01  1.7822400200000001e+02 -7.5059907800000005e+01  8.4650791400000017e+01 -9.3895141300000006e+01  8.8136481200000006e+01 -9.2051360500000001e+01  2.7391678700000000e+01
                        -9.2425586400000000e+01 -1.6800581099999999e+02
                        -9.3043083499999995e+01 -8.1424319299999993e+01 -9.7146114299999994e+01 -1.0730084800000000e+02 -8.6925187699999995e+01  4.5952940800000000e+01 -8.4268710499999997e+01  6.4032578599999994e+01
                        -7.4671110299999995e+01  7.7374206699999988e+01 -7.8732971500000026e-01  1.7822911500000001e+02 -7.5218894100000000e+01  7.7957908900000007e+01 -9.4500444599999994e+01  1.1544035299999999e+02
                        -9.2399658000000002e+01  8.5661149399999985e+01
                        -9.4101545200000004e+01 -4.7106897900000000e+01 -9.7282154300000002e+01  1.7633386700000000e+02 -8.9059579999999997e+01  9.8207766200000009e+01 -8.8753180500000013e+01  5.1780639299999997e+01
                        -8.5664661499999994e+01  1.0262106500000000e+02 -7.4065742599999993e+01  7.4869550599999997e+01 -7.9210852300000034e-01  1.7805470299999999e+02 -7.5223478799999995e+01  8.0070359800000006e+01
                        -8.7739086600000007e+01  8.7047106100000008e+01
                        -9.1607992899999999e+01  1.3449298400000001e+02 -8.7944262400000000e+01 -1.0155187500000002e+02 -9.6849519099999981e+01  7.5660957400000001e+01 -1.0242568399999999e+02 -1.6038048699999999e+02
                        -9.6567875599999994e+01 -1.6447717000000000e+02 -9.0058169899999996e+01  1.1534383500000003e+02 -7.5253148699999997e+01  8.4857561200000006e+01 -7.9326914899999945e-01  1.7832415499999999e+02
                        -7.2814746000000000e+01  7.9473843700000003e+01
                        -9.6598865499999988e+01  1.4988103300000000e+02 -1.0742383000000001e+02  4.5538204900000011e+01 -1.1519729100000001e+02  1.4166125299999999e+02 -1.0537271500000000e+02 -9.6800993399999996e+01
                        -9.9605254900000006e+01 -5.3029206500000001e+01 -1.0898507100000000e+02 -1.5954045500000001e+02 -9.0616706100000002e+01  6.5884453600000001e+01 -7.1739512000000005e+01  8.0177243799999999e+01
                        -7.8492672499999960e-01  1.7821980400000004e+02
1.500000000000000e-01 -2.6361609999999999e+01 -6.3439231999999981e+00 -9.1648853433056199e-01 -1.4238601630581055e+01 -8.2073402000000016e+01 -6.6677777899999995e+01 -8.9261796599999997e+01 -1.0774880400000004e+02
                        -1.0466049700000001e+02  1.6851634500000000e+02 -9.7934053599999999e+01 -1.2063254100000000e+02 -1.0221913499999999e+02  1.2880144400000003e+02 -1.0213691900000001e+02  1.7788988399999997e+02
                        -9.3187623799999983e+01  8.8831049800000002e+01
                        -9.2576435749705688e-01 -1.4156000000000004e+01 -2.6845330000000001e+01 -6.2777511000000006e+00 -7.3011266399999997e+01  6.7038189000000003e+01 -9.1087989199999996e+01  8.4777261699999997e+01
                        -1.0297169200000000e+02 -2.0491133000000008e+01 -9.8457412199999993e+01  9.0775012700000005e+01 -9.9434362699999994e+01 -4.8385990999999997e+00 -9.5589540000000000e+01  2.2929289900000001e+01
                        -9.7724617100000003e+01  1.7778285400000001e+01
                        -8.0969417500000006e+01 -6.5055266500000002e+01 -7.2223293400000003e+01  6.5613180400000019e+01 -7.8255190600000024e-01  1.7801379399999999e+02 -7.2199914699999994e+01  8.1722915900000018e+01
                        -8.5438962099999998e+01  7.8929354599999996e+01 -9.1789760900000005e+01  6.5312990299999996e+01 -9.2161735199999995e+01  1.7283611400000002e+01 -9.1829649399999994e+01  7.5829216599999995e+01
                        -9.4447500600000012e+01  5.0331890299999998e+01
                        -9.3670403300000004e+01 -1.0633452400000002e+02 -8.8238292900000005e+01  8.2227083100000002e+01 -7.1737657499999997e+01  8.5826075500000002e+01 -7.7769418299999993e-01  1.7756188000000000e+02
                        -7.1625381700000005e+01  7.5328069499999998e+01 -8.5394005800000002e+01  9.3579458700000004e+01 -9.3619691399999994e+01  9.9563223100000002e+01 -1.0297643800000000e+02 -1.6311844800000000e+02
                        -1.0375984099999999e+02  1.3742711600000001e+02
                        -1.0589835800000000e+02 -1.5761383599999999e+02 -1.0049021300000000e+02  5.1314718199999987e+01 -8.4291786099999996e+01  8.2737614699999995e+01 -7.1534880599999994e+01  7.4167533099999986e+01
                        -7.9580649899999967e-01  1.7784446000000000e+02 -7.2378397600000000e+01  8.4243450799999991e+01 -8.8696222700000007e+01  1.2185859700000003e+02 -8.9539034400000020e+01  7.3309199300000003e+01
                        -1.0012422300000000e+02  1.0285934200000000e+02
                        -9.7905585200000019e+01 -8.7904379100000000e+01 -1.1630199200000000e+02  1.6430114099999997e+02 -9.0751806400000007e+01  7.7804027700000020e+01 -8.7627640799999995e+01  7.0493654500000005e+01
                        -7.1972395700000007e+01  8.2713070599999995e+01 -7.9597817200000132e-01  1.7785858300000001e+02 -7.1294678899999994e+01  7.8080166300000002e+01 -8.4226024600000002e+01  7.5825737200000006e+01
                        -9.0813921300000004e+01  6.3454584200000006e+01
                        -1.1035901500000000e+02 -1.5964453700000001e+02 -1.1141143299999999e+02 -1.7802773300000001e+02 -9.5408547200000001e+01  3.8841505200000000e+01 -9.5832376000000011e+01 -1.7229405899999996e+01
                        -8.3766757299999995e+01  6.5698602100000002e+01 -7.1536563700000002e+01  7.6353489100000004e+01 -8.0532308899999905e-01  1.7761125899999999e+02 -7.2485190399999993e+01  8.4355376500000006e+01
                        -8.7395349300000021e+01  9.5952172200000021e+01
                        -9.9328178600000001e+01 -1.6534819300000001e+02 -1.0177831000000000e+02 -1.0215582999999999e+02 -9.2067441500000001e+01  1.2211322900000000e+02 -1.0632106100000000e+02 -1.7676218100000000e+02
                        -8.8483721599999996e+01  8.4022734200000016e+01 -8.4734534900000000e+01  6.7760317400000005e+01 -7.2491690500000004e+01  8.4123223200000012e+01 -8.0693140099999972e-01  1.7800392600000001e+02
                        -6.9316356499999998e+01  7.8487489100000005e+01
                        -9.6162310099999999e+01  1.7823528799999998e+01 -8.9591234299999996e+01 -1.1447448299999999e+02 -9.3307782200000005e+01  1.2101307100000001e+02 -1.0576839899999999e+02  8.6111373700000001e+01
                        -8.8671165900000005e+01  7.1715447600000005e+01 -9.3911045099999996e+01  3.1337819799999995e+01 -8.6362889300000006e+01  8.2767350100000002e+01 -6.8968310900000006e+01  8.2338612600000005e+01
                        -7.9164931099999958e-01  1.7788478600000002e+02
2.000000000000000e-01 -2.6384520000000002e+01 -8.4546744999999959e+00 -9.2085110889589417e-01 -1.8902516209632878e+01 -7.9698802799999996e+01 -6.8318278199999995e+01 -9.3097856800000017e+01 -7.7845868400000001e+01
                        -9.3710388100000003e+01 -1.6600372300000004e+02 -9.2319335100000018e+01 -3.2325649100000000e+01 -1.0166682000000000e+02  1.5610565399999999e+02 -9.3012420500000005e+01  4.8340873299999998e+01
                        -8.8321810999999997e+01  7.8856642800000003e+01
                        -9.2314362641748959e-01 -1.8739999999999995e+01 -2.6869679999999999e+01 -8.3676144000000026e+00 -7.1628354900000005e+01  7.0572171100000006e+01 -8.6108572600000002e+01  6.4766561999999993e+01
                        -9.8722128799999993e+01 -4.2512153300000008e+01 -9.4428707500000002e+01  4.5801868100000000e+01 -1.0262463800000000e+02  8.7002710900000011e+01 -9.9129952000000003e+01 -1.2578250500000000e+02
                        -9.5835065299999997e+01 -1.3081525099999999e+02
                        -7.8070017899999996e+01 -6.5915837199999999e+01 -7.0214014599999999e+01  6.7223684099999986e+01 -7.7665929300000025e-01  1.7725772499999999e+02 -6.9317301099999995e+01  8.3537012899999979e+01
                        -8.1053557400000003e+01  9.1976140900000004e+01 -8.5560503499999996e+01  5.5297582200000001e+01 -8.8491641299999998e+01  2.5065534099999997e+01 -9.2628547900000001e+01  5.1228541700000015e+01
                        -1.0694065200000000e+02  8.1751284200000001e+01
                        -9.0846460800000003e+01 -6.1208728299999997e+01 -8.5077783400000001e+01  7.6813814500000007e+01 -6.8912844800000002e+01  8.0371518800000004e+01 -7.6975494099999975e-01  1.7662878100000000e+02
                        -6.9522683099999995e+01  7.6479337999999984e+01 -8.2014576000000005e+01  8.9814991599999999e+01 -8.8336074199999999e+01  5.7923344199999995e+01 -9.2974119099999996e+01  1.5005338499999999e+02
                        -9.4743618299999994e+01  4.2397191300000003e+01
                        -9.4325259900000006e+01 -1.3952224000000004e+02 -1.0066917200000000e+02  1.3783748700000001e+02 -8.0173437600000000e+01  5.9851610299999990e+01 -6.9158438700000005e+01  7.8542605899999998e+01
                        -7.8958346600000018e-01  1.7701874500000000e+02 -6.9099613800000000e+01  7.9006772900000001e+01 -8.8879769600000003e+01  9.5419859299999999e+01 -8.9014094999999998e+01  1.2666142399999998e+02
                        -8.8163856999999993e+01  9.5157465299999998e+01
                        -9.2451139399999988e+01  4.5201844500000007e+01 -9.3356155900000005e+01  3.9309774099999991e+01 -9.6941829600000005e+01 -2.8275266899999995e+01 -8.6796138600000006e+01  6.3362064099999991e+01
                        -7.0414562399999994e+01  8.0441806200000016e+01 -7.9439269099999976e-01  1.7703170600000001e+02 -6.8914319300000002e+01  8.0325044199999994e+01 -8.1964556599999995e+01  8.5215689100000006e+01
                        -8.8267854000000000e+01  1.1030712900000002e+02
                        -8.9459023799999997e+01  1.7585016399999998e+02 -9.1033862700000000e+01 -2.9653629200000005e+01 -9.1037108300000000e+01  7.6564315900000011e+01 -8.5756258200000005e+01  3.3372955100000006e+01
                        -8.7411906100000010e+01  6.7198330000000013e+01 -6.8891310899999993e+01  7.4580095300000011e+01 -8.0327866399999981e-01  1.7670651899999999e+02 -6.9828015100000002e+01  8.4724778799999996e+01
                        -8.1984972499999998e+01  7.4168505199999998e+01
                        -1.0099038400000001e+02  1.6590094800000000e+02 -9.3630063600000000e+01  3.1581628199999994e+01 -8.8760032300000006e+01  8.4583057999999994e+01 -1.0504092700000000e+02 -1.5145006900000001e+02
                        -9.2234642199999996e+01  1.0866680400000000e+02 -8.3213493900000003e+01  7.8104706600000000e+01 -7.0968474700000002e+01  8.1634941499999996e+01 -8.0247809500000000e-01  1.7729940500000001e+02
                        -6.6408521300000004e+01  7.7671937099999994e+01
                        -9.1017769000000015e+01 -6.8103091900000010e+01 -9.5903561499999995e+01  2.7168007600000006e+01 -8.5678239099999999e+01  9.2259630599999994e+01 -9.0199305499999994e+01  1.1320707200000000e+02
                        -8.5363589700000006e+01  1.0566515699999999e+02 -8.9845217800000000e+01  6.3675621000000000e+01 -8.0613422999999997e+01  5.6654563500000002e+01 -6.6322195899999997e+01  8.0612549799999996e+01
                        -7.9111513899999886e-01  1.7706197900000004e+02
2.500000000000000e-01 -2.6262670000000000e+01 -1.0562214200000003e+01 -9.2379640336908053e-01 -2.3220671019462266e+01 -7.8009891600000003e+01 -8.5379377700000006e+01 -8.8782682300000005e+01 -1.1691377600000003e+02
                        -1.0567942499999999e+02  2.8629040300000000e+01 -8.7403692799999988e+01 -1.5095274100000000e+02 -9.3873037299999993e+01  2.4992378700000000e+01 -1.0334848100000001e+02 -1.5031939299999996e+02
                        -8.9524782799999997e+01  8.3558145099999990e+01
                        -9.2167924937784229e-01 -2.3350000000000001e+01 -2.6827340000000000e+01 -1.0455272100000000e+01 -6.9011555000000001e+01  7.5706009399999999e+01 -8.9385361099999997e+01  1.2297820800000000e+02
                        -1.0181705400000000e+02  5.9216346100000003e+01 -9.2161559799999992e+01  3.7653994700000005e+01 -1.0410131400000000e+02 -1.0699628300000001e+02 -9.5886529499999995e+01 -1.3268944400000001e+02
                        -8.7097690900000003e+01 -1.0123302400000000e+02
