! Device:      ADRF5700					
! Description: 2 dB LSB, 5-Bit, Silicon Digital Attenuator, 100 MHz to 22 GHz			
! Frequency:   10MHz -  30.00 GHz						
! Ports:       										
!        RF1 = Port 1
!        RF2 = Port 2
!						
! VDD  =  +3.30 Volts
! VSS  =  -3.30 Volts
!				
! State:        0.00 dB attenuation 	
! Data:  Data was collected using an calibrated 4 port network analyzer 						
!             The reference plane is the edge of the device.
! Notes: Analog Devices supplies this data as a sample of measured data						
!             for this product.  Your particular data for this product may vary.						
!             Data was taken at 25 degrees C.						
!             Analog Devices reserves the right to change this data at anytime.	
!
# GHz S  dB   R 50
0.0100 -20.2495 -7.5109 -1.1632 -0.0653 -1.1634 -0.0173 -20.2593 -5.7359
0.0475 -20.6951 -1.4623 -1.2031 -0.6405 -1.1789 -0.6184 -20.6687 -0.3161
0.0850 -20.4595 -1.9528 -1.1915 -1.1768 -1.1723 -1.1880 -20.4188 -0.9963
0.1225 -20.5327 -2.8789 -1.1933 -1.7043 -1.1744 -1.6756 -20.4956 -1.8439
0.1600 -20.6033 -3.4447 -1.2036 -2.1884 -1.1791 -2.2039 -20.5753 -2.2799
0.1974 -20.4850 -4.3433 -1.2079 -2.6893 -1.1833 -2.6914 -20.5397 -3.2326
0.2349 -20.4170 -5.2235 -1.2088 -3.1397 -1.1859 -3.1891 -20.5144 -4.0242
0.2724 -20.4616 -5.8906 -1.2125 -3.6886 -1.1943 -3.6789 -20.5202 -5.0006
0.3099 -20.5046 -6.5897 -1.2124 -4.2196 -1.1987 -4.1326 -20.5422 -5.4552
0.3474 -20.4709 -8.1860 -1.2204 -4.6605 -1.1969 -4.6136 -20.5078 -7.0203
0.3849 -20.4096 -9.0511 -1.2197 -5.0809 -1.2017 -5.1155 -20.4714 -8.0372
0.4224 -20.3863 -9.1396 -1.2201 -5.5841 -1.2031 -5.5753 -20.4707 -8.0592
0.4599 -20.3563 -9.0434 -1.2253 -6.0781 -1.2035 -6.0487 -20.4955 -7.9928
0.4973 -20.3802 -9.8481 -1.2302 -6.5562 -1.2059 -6.5245 -20.5575 -8.5497
0.5348 -20.3475 -11.2064 -1.2327 -7.0829 -1.2085 -7.0067 -20.5771 -10.1278
0.5723 -20.2679 -12.0853 -1.2357 -7.5005 -1.2129 -7.4903 -20.5755 -10.8677
0.6098 -20.2539 -12.7428 -1.2383 -7.9498 -1.2160 -7.9578 -20.5539 -11.8896
0.6473 -20.2978 -13.3189 -1.2388 -8.4830 -1.2169 -8.4221 -20.5749 -12.1946
0.6848 -20.2829 -14.1236 -1.2421 -8.9379 -1.2196 -8.9027 -20.5824 -12.8921
0.7223 -20.2134 -14.9288 -1.2441 -9.4311 -1.2237 -9.3793 -20.5792 -13.7965
0.7598 -20.1706 -15.6000 -1.2444 -9.9188 -1.2251 -9.8418 -20.6127 -14.4797
0.7972 -20.1723 -16.2536 -1.2492 -10.3469 -1.2267 -10.3235 -20.6435 -15.3447
0.8347 -20.1500 -16.7916 -1.2521 -10.8069 -1.2302 -10.7963 -20.7135 -15.7268
0.8722 -20.1149 -17.8608 -1.2508 -11.3110 -1.2316 -11.2695 -20.6472 -17.0399
0.9097 -20.1173 -18.8078 -1.2571 -11.7744 -1.2347 -11.7437 -20.6753 -18.1187
0.9472 -20.1163 -19.5935 -1.2564 -12.1832 -1.2371 -12.2205 -20.6350 -18.8660
0.9847 -20.0932 -20.4452 -1.2646 -12.6816 -1.2403 -12.6875 -20.6636 -19.6643
1.0222 -20.0613 -20.9015 -1.2651 -13.1950 -1.2406 -13.1469 -20.6891 -20.0465
1.0596 -20.0161 -21.5183 -1.2646 -13.6825 -1.2428 -13.6284 -20.6794 -20.9156
1.0971 -20.0087 -22.0776 -1.2699 -14.1175 -1.2472 -14.0946 -20.7395 -21.4719
1.1346 -20.0046 -23.0413 -1.2750 -14.5732 -1.2491 -14.5581 -20.7180 -22.6351
1.1721 -19.9766 -24.0611 -1.2770 -15.0565 -1.2516 -15.0357 -20.7458 -23.5581
1.2096 -19.9484 -24.6373 -1.2779 -15.5274 -1.2551 -15.4924 -20.7408 -24.3026
1.2471 -19.9114 -25.0541 -1.2800 -16.0269 -1.2571 -15.9545 -20.7265 -24.7820
1.2846 -19.9573 -25.8406 -1.2858 -16.5299 -1.2590 -16.4299 -20.7305 -25.6352
1.3221 -19.9175 -26.6436 -1.2882 -16.9571 -1.2622 -16.8995 -20.7654 -26.4951
1.3596 -19.8429 -27.3506 -1.2904 -17.3772 -1.2649 -17.3569 -20.7989 -27.0944
1.3970 -19.7842 -27.6924 -1.2900 -17.9247 -1.2658 -17.8269 -20.8777 -27.8963
1.4345 -19.7701 -28.1767 -1.2938 -18.3574 -1.2691 -18.3001 -20.8993 -28.3639
1.4720 -19.8077 -28.9540 -1.2975 -18.8027 -1.2714 -18.7614 -20.8833 -29.5642
1.5095 -19.7668 -30.2381 -1.3024 -19.2854 -1.2735 -19.2364 -20.8972 -30.6732
1.5470 -19.7104 -30.9330 -1.3019 -19.7332 -1.2773 -19.7084 -20.8860 -31.6929
1.5845 -19.7196 -31.2898 -1.3037 -20.1881 -1.2799 -20.1697 -20.8945 -32.2007
1.6220 -19.7080 -31.6255 -1.3069 -20.6629 -1.2817 -20.6283 -20.9348 -32.7396
1.6595 -19.6959 -32.7227 -1.3084 -21.1343 -1.2839 -21.1045 -20.8861 -33.6361
1.6969 -19.6663 -33.4898 -1.3107 -21.6110 -1.2879 -21.5645 -20.9591 -34.8850
1.7344 -19.5975 -34.0304 -1.3118 -22.0973 -1.2905 -22.0223 -20.9890 -35.5087
1.7719 -19.6079 -34.3375 -1.3158 -22.5321 -1.2925 -22.4764 -21.0146 -36.1816
1.8094 -19.6314 -35.2254 -1.3201 -22.9540 -1.2951 -22.9350 -20.9741 -36.9750
1.8469 -19.6293 -36.1496 -1.3198 -23.4434 -1.2967 -23.3954 -20.9544 -38.2701
1.8844 -19.6224 -36.8487 -1.3219 -23.8919 -1.2982 -23.8613 -20.9567 -38.9245
1.9219 -19.6175 -37.4151 -1.3247 -24.4014 -1.3005 -24.3231 -21.0086 -39.6962
1.9594 -19.6043 -37.9476 -1.3250 -24.8890 -1.3014 -24.7814 -20.9814 -40.2157
1.9968 -19.5912 -38.5194 -1.3292 -25.3014 -1.3045 -25.2601 -20.9835 -41.0418
2.0343 -19.5948 -39.1358 -1.3301 -25.7640 -1.3080 -25.7237 -21.0151 -41.8552
2.0718 -19.5875 -39.8084 -1.3386 -26.2390 -1.3091 -26.1825 -21.0491 -42.6211
2.1093 -19.5886 -40.3032 -1.3394 -26.6611 -1.3116 -26.6388 -21.0662 -43.3177
2.1468 -19.5799 -41.2141 -1.3425 -27.1656 -1.3138 -27.1054 -21.0275 -44.1741
2.1843 -19.5693 -41.8163 -1.3432 -27.5886 -1.3171 -27.5489 -21.0195 -45.2366
2.2218 -19.5937 -42.6057 -1.3470 -28.0388 -1.3190 -28.0055 -21.0233 -45.7682
2.2593 -19.5834 -43.0693 -1.3443 -28.5781 -1.3190 -28.4520 -21.0809 -46.7582
2.2967 -19.5720 -43.7842 -1.3509 -29.0348 -1.3205 -28.9132 -21.0990 -47.3171
2.3342 -19.5563 -44.3464 -1.3543 -29.4807 -1.3220 -29.3740 -21.0761 -48.3322
2.3717 -19.5891 -44.8953 -1.3565 -29.8809 -1.3248 -29.8268 -21.1084 -48.9412
2.4092 -19.6031 -45.3297 -1.3551 -30.3449 -1.3251 -30.2874 -21.1627 -49.6095
2.4467 -19.6049 -46.2909 -1.3561 -30.9016 -1.3270 -30.7348 -21.2054 -50.4477
2.4842 -19.5654 -46.9524 -1.3589 -31.3314 -1.3278 -31.1923 -21.1524 -51.6027
2.5217 -19.5545 -47.5355 -1.3644 -31.7576 -1.3305 -31.6587 -21.1613 -52.5330
2.5592 -19.6251 -48.0531 -1.3697 -32.2102 -1.3346 -32.0961 -21.1825 -53.1580
2.5966 -19.6489 -49.0027 -1.3671 -32.6870 -1.3339 -32.5443 -21.1858 -53.7484
2.6341 -19.6038 -49.7683 -1.3686 -33.1377 -1.3338 -33.0143 -21.1935 -54.8330
2.6716 -19.5579 -50.1657 -1.3696 -33.5666 -1.3381 -33.4607 -21.1940 -55.5610
2.7091 -19.5899 -50.4945 -1.3665 -34.0327 -1.3386 -33.9054 -21.2120 -56.4286
2.7466 -19.6557 -51.2836 -1.3623 -34.5106 -1.3374 -34.3598 -21.2117 -56.8649
2.7841 -19.6474 -52.2215 -1.3680 -34.9795 -1.3369 -34.8218 -21.2727 -57.9462
2.8216 -19.6123 -52.9548 -1.3745 -35.4282 -1.3383 -35.2857 -21.2468 -58.8952
2.8591 -19.5819 -53.4732 -1.3711 -35.8819 -1.3386 -35.7476 -21.2060 -60.1061
2.8965 -19.6766 -54.0957 -1.3770 -36.3152 -1.3412 -36.2119 -21.2382 -60.4417
2.9340 -19.7503 -54.9605 -1.3784 -36.7644 -1.3429 -36.6676 -21.2179 -61.4615
2.9715 -19.6845 -55.9904 -1.3809 -37.2366 -1.3423 -37.1316 -21.2816 -62.3398
3.0090 -19.6642 -56.4733 -1.3812 -37.6947 -1.3459 -37.6037 -21.2128 -63.0805
3.0465 -19.6701 -56.6849 -1.3819 -38.1811 -1.3464 -38.0402 -21.2459 -64.1082
3.0840 -19.7747 -57.4398 -1.3804 -38.6127 -1.3471 -38.5086 -21.2723 -64.4127
3.1215 -19.7749 -58.5140 -1.3823 -39.0440 -1.3488 -38.9814 -21.2452 -65.5107
3.1590 -19.7325 -59.3999 -1.3840 -39.5151 -1.3490 -39.4262 -21.2385 -66.3141
3.1964 -19.6797 -59.6158 -1.3824 -39.9607 -1.3473 -39.8828 -21.2374 -67.1847
3.2339 -19.7824 -60.2249 -1.3837 -40.4319 -1.3497 -40.3561 -21.2191 -67.9072
3.2714 -19.8452 -61.3641 -1.3830 -40.8827 -1.3541 -40.8093 -21.1416 -68.7047
3.3089 -19.7964 -62.7553 -1.3856 -41.3535 -1.3511 -41.2690 -21.2112 -69.7869
3.3464 -19.7159 -62.9052 -1.3870 -41.7983 -1.3524 -41.7442 -21.1418 -70.5471
3.3839 -19.7525 -63.1879 -1.3860 -42.2737 -1.3530 -42.1996 -21.1840 -70.7958
3.4214 -19.8165 -63.7077 -1.3872 -42.7414 -1.3555 -42.6460 -21.1969 -71.7959
3.4589 -19.8380 -65.1818 -1.3878 -43.1721 -1.3540 -43.1052 -21.1731 -72.7980
3.4963 -19.7582 -66.1246 -1.3904 -43.6221 -1.3579 -43.5691 -21.1072 -74.0528
3.5338 -19.7339 -66.5867 -1.3870 -44.1347 -1.3582 -44.0262 -21.0713 -74.6698
3.5713 -19.7868 -66.9957 -1.3856 -44.6045 -1.3556 -44.4958 -21.0487 -75.2516
3.6088 -19.8261 -68.4738 -1.3873 -45.0092 -1.3586 -44.9555 -20.9878 -76.2225
3.6463 -19.7897 -69.7813 -1.3882 -45.4851 -1.3594 -45.4153 -20.9137 -77.5301
3.6838 -19.6979 -70.5234 -1.3869 -45.9704 -1.3603 -45.8746 -20.9331 -78.5075
3.7213 -19.7081 -70.6298 -1.3889 -46.4376 -1.3600 -46.3362 -20.9255 -78.9521
3.7588 -19.7409 -71.4448 -1.3923 -46.8577 -1.3607 -46.7932 -20.8586 -79.6977
3.7962 -19.7682 -72.9370 -1.3913 -47.3102 -1.3612 -47.2602 -20.7995 -80.9730
3.8337 -19.6705 -74.5077 -1.3881 -47.7973 -1.3596 -47.7178 -20.8144 -82.7726
3.8712 -19.6484 -74.6471 -1.3932 -48.2868 -1.3617 -48.1904 -20.7105 -82.8098
3.9087 -19.6848 -75.1495 -1.3928 -48.7366 -1.3626 -48.6466 -20.6930 -83.6594
3.9462 -19.7468 -76.5325 -1.3945 -49.1959 -1.3625 -49.1152 -20.6265 -84.4582
3.9837 -19.7061 -77.9963 -1.3940 -49.6604 -1.3660 -49.5920 -20.5605 -86.0922
4.0212 -19.6495 -78.8109 -1.3947 -50.1355 -1.3676 -50.0381 -20.5645 -86.4710
4.0587 -19.6521 -79.1504 -1.3966 -50.6107 -1.3660 -50.5204 -20.5071 -87.1429
4.0961 -19.6709 -79.9132 -1.3922 -51.0542 -1.3682 -50.9607 -20.4761 -88.0993
4.1336 -19.6565 -81.3311 -1.3982 -51.5279 -1.3665 -51.4145 -20.3989 -89.0663
4.1711 -19.6304 -82.5047 -1.4015 -52.0095 -1.3694 -51.9054 -20.3543 -90.2962
4.2086 -19.5644 -83.2239 -1.3971 -52.4531 -1.3714 -52.3661 -20.2928 -91.2079
4.2461 -19.5891 -83.8375 -1.4009 -52.9284 -1.3698 -52.8248 -20.1968 -91.4557
4.2836 -19.6021 -84.7596 -1.4006 -53.4090 -1.3712 -53.3062 -20.1680 -92.4035
4.3211 -19.5724 -86.3126 -1.3975 -53.8401 -1.3705 -53.7555 -20.0920 -93.5773
4.3586 -19.4903 -87.1608 -1.4032 -54.2832 -1.3743 -54.2191 -19.9854 -94.5058
4.3960 -19.4679 -87.8514 -1.4034 -54.7753 -1.3753 -54.6879 -19.9857 -94.9520
4.4335 -19.4623 -88.4544 -1.4064 -55.2575 -1.3744 -55.1824 -19.8881 -95.6745
4.4710 -19.4321 -89.7162 -1.4076 -55.6921 -1.3760 -55.6321 -19.8272 -96.7544
4.5085 -19.3941 -90.7533 -1.4055 -56.1742 -1.3761 -56.0826 -19.7393 -97.5985
4.5460 -19.3782 -91.6057 -1.4075 -56.6546 -1.3793 -56.5625 -19.7264 -98.1419
4.5835 -19.3537 -92.3824 -1.4096 -57.0984 -1.3805 -57.0299 -19.5862 -98.9980
4.6210 -19.3075 -93.3792 -1.4084 -57.5437 -1.3792 -57.4723 -19.5557 -99.7286
4.6585 -19.3082 -94.0056 -1.4115 -58.0578 -1.3801 -57.9715 -19.5100 -100.2254
4.6959 -19.2913 -95.0466 -1.4140 -58.5003 -1.3827 -58.4406 -19.4110 -101.3342
4.7334 -19.2792 -96.1594 -1.4126 -58.9403 -1.3822 -58.8952 -19.3564 -102.0768
4.7709 -19.1948 -97.1173 -1.4153 -59.4514 -1.3830 -59.3617 -19.2737 -102.4596
4.8084 -19.1718 -97.7306 -1.4197 -59.8895 -1.3879 -59.8483 -19.2110 -103.4373
4.8459 -19.1633 -98.8801 -1.4172 -60.3250 -1.3885 -60.2903 -19.1022 -104.2311
4.8834 -19.1674 -99.5803 -1.4203 -60.8280 -1.3904 -60.7701 -19.0670 -104.2656
4.9209 -19.1252 -100.6929 -1.4206 -61.2744 -1.3909 -61.2243 -19.0066 -105.3938
4.9584 -19.0857 -101.2882 -1.4236 -61.7910 -1.3915 -61.7194 -18.9583 -105.7336
4.9958 -19.0436 -102.0899 -1.4253 -62.1876 -1.3947 -62.1400 -18.8385 -106.5078
5.0333 -19.0722 -102.7306 -1.4209 -62.6665 -1.3936 -62.6023 -18.8511 -106.8721
5.0708 -19.0356 -103.8467 -1.4264 -63.1381 -1.3953 -63.0990 -18.7559 -107.6159
5.1083 -18.9787 -104.7596 -1.4281 -63.6116 -1.3977 -63.5728 -18.6927 -108.2831
5.1458 -18.8910 -105.4237 -1.4293 -64.0688 -1.4007 -64.0167 -18.5964 -108.8754
5.1833 -18.9375 -105.9288 -1.4288 -64.5317 -1.3996 -64.4833 -18.6004 -109.3456
5.2208 -18.9423 -106.8537 -1.4316 -65.0133 -1.3998 -64.9470 -18.4957 -109.7847
5.2583 -18.9213 -108.0727 -1.4346 -65.4737 -1.4007 -65.4251 -18.4561 -110.2441
5.2957 -18.7870 -108.7188 -1.4409 -65.9160 -1.4087 -65.8805 -18.3979 -111.0752
5.3332 -18.7937 -108.9342 -1.4362 -66.3752 -1.4061 -66.3418 -18.4019 -111.4149
5.3707 -18.8183 -109.6105 -1.4406 -66.8514 -1.4052 -66.8244 -18.2578 -111.9390
5.4082 -18.7970 -110.7886 -1.4386 -67.2952 -1.4109 -67.2805 -18.2700 -112.4966
5.4457 -18.7252 -111.7425 -1.4391 -67.7757 -1.4088 -67.7459 -18.1666 -113.2248
5.4832 -18.6698 -112.2428 -1.4434 -68.2410 -1.4142 -68.2192 -18.0941 -113.4512
5.5207 -18.6857 -112.5232 -1.4415 -68.6745 -1.4157 -68.6577 -18.0608 -113.7818
5.5582 -18.7157 -113.3291 -1.4397 -69.1649 -1.4171 -69.1234 -18.0490 -114.2206
5.5956 -18.6694 -114.2662 -1.4448 -69.6458 -1.4161 -69.6244 -17.9584 -114.8438
5.6331 -18.6180 -115.1947 -1.4502 -70.0997 -1.4196 -70.0752 -17.9333 -115.5674
5.6706 -18.5754 -115.2078 -1.4532 -70.5535 -1.4244 -70.5243 -17.9117 -115.6554
5.7081 -18.6326 -115.8950 -1.4525 -71.0092 -1.4239 -70.9809 -17.8861 -116.2607
5.7456 -18.6152 -116.7578 -1.4537 -71.5003 -1.4254 -71.4681 -17.8409 -116.6417
5.7831 -18.5854 -117.9429 -1.4555 -71.9511 -1.4270 -71.9083 -17.7857 -117.1637
5.8206 -18.4939 -118.2593 -1.4620 -72.3874 -1.4303 -72.3656 -17.7308 -117.8595
5.8581 -18.5510 -118.3229 -1.4567 -72.8972 -1.4243 -72.8555 -17.7395 -117.7771
5.8955 -18.5762 -119.2032 -1.4607 -73.3628 -1.4309 -73.3094 -17.6727 -118.3139
5.9330 -18.5322 -120.1325 -1.4588 -73.8075 -1.4333 -73.7766 -17.6799 -119.0566
5.9705 -18.4610 -120.9490 -1.4637 -74.2535 -1.4380 -74.2151 -17.6149 -119.7512
6.0080 -18.4542 -120.9709 -1.4615 -74.7610 -1.4355 -74.7117 -17.6058 -119.6945
6.0455 -18.5170 -121.3658 -1.4693 -75.2162 -1.4415 -75.1623 -17.5942 -119.9585
6.0830 -18.5121 -122.2386 -1.4700 -75.6568 -1.4413 -75.6119 -17.5618 -120.6689
6.1205 -18.4716 -122.9898 -1.4687 -76.1153 -1.4404 -76.0731 -17.5765 -121.3848
6.1580 -18.4418 -123.4419 -1.4734 -76.6187 -1.4437 -76.5373 -17.5146 -121.4504
6.1954 -18.4848 -123.5818 -1.4775 -77.0776 -1.4464 -77.0075 -17.4994 -121.7023
6.2329 -18.5162 -124.3426 -1.4780 -77.5261 -1.4484 -77.4629 -17.5066 -122.2390
6.2704 -18.4889 -125.0102 -1.4731 -77.9940 -1.4477 -77.9294 -17.5559 -122.7092
6.3079 -18.4349 -125.5777 -1.4773 -78.4584 -1.4514 -78.3854 -17.4930 -123.3332
6.3454 -18.4489 -125.7762 -1.4779 -78.9104 -1.4512 -78.8327 -17.4563 -123.5993
6.3829 -18.5017 -126.2600 -1.4775 -79.3498 -1.4529 -79.2833 -17.5116 -123.8688
6.4204 -18.5134 -127.0675 -1.4803 -79.8322 -1.4560 -79.7562 -17.5175 -124.2360
6.4579 -18.4442 -127.5165 -1.4864 -80.2884 -1.4576 -80.2299 -17.4802 -125.0129
6.4953 -18.4558 -127.8532 -1.4870 -80.7328 -1.4623 -80.6607 -17.4713 -125.5080
6.5328 -18.4926 -128.0281 -1.4855 -81.2057 -1.4555 -81.1081 -17.4979 -125.3516
6.5703 -18.5242 -128.6400 -1.4924 -81.7131 -1.4585 -81.6195 -17.4864 -125.7554
6.6078 -18.5197 -129.2434 -1.4959 -82.1338 -1.4639 -82.0493 -17.5611 -126.4146
6.6453 -18.5020 -129.7274 -1.4952 -82.5856 -1.4642 -82.4960 -17.5441 -127.1427
6.6828 -18.4897 -130.0789 -1.4939 -83.0636 -1.4649 -82.9814 -17.5257 -127.3451
6.7203 -18.5135 -130.5323 -1.4973 -83.5512 -1.4683 -83.4615 -17.5067 -127.5769
6.7578 -18.5257 -130.8849 -1.4983 -83.9724 -1.4678 -83.9026 -17.5923 -128.0339
6.7952 -18.5308 -131.3997 -1.5037 -84.4257 -1.4708 -84.3425 -17.6224 -128.7548
6.8327 -18.5089 -131.5246 -1.4999 -84.8992 -1.4695 -84.8331 -17.6209 -129.1057
6.8702 -18.5431 -132.0469 -1.5028 -85.3444 -1.4754 -85.2731 -17.5802 -129.3410
6.9077 -18.5541 -132.5935 -1.5024 -85.8049 -1.4734 -85.7161 -17.6555 -129.9305
6.9452 -18.5278 -133.1125 -1.5042 -86.2989 -1.4751 -86.2095 -17.6847 -130.1824
6.9827 -18.5339 -133.0403 -1.5083 -86.7582 -1.4772 -86.6893 -17.7174 -130.8452
7.0202 -18.5889 -133.3924 -1.5110 -87.1789 -1.4797 -87.1138 -17.7475 -131.2959
7.0577 -18.6097 -133.9043 -1.5102 -87.6537 -1.4808 -87.5527 -17.7523 -131.6180
7.0951 -18.5714 -134.4144 -1.5097 -88.1394 -1.4802 -88.0522 -17.7777 -132.0090
7.1326 -18.5715 -134.4659 -1.5151 -88.5940 -1.4840 -88.5169 -17.8893 -132.6591
7.1701 -18.6359 -134.4937 -1.5193 -89.0418 -1.4861 -88.9555 -17.9030 -133.1189
7.2076 -18.6634 -135.0786 -1.5169 -89.4884 -1.4886 -89.4000 -17.9189 -133.1416
7.2451 -18.6078 -135.6433 -1.5129 -89.9767 -1.4838 -89.8895 -17.9288 -133.8365
7.2826 -18.5966 -135.8866 -1.5181 -90.4370 -1.4906 -90.3505 -18.0234 -134.4830
7.3201 -18.6403 -135.9202 -1.5221 -90.8762 -1.4910 -90.7673 -18.0823 -134.7632
7.3576 -18.6690 -136.1172 -1.5217 -91.3612 -1.4881 -91.2769 -18.1067 -135.0645
7.3950 -18.7001 -136.8400 -1.5262 -91.8093 -1.4961 -91.7326 -18.1091 -135.6122
7.4325 -18.6738 -137.2067 -1.5253 -92.2637 -1.4932 -92.1497 -18.2022 -136.5097
7.4700 -18.6439 -137.4840 -1.5216 -92.7333 -1.4925 -92.6461 -18.2653 -136.3453
7.5075 -18.6951 -137.2267 -1.5289 -93.2313 -1.4957 -93.1280 -18.3118 -137.4261
7.5450 -18.7407 -137.6546 -1.5313 -93.6463 -1.5025 -93.5449 -18.3753 -137.8683
7.5825 -18.7199 -138.1302 -1.5250 -94.0916 -1.4982 -94.0045 -18.4128 -138.1599
7.6200 -18.6799 -138.5748 -1.5269 -94.5845 -1.5007 -94.5002 -18.4407 -138.6448
7.6575 -18.7164 -138.4297 -1.5361 -95.0542 -1.5042 -94.9474 -18.5399 -139.3722
7.6949 -18.7905 -138.5960 -1.5389 -95.5021 -1.5043 -95.3952 -18.6054 -139.8858
7.7324 -18.7888 -139.3768 -1.5365 -95.9352 -1.5057 -95.8669 -18.6812 -140.0284
7.7699 -18.7138 -139.7052 -1.5344 -96.4396 -1.5029 -96.3289 -18.6429 -141.0033
7.8074 -18.7222 -139.7368 -1.5435 -96.8988 -1.5098 -96.7856 -18.7568 -141.8317
7.8449 -18.7288 -139.5735 -1.5444 -97.3277 -1.5046 -97.2448 -18.8953 -142.1993
7.8824 -18.7990 -140.1878 -1.5426 -97.8152 -1.5124 -97.7366 -18.8819 -142.6073
7.9199 -18.7461 -140.6506 -1.5498 -98.2921 -1.5123 -98.1888 -18.9572 -143.6624
7.9574 -18.7488 -140.7932 -1.5497 -98.7345 -1.5161 -98.6372 -18.9662 -143.7563
7.9948 -18.7654 -140.6756 -1.5516 -99.1927 -1.5172 -99.0932 -19.1062 -144.3635
8.0323 -18.8058 -140.9557 -1.5518 -99.6598 -1.5157 -99.5570 -19.1962 -144.8272
8.0698 -18.8155 -141.5065 -1.5546 -100.1543 -1.5227 -100.0384 -19.2229 -145.8813
8.1073 -18.7786 -141.8135 -1.5593 -100.5755 -1.5224 -100.4449 -19.3457 -146.8014
8.1448 -18.7164 -142.0442 -1.5556 -101.0495 -1.5202 -100.9534 -19.3413 -147.1207
8.1823 -18.7359 -142.0414 -1.5593 -101.5161 -1.5287 -101.4117 -19.4297 -147.8264
8.2198 -18.7529 -142.2834 -1.5632 -101.9603 -1.5309 -101.8288 -19.5439 -149.0030
8.2573 -18.7051 -142.5375 -1.5567 -102.3975 -1.5243 -102.2932 -19.6290 -149.1935
8.2947 -18.7315 -142.6774 -1.5598 -102.9133 -1.5315 -102.7765 -19.6127 -149.9378
8.3322 -18.7450 -142.7166 -1.5634 -103.3378 -1.5329 -103.1919 -19.7426 -150.3972
8.3697 -18.7111 -143.1994 -1.5627 -103.8264 -1.5309 -103.6839 -19.8449 -151.3507
8.4072 -18.6563 -143.3278 -1.5622 -104.2663 -1.5309 -104.1251 -19.9600 -152.0237
8.4447 -18.6428 -143.5034 -1.5658 -104.7613 -1.5341 -104.6133 -19.9512 -153.1039
8.4822 -18.6532 -143.3177 -1.5687 -105.1954 -1.5359 -105.0372 -20.0006 -153.4935
8.5197 -18.7080 -143.8358 -1.5688 -105.6465 -1.5363 -105.4914 -20.1063 -153.7775
8.5572 -18.6331 -144.5414 -1.5640 -106.1401 -1.5330 -105.9832 -20.1592 -154.8637
8.5946 -18.6098 -144.6789 -1.5757 -106.5875 -1.5396 -106.4430 -20.3334 -155.9409
8.6321 -18.5764 -144.6550 -1.5707 -107.0541 -1.5363 -106.9079 -20.3137 -156.4503
8.6696 -18.6295 -144.7941 -1.5703 -107.5115 -1.5379 -107.3593 -20.3815 -157.1999
8.7071 -18.5957 -145.5932 -1.5702 -107.9755 -1.5406 -107.8334 -20.4597 -157.8694
8.7446 -18.5245 -145.8163 -1.5782 -108.4475 -1.5436 -108.2846 -20.5921 -159.5726
8.7821 -18.4813 -145.8327 -1.5735 -108.9053 -1.5429 -108.7483 -20.6339 -160.1819
8.8196 -18.4940 -145.7080 -1.5747 -109.3707 -1.5434 -109.2129 -20.6584 -161.0436
8.8571 -18.5799 -146.3434 -1.5759 -109.8545 -1.5489 -109.6828 -20.7085 -161.4191
8.8945 -18.4611 -146.8555 -1.5756 -110.2795 -1.5441 -110.0954 -20.8181 -162.5702
8.9320 -18.3931 -147.0053 -1.5756 -110.7604 -1.5425 -110.5983 -20.9473 -163.5883
8.9695 -18.4371 -146.8905 -1.5789 -111.2616 -1.5480 -111.0781 -20.9263 -164.5247
9.0070 -18.5028 -147.0284 -1.5866 -111.7104 -1.5523 -111.4983 -20.9623 -165.4520
9.0445 -18.4864 -148.0418 -1.5825 -112.1444 -1.5470 -111.9734 -21.0481 -165.7903
9.0820 -18.3915 -148.6430 -1.5803 -112.6309 -1.5506 -112.4574 -21.1226 -167.2062
9.1195 -18.3466 -148.5564 -1.5826 -113.0957 -1.5535 -112.9040 -21.1714 -168.4137
9.1570 -18.3461 -148.4620 -1.5853 -113.5368 -1.5529 -113.3478 -21.1989 -169.4349
9.1944 -18.4119 -149.0950 -1.5853 -113.9992 -1.5538 -113.8352 -21.2463 -169.9160
