!
! Hittite Microwave Corporation
! 2 Elizabeth Drive
! Chelmsford, MA 01824
! http://www.hittite.com
! Tel: 978-250-3343
! Fax: 978-250-3373
! 
! Device:      HMC424LP3
! Description: 0.5 dB GaAs MMIC 6-Bit Digital Attenuator
! Frequency:    DC -  13.00 GHz
! Package:     LP3  - 3x3 mm Quad Flatpack No-Lead (QFN) Plastic Package: 16 pin
! Ports:       2 RF, 7 DC
!              Pad  1  = Ground
!              Pad  2  = RF IN   = Port 1
!              Pad  3  = Ground
!              Pad  4  = V6
!              Pad  5  = V5
!              Pad  6  = V4
!              Pad  7  = V3
!              Pad  8  = V2
!              Pad  9  = V1
!              Pad 10  = Ground
!              Pad 11  = RF OUT  = Port 2
!              Pad 12  = Ground
!              Pad 15  = VEE
!
! Control:     -5 Volt control voltage
! State:        16 
! Attenuation:  8.0 dB
! Voltages:    Vdd = -5.00 Volts  Idd =  -2.304 mA
!              V1  = 0.00 Volts  I1  =  29.0 uA
!              V2  = 0.00 Volts  I2  =  29.0 uA
!              V3  = 0.00 Volts  I3  =  29.0 uA
!              V4  = 0.00 Volts  I4  =  30.0 uA
!              V5  = -5.00 Volts  I5  =  -1.0 uA
!              V6  = 0.00 Volts  I6  =  30.0 uA
!
! Data:    The device was measured on evaluation board 105354-1. 
!          Data was collected using a calibrated network analyzer.
!          The evaluation circuit board was modeled and simulated.  This was use
!          to removed the evaluation board circuit from the measured data.
!          The reference plane is the edge of the package pin.
!
! Misc:    Lot xxxx, Unit 1
!          Application 20120001, Data collected in Application 20090083
!
! Date Measured:  2009-09-15
! Date:           2012-05-14  MJV
! Note: 
!   Hittite supplies this data as a sample of measured data at the package pin
!   for this product.  Your particular data for this product may vary.
!   Data was taken at 25 degrees C.
!   Hittite reserves the right to change this data at anytime.
!
# GHz S MA R 50

0.01	0.11444619	1.5784701	0.30234907	-0.94415307	0.30245351	-1.1113531	0.10029939	2.3163163	
0.11	0.11023002	-3.0804491	0.30133523	-2.3690451	0.30060757	-2.4074451	0.09641203	-1.7590202	
0.21	0.11061896	-5.9555618	0.30067179	-4.0753907	0.30004935	-4.0506907	0.095713991	-6.680391	
0.31	0.11229821	-8.4237164	0.30013287	-5.7638591	0.29947706	-5.7721591	0.10075942	-9.1696489	
0.41	0.11308882	-11.120467	0.2999523	-7.4239899	0.29953819	-7.4471899	0.10154958	-10.847455	
0.51	0.11486079	-13.736492	0.29937959	-9.1750197	0.29882862	-9.2101197	0.10043385	-13.283913	
0.61	0.11603353	-16.406918	0.29903468	-10.830178	0.29851871	-10.830378	0.10166268	-17.637123	
0.71	0.11885269	-18.799793	0.29860814	-12.538795	0.29798997	-12.524795	0.10804917	-19.83928	
0.81	0.12075676	-21.145605	0.29832643	-14.205098	0.29774312	-14.159298	0.1079265	-20.523583	
0.91	0.12348482	-23.212468	0.29786067	-15.8802	0.29727827	-15.8621	0.10897348	-24.221486	
1.01	0.12554247	-24.909924	0.29749263	-17.469752	0.29691095	-17.481752	0.11248072	-27.14168	
1.11	0.12810042	-26.933615	0.29704812	-19.12702	0.29656972	-19.12722	0.11903278	-27.927685	
1.21	0.13014326	-28.637389	0.29676231	-20.766816	0.29614796	-20.735716	0.11743849	-28.164446	
1.31	0.13214432	-30.308034	0.29632367	-22.447658	0.29574427	-22.417458	0.11988245	-31.820781	
1.41	0.13441566	-31.54798	0.29608672	-24.036701	0.29537173	-24.036101	0.1244832	-33.034542	
1.51	0.13623778	-33.186174	0.29568346	-25.725099	0.29507134	-25.652699	0.12839507	-33.149588	
1.61	0.13833821	-34.565492	0.29526855	-27.345588	0.29458945	-27.306688	0.12583875	-33.649755	
1.71	0.13923935	-35.797798	0.29484595	-28.981282	0.29426944	-28.943382	0.1277913	-37.046562	
1.81	0.1410942	-37.052918	0.29455174	-30.568171	0.29404351	-30.564771	0.13185595	-37.647797	
1.91	0.14162023	-38.38949	0.29430894	-32.208554	0.29373348	-32.220654	0.1326476	-38.187361	
2.01	0.14218993	-39.726311	0.2938129	-33.829288	0.29320466	-33.806388	0.12994586	-39.329124	
2.11	0.14240926	-41.027654	0.29347757	-35.452417	0.29293746	-35.407017	0.13227362	-42.851589	
2.21	0.14331758	-42.54073	0.29326522	-37.019926	0.29282662	-37.017326	0.13645188	-43.289167	
2.31	0.14365697	-44.055995	0.29304546	-38.679676	0.29233781	-38.621476	0.13532861	-44.076404	
2.41	0.14344643	-45.692569	0.29243438	-40.236229	0.29196341	-40.216129	0.13331957	-46.244901	
2.51	0.14360666	-47.239902	0.29238087	-41.860036	0.29167483	-41.802436	0.13662064	-49.526049	
2.61	0.14363897	-49.03136	0.2920072	-43.457334	0.29140269	-43.463334	0.14016587	-49.707181	
2.71	0.14386761	-51.007641	0.29162831	-45.107994	0.29115864	-45.095994	0.13760634	-51.173629	
2.81	0.14291201	-52.776661	0.29131536	-46.626864	0.29094667	-46.681564	0.13731767	-53.853999	
2.91	0.14383752	-54.851921	0.29114838	-48.293549	0.29067949	-48.277349	0.14105516	-56.635196	
3.01	0.14370699	-57.038505	0.29083569	-49.967794	0.29020019	-49.935894	0.14381749	-56.822737	
3.11	0.14381109	-59.267118	0.29024874	-51.499001	0.28984802	-51.540501	0.14014475	-58.698375	
3.21	0.14367503	-61.358711	0.28988016	-53.164322	0.28947995	-53.105122	0.1411471	-61.860183	
3.31	0.14434941	-63.699224	0.28964783	-54.759626	0.28911477	-54.691526	0.14471826	-64.007437	
3.41	0.14496618	-66.220958	0.28930491	-56.39081	0.28867276	-56.38071	0.14608875	-64.51268	
3.51	0.14555005	-68.552513	0.2886177	-57.95476	0.28815288	-57.94816	0.14271169	-67.087263	
3.61	0.14643328	-70.993716	0.28833652	-59.56312	0.28777274	-59.56002	0.14580692	-70.651367	
3.71	0.14840135	-73.360556	0.28799037	-61.179826	0.28729494	-61.138826	0.14982322	-72.311538	
3.81	0.14997465	-75.664246	0.28734706	-62.802263	0.28681823	-62.776663	0.14999971	-73.20247	
3.91	0.15161292	-77.898089	0.28679243	-64.356482	0.28626462	-64.328682	0.14801266	-76.525034	
4.01	0.16031618	-78.622134	0.28691593	-65.877251	0.28625604	-65.866951	0.16075378	-77.663848	
4.11	0.16255378	-80.383302	0.28634505	-67.529357	0.28581807	-67.502957	0.16448013	-78.356361	
4.21	0.16492422	-82.112902	0.2856563	-69.111608	0.28536046	-69.079908	0.1648179	-79.277696	
4.31	0.16781843	-83.397145	0.28530979	-70.620506	0.28468637	-70.663006	0.16496245	-81.882201	
4.41	0.17025268	-84.562801	0.28471142	-72.240493	0.28422017	-72.192993	0.17228791	-83.358231	
4.51	0.17266389	-85.781709	0.28425252	-73.831374	0.28366407	-73.802574	0.17407848	-83.135101	
4.61	0.17473548	-86.871449	0.28359875	-75.332075	0.28310941	-75.322975	0.17363873	-83.842994	
4.71	0.17747743	-87.648187	0.28331551	-76.865911	0.28259883	-76.862411	0.17403378	-85.68981	
4.81	0.17948102	-88.420449	0.28285213	-78.41978	0.28220158	-78.40598	0.18053085	-86.417996	
4.91	0.18164567	-89.136052	0.28199183	-80.040089	0.28144046	-79.995689	0.18031173	-85.63262	
5.01	0.18325505	-89.647042	0.28149658	-81.51482	0.28110795	-81.52812	0.17854319	-86.556813	
5.11	0.18530569	-89.862901	0.28123148	-83.019612	0.28071391	-83.020812	0.17923648	-87.881116	
5.21	0.18664562	-90.247304	0.28077661	-84.571692	0.28042125	-84.560092	0.18436258	-88.305454	
5.31	0.18811305	-90.438467	0.28005027	-86.105283	0.27963143	-86.116783	0.18270097	-87.090547	
5.41	0.18873212	-90.37714	0.27982492	-87.603789	0.27937426	-87.598989	0.18059139	-88.301746	
5.51	0.18995261	-90.329799	0.27954646	-89.096556	0.27896775	-89.108956	0.18237805	-89.057983	
5.61	0.19048753	-90.126172	0.27912071	-90.614691	0.27879954	-90.601991	0.18593911	-88.988004	
5.71	0.19014394	-90.053165	0.27886675	-92.163709	0.27832148	-92.140209	0.1834554	-87.65278	
5.81	0.19011204	-89.547773	0.27872003	-93.641714	0.27823912	-93.660614	0.18051135	-88.778215	
5.91	0.18933088	-89.376872	0.27850512	-95.160174	0.27812062	-95.166274	0.1835478	-89.010692	
6.01	0.18849256	-88.970126	0.27835487	-96.68169	0.27797058	-96.68669	0.18515886	-88.083594	
6.11	0.18704514	-88.515907	0.2780655	-98.232724	0.27764963	-98.216424	0.18112849	-86.639142	
6.21	0.18512585	-87.743874	0.27817585	-99.759079	0.27763194	-99.734079	0.17698561	-87.612765	
6.31	0.18294829	-87.480569	0.27816119	-101.31834	0.27758535	-101.29324	0.17892195	-87.344311	
6.41	0.17993056	-86.6408	0.27793867	-102.83163	0.2774591	-102.81563	0.17719727	-86.000546	
6.51	0.17604617	-86.008982	0.27785865	-104.42103	0.27737922	-104.38303	0.17162335	-84.602055	
6.61	0.17194218	-85.384202	0.27814949	-106.0115	0.2777335	-105.9973	0.16562128	-85.549978	
6.71	0.16737231	-85.042952	0.27825785	-107.62348	0.27774575	-107.59118	0.16560734	-85.313669	
6.81	0.16253605	-84.457679	0.27828759	-109.22685	0.27755167	-109.19315	0.16031616	-84.041554	
6.91	0.15688293	-83.999588	0.27852149	-110.84322	0.27788091	-110.81292	0.15341993	-83.588611	
7.01	0.15109724	-83.821603	0.27889992	-112.50711	0.27825847	-112.49731	0.14580156	-84.870994	
7.11	0.14450241	-83.744643	0.27884738	-114.18418	0.27852653	-114.16048	0.14493744	-85.343441	
7.21	0.13732432	-83.693002	0.278846	-115.84223	0.27846103	-115.79183	0.13696737	-84.16448	
7.31	0.1297445	-83.802389	0.27925008	-117.55108	0.27870407	-117.55018	0.1285873	-85.622518	
7.41	0.12191799	-84.434949	0.27979932	-119.30583	0.27922008	-119.27703	0.12219027	-87.971476	
7.51	0.11329392	-85.126207	0.27989273	-121.0448	0.27940979	-121.0132	0.11963181	-89.222318	
7.61	0.1048049	-86.450981	0.27994232	-122.80911	0.27942712	-122.74191	0.11092255	-89.001302	
7.71	0.096081772	-88.127357	0.2803006	-124.59492	0.27972033	-124.56662	0.10194859	-92.431031	
7.81	0.087234674	-91.029317	0.28033683	-126.43232	0.27988535	-126.42432	0.095868079	-96.33172	
7.91	0.078232734	-94.307128	0.28044246	-128.29047	0.27979746	-128.23937	0.092052976	-99.096196	
8.01	0.069344254	-98.845061	0.28013564	-130.10964	0.2795879	-130.07714	0.082317387	-101.57266	
8.11	0.061701919	-105.78834	0.28035159	-131.98596	0.27977121	-131.94406	0.075249769	-109.53346	
8.21	0.055168679	-114.73623	0.28021764	-133.87069	0.27960535	-133.85849	0.072065493	-116.86382	
8.31	0.050140329	-126.07171	0.28006512	-135.73069	0.2795497	-135.68529	0.069218463	-122.90789	
8.41	0.048058314	-139.37905	0.27953057	-137.60461	0.27904825	-137.58541	0.062621027	-131.58929	
8.51	0.049647465	-153.53325	0.27958376	-139.57742	0.2790371	-139.54982	0.064320874	-145.13799	
8.61	0.053680608	-165.72298	0.27924427	-141.52219	0.27856995	-141.49409	0.069273885	-153.49785	
8.71	0.060542698	-176.08555	0.27873369	-143.38713	0.27818869	-143.36583	0.07270435	-160.23976	
8.81	0.069301097	176.54209	0.27802604	-145.30932	0.27751436	-145.30922	0.076243641	-169.61275	
8.91	0.079396052	171.51764	0.27778432	-147.27494	0.27720926	-147.26694	0.088374808	-176.38815	
9.01	0.088753922	167.97954	0.27705296	-149.18606	0.27654308	-149.16216	0.096919715	-178.90398	
9.11	0.09894078	164.49047	0.27619375	-151.05426	0.27571719	-151.05276	0.10532113	178.32549	
9.21	0.10987934	163.0458	0.27542482	-152.93103	0.27488629	-152.90263	0.11208789	174.88862	
9.31	0.11987328	161.24366	0.27467478	-154.88715	0.27416928	-154.86815	0.12624354	172.42992	
9.41	0.1309163	160.447	0.2736907	-156.72969	0.27334431	-156.72099	0.13365332	173.30388	
9.51	0.14031181	159.99131	0.27243885	-158.49689	0.27190616	-158.46669	0.13952352	171.37485	
9.61	0.15025413	159.80763	0.27150723	-160.32231	0.27106996	-160.26381	0.14959128	170.37047	
9.71	0.1591505	160.20413	0.27079153	-162.099	0.27026206	-162.0576	0.15917483	170.30317	
9.81	0.16728382	160.46628	0.26964947	-163.86746	0.2691842	-163.84616	0.16559611	170.863	
9.91	0.17489453	160.91362	0.26853478	-165.55442	0.26804058	-165.54132	0.17056811	170.07486	
10.01	0.18206576	161.32293	0.26762937	-167.34386	0.26713684	-167.26146	0.17957574	169.78348	
10.11	0.18910533	162.00572	0.2666087	-169.02211	0.2660874	-169.01901	0.18785111	170.25443	
10.21	0.19526842	162.67319	0.26561815	-170.6885	0.26512932	-170.7134	0.19237457	171.467	
10.31	0.20131388	163.69232	0.26442854	-172.31499	0.26385075	-172.26339	0.19560294	171.09006	
10.41	0.20613408	164.22843	0.26343722	-173.99992	0.26292212	-173.89622	0.20409709	171.51945	
10.51	0.21173698	165.09559	0.26255648	-175.58928	0.26201294	-175.52718	0.21076553	172.49946	
10.61	0.21609429	166.1387	0.26175599	-177.13556	0.26130434	-177.10886	0.21410333	173.65416	
10.71	0.21994894	167.06472	0.26082572	-178.76824	0.26028576	-178.71144	0.21721629	173.44747	
10.81	0.22382088	167.87484	0.26001182	179.6237	0.25983227	179.6872	0.2245771	174.13568	
10.91	0.22686293	168.84126	0.2595558	178.07545	0.25901847	178.09865	0.22797479	175.44862	
11.01	0.23018284	169.63701	0.2586357	176.52815	0.25821917	176.56015	0.22895423	176.30504	
11.11	0.23245365	170.68244	0.25791436	174.9786	0.25729155	174.9777	0.23032678	176.38283	
11.21	0.23427197	171.34888	0.25725341	173.37842	0.25672085	173.45062	0.23510722	176.99669	
11.31	0.23594041	172.02218	0.25655643	171.83078	0.25605479	171.86858	0.23601457	178.02883	
11.41	0.23817661	172.66115	0.25598064	170.30753	0.25562723	170.34243	0.23543773	178.77954	
11.51	0.23936331	173.33739	0.25543874	168.77938	0.25490993	168.81568	0.23481886	178.46103	
11.61	0.24030701	173.72981	0.25476409	167.1739	0.25438307	167.2027	0.23931177	178.60474	
11.71	0.24106401	174.24325	0.25405158	165.62211	0.25387615	165.64581	0.23830797	179.37723	
11.81	0.24189814	174.63221	0.25363253	164.09659	0.2531949	164.08709	0.23783352	179.20591	
11.91	0.24267097	174.92571	0.25296625	162.49607	0.25247163	162.51797	0.23800147	178.94166	
12.01	0.24331805	175.18043	0.25232904	160.875	0.25206772	160.8974	0.24102952	178.93253	
12.11	0.24404284	175.4168	0.25187402	159.28672	0.2515842	159.33982	0.23979436	179.4493	
12.21	0.24506215	175.57874	0.25136125	157.77433	0.25086977	157.77173	0.23935074	178.87153	
12.31	0.24598722	175.65532	0.25048463	156.12754	0.25016761	156.16244	0.24108589	178.57706	
12.41	0.24722197	175.57512	0.24950907	154.43836	0.2491646	154.45076	0.24472823	178.54687	
12.51	0.24799279	175.3538	0.24877472	152.89739	0.24820255	152.95869	0.24371643	179.11222	
12.61	0.24822153	175.27797	0.24780581	151.48936	0.2472928	151.48836	0.24416692	178.07732	
12.71	0.24897027	175.68709	0.24754764	149.95528	0.2469783	149.95978	0.24762538	177.96665	
12.81	0.24985234	175.86358	0.24692693	148.36602	0.24661441	148.38202	0.25033484	177.99479	
12.91	0.25199836	176.10536	0.24681244	146.74568	0.24630149	146.77918	0.25055679	178.4886	
13.01	0.25365797	176.22789	0.24629889	145.14182	0.24590222	145.20292	0.25171636	177.80293	
13.11	0.25646272	176.4178	0.24557329	143.50317	0.24514957	143.51067	0.25575935	177.8397	
13.21	0.25883541	176.71585	0.24482356	141.88815	0.24457001	141.87765	0.25820504	178.04009	
13.31	0.26128042	176.90437	0.2442615	140.28051	0.24381197	140.26421	0.26011785	178.38155	
13.41	0.26437187	177.15744	0.24361298	138.67005	0.24299673	138.70285	0.26223787	178.06108	
13.51	0.26751253	177.60087	0.24273283	137.08099	0.24228612	137.14279	0.26800942	178.30771	
13.61	0.27125363	177.95579	0.24199368	135.4755	0.24160395	135.5466	0.27138426	178.86937	
13.71	0.27564941	178.47833	0.24131041	133.92686	0.24094951	133.93626	0.27385142	179.38266	
13.81	0.27949279	179.20275	0.24063604	132.32662	0.24016553	132.37632	0.27760721	179.38525	
13.91	0.28354581	179.75348	0.23970451	130.77708	0.23918074	130.81078	0.28448713	-179.7897	
14.01	0.28864209	-179.54237	0.23891698	129.1618	0.2385322	129.2315	0.28706139	-178.81165	
14.11	0.29277461	-178.6246	0.23808888	127.62206	0.23767807	127.60626	0.29132789	-178.05149	
14.21	0.29666678	-177.82794	0.23731604	126.06161	0.23687929	126.11411	0.29510721	-177.4784	
14.31	0.30179536	-176.912	0.23641216	124.54589	0.23592274	124.57329	0.30192834	-176.24253	
14.41	0.30624104	-175.87314	0.23562797	123.02196	0.2352214	123.04276	0.30347807	-175.00935	
14.51	0.31083904	-174.77359	0.2348257	121.47655	0.23444751	121.52255	0.30788173	-174.11994	
14.61	0.31514685	-173.5841	0.23417482	119.98232	0.23371694	120.00382	0.31074948	-173.02421	
14.71	0.31900807	-172.34507	0.23315269	118.47407	0.23291123	118.52687	0.3168011	-171.66811	
14.81	0.32316191	-171.25201	0.23257056	116.96435	0.23211582	117.00895	0.3175303	-169.91138	
14.91	0.32681839	-169.76439	0.23179148	115.49293	0.23144482	115.50033	0.32013669	-168.94298	
15.01	0.32921551	-168.51543	0.23100103	113.96223	0.23070867	114.00743	0.32269894	-167.49337	
15.11	0.33152731	-167.21899	0.23025088	112.53616	0.229933	112.58266	0.32614945	-166.13139	
15.21	0.33359106	-165.85935	0.22968569	111.11026	0.2292102	111.13136	0.32614476	-164.10672	
15.31	0.33533196	-164.40245	0.22914432	109.68034	0.22877528	109.73184	0.32668934	-163.00908	
15.41	0.33656263	-163.06608	0.22872897	108.2217	0.22828174	108.2522	0.32826007	-161.18974	
15.51	0.33706263	-161.63188	0.22812342	106.80348	0.22783471	106.82918	0.32862249	-159.56878	
15.61	0.33517502	-160.16568	0.22776427	105.32052	0.22726659	105.34532	0.3264127	-157.42135	
15.71	0.33246597	-158.71757	0.22733252	103.91357	0.22714938	103.93927	0.32389755	-156.23778	
15.81	0.33085484	-156.96637	0.227189	102.54224	0.226797	102.59464	0.32462254	-154.28036	
15.91	0.32892428	-155.31662	0.22712017	101.03359	0.22685884	101.07719	0.32143341	-152.25291	
16.01	0.32469095	-153.73768	0.22695898	99.533413	0.22667173	99.535713	0.31688369	-150.15813	
16.11	0.31874146	-152.06023	0.22700513	98.00857	0.22645696	98.08327	0.31202099	-148.63934	
16.21	0.31289267	-149.87846	0.22683318	96.679244	0.22638966	96.704244	0.31049771	-146.5603	
16.31	0.30908457	-147.52565	0.22717493	95.224463	0.22678295	95.252863	0.30370798	-144.14335	
16.41	0.30454894	-145.31608	0.22790898	93.608381	0.22754193	93.669481	0.29680056	-142.17999	
16.51	0.29891617	-143.46338	0.22852325	91.940255	0.22828659	91.986055	0.28851754	-140.22833	
16.61	0.29277515	-141.87297	0.22919658	90.250264	0.22888015	90.312364	0.28278989	-138.34308	
16.71	0.28585435	-140.15265	0.22959322	88.521925	0.22922346	88.578325	0.27542062	-135.78628	
16.81	0.27619533	-138.5267	0.23022734	86.736702	0.22980364	86.741902	0.26602571	-133.51963	
16.91	0.2671753	-136.76329	0.23099646	84.890902	0.23062443	84.926502	0.25679591	-131.48363	
17.01	0.25584602	-135.1427	0.23171252	82.936932	0.23120621	82.945132	0.24886173	-129.33941	
17.11	0.24427406	-133.7754	0.23181565	80.920953	0.23157558	80.926853	0.23879054	-126.76591	
17.21	0.23031794	-132.77793	0.23223225	78.833792	0.23180486	78.859792	0.22783069	-124.35797	
17.31	0.21484092	-131.66578	0.23221328	76.640571	0.23194609	76.678772	0.2159236	-122.19293	
17.41	0.19537688	-130.68972	0.23214885	74.427579	0.23174829	74.508177	0.20556251	-119.95911	
17.51	0.17391926	-128.95868	0.23120678	72.256908	0.230861	72.297707	0.1917405	-117.41517	
17.61	0.15252692	-125.43824	0.23075042	70.287092	0.23048491	70.327892	0.17831429	-115.48404	
17.71	0.13524757	-121.17515	0.23160787	68.20881	0.23110179	68.24421	0.16468543	-113.2322	
17.81	0.11600273	-118.95687	0.23211199	65.756923	0.23165814	65.774823	0.15267573	-111.26269	
17.91	0.095965147	-113.46587	0.23064293	63.306261	0.23035102	63.364061	0.13628147	-107.8899	
18.01	0.08207224	-103.20958	0.23051189	61.218971	0.23011415	61.24497	0.11801598	-107.03862	
18.11	0.074048116	-98.035984	0.23173836	59.057047	0.23125862	59.088345	0.10361899	-104.18355	
18.21	0.061700132	-98.073998	0.23345091	56.355836	0.2330481	56.429236	0.08424608	-103.0433	
18.31	0.043467669	-98.869945	0.23377309	53.440137	0.23342347	53.492536	0.066693818	-99.584864	
18.41	0.019817662	-101.33106	0.23365892	50.341763	0.23325575	50.395363	0.041282931	-100.95061	
18.51	0.0039223054	71.353845	0.23273205	47.658459	0.2324375	47.724259	0.026453849	-109.62449	
18.61	0.025883487	82.499886	0.23279984	44.912252	0.23247844	44.950752	0.0067026733	-141.27607	
18.71	0.046745511	86.890815	0.23308552	41.942358	0.23271013	41.966358	0.016037723	106.04938	
18.81	0.07620934	87.80449	0.23224993	38.460041	0.2318225	38.477741	0.043589377	93.547383	
18.91	0.10749889	89.300715	0.230793	35.035237	0.2302887	35.102835	0.067817863	97.933047	
19.01	0.13657857	88.1222	0.22739	31.913445	0.22697151	31.923445	0.091701695	95.771171	
19.11	0.16366208	86.053389	0.22387901	29.082905	0.22351845	29.094806	0.11658453	96.777073	
19.21	0.1857303	86.908391	0.22227703	26.41943	0.2219446	26.49993	0.14012776	96.701844	
19.31	0.20718747	89.141186	0.22143988	23.423544	0.22123602	23.460644	0.16749962	97.957976	
