! Mini-Circuits
! S2P DATA File Format
! Type: Low Pass LTCC Surface Mount Filter
! Model: LFCN-1000+    
! Note: All S Parameters are in dB deg format
! TEST CONDITIONS: INPUT POWER = 0dBm @Temperature = +25degC
! 401 Frequency points
!
# MHz S DB R 50
!    FREQ       dB(S11)   PHS(S11)  dB(S21)   PHS(S21)  dB(S12)   PHS(S12)  dB(S22)   PHS(S22) 
   40.000000   -33.163    59.213    -0.078    -8.647    -0.076    -8.379   -34.014    59.315 
   60.000000   -35.715    50.028    -0.081   -12.051    -0.071   -12.015   -35.024    50.360 
   80.000000   -36.592    38.546    -0.095   -15.568    -0.085   -15.608   -35.593    32.859 
  100.000000   -37.467    24.815    -0.120   -19.170    -0.098   -19.186   -36.408    18.546 
  120.000000   -38.627     9.670    -0.129   -22.735    -0.119   -22.761   -36.134     3.992 
  140.000000   -38.924     5.903    -0.123   -26.493    -0.122   -26.446   -35.473    -5.119 
  160.000000   -39.322     0.650    -0.142   -30.116    -0.125   -30.060   -35.045    -8.897 
  180.000000   -40.243    -6.337    -0.149   -33.867    -0.129   -33.791   -34.652   -16.987 
  200.000000   -40.724   -21.190    -0.162   -37.494    -0.145   -37.449   -34.434   -25.986 
  220.000000   -41.821   -27.403    -0.167   -41.223    -0.148   -41.177   -34.037   -33.069 
  240.000000   -42.211   -37.843    -0.172   -44.904    -0.160   -44.903   -33.486   -40.311 
  260.000000   -43.595   -46.876    -0.184   -48.689    -0.171   -48.611   -32.811   -48.651 
  280.000000   -45.036   -62.271    -0.196   -52.391    -0.178   -52.373   -32.222   -54.743 
  300.000000   -45.768   -81.211    -0.200   -56.177    -0.192   -56.129   -31.635   -60.483 
  320.000000   -46.160   -99.684    -0.197   -59.935    -0.190   -59.968   -31.071   -65.141 
  340.000000   -45.352  -125.231    -0.214   -63.771    -0.206   -63.775   -30.682   -72.305 
  360.000000   -44.609  -143.218    -0.224   -67.629    -0.211   -67.601   -30.039   -78.255 
  380.000000   -43.414  -161.672    -0.234   -71.445    -0.218   -71.457   -29.547   -83.133 
  400.000000   -41.272  -177.357    -0.241   -75.312    -0.225   -75.335   -29.173   -87.741 
  420.000000   -40.234   169.259    -0.251   -79.264    -0.236   -79.233   -28.850   -93.092 
  440.000000   -38.828   160.645    -0.263   -83.196    -0.244   -83.211   -28.407   -98.897 
  460.000000   -36.948   155.825    -0.276   -87.154    -0.257   -87.142   -27.955  -105.387 
  480.000000   -35.925   150.472    -0.280   -91.169    -0.260   -91.181   -27.750  -109.687 
  500.000000   -35.137   143.399    -0.294   -95.235    -0.271   -95.222   -27.360  -114.396 
  520.000000   -34.552   137.623    -0.297   -99.305    -0.279   -99.273   -27.203  -119.455 
  540.000000   -33.730   132.703    -0.312  -103.411    -0.294  -103.413   -26.992  -125.019 
  560.000000   -33.086   129.297    -0.321  -107.573    -0.301  -107.593   -26.934  -130.111 
  580.000000   -32.484   124.405    -0.331  -111.827    -0.313  -111.808   -26.790  -134.928 
  600.000000   -31.938   119.518    -0.343  -116.043    -0.330  -116.040   -26.527  -140.269 
  620.000000   -31.438   115.360    -0.352  -120.343    -0.341  -120.375   -26.490  -144.541 
  640.000000   -31.335   111.886    -0.370  -124.740    -0.350  -124.728   -26.567  -149.846 
  660.000000   -31.057   107.971    -0.380  -129.133    -0.365  -129.143   -26.693  -154.832 
  680.000000   -30.921   104.783    -0.388  -133.627    -0.381  -133.634   -26.692  -160.322 
  700.000000   -30.778   101.666    -0.405  -138.195    -0.391  -138.187   -26.862  -166.717 
  720.000000   -30.663    98.372    -0.414  -142.828    -0.401  -142.877   -27.054  -171.068 
  740.000000   -30.758    95.224    -0.430  -147.503    -0.421  -147.552   -27.454  -177.330 
  760.000000   -30.751    92.751    -0.453  -152.312    -0.438  -152.326   -27.696   177.106 
  780.000000   -30.695    90.320    -0.463  -157.210    -0.448  -157.195   -28.263   169.792 
  800.000000   -30.737    88.753    -0.484  -162.170    -0.466  -162.204   -28.772   164.218 
  820.000000   -31.125    87.247    -0.506  -167.277    -0.477  -167.303   -29.462   157.673 
  840.000000   -31.615    88.259    -0.519  -172.461    -0.504  -172.470   -30.358   152.036 
  860.000000   -32.193    89.795    -0.542  -177.844    -0.530  -177.798   -31.627   145.486 
  880.000000   -33.350    91.661    -0.561   176.805    -0.545   176.805   -33.421   139.559 
  900.000000   -34.369    98.041    -0.588   171.196    -0.575   171.168   -35.937   137.522 
  920.000000   -35.125   110.179    -0.614   165.419    -0.592   165.470   -40.239   140.543 
  940.000000   -35.610   123.853    -0.640   159.519    -0.624   159.475   -45.687   171.864 
  960.000000   -35.257   144.506    -0.671   153.413    -0.656   153.400   -41.957  -127.690 
  980.000000   -33.512   162.427    -0.706   147.102    -0.691   147.118   -36.378  -118.431 
 1000.000000   -30.928   173.501    -0.743   140.622    -0.731   140.559   -32.313  -120.803 
 1020.000000   -28.625   179.487    -0.789   133.830    -0.778   133.778   -29.412  -127.662 
 1040.000000   -26.418  -178.448    -0.836   126.765    -0.824   126.738   -27.046  -136.736 
 1060.000000   -24.395  -177.799    -0.892   119.419    -0.884   119.439   -24.949  -147.209 
 1080.000000   -22.540  -177.970    -0.960   111.732    -0.947   111.726   -23.252  -158.404 
 1100.000000   -20.751  -179.782    -1.037   103.636    -1.026   103.647   -21.640  -170.319 
 1120.000000   -19.028   178.026    -1.135    95.155    -1.107    95.184   -20.195   176.147 
 1140.000000   -17.435   175.202    -1.241    86.196    -1.222    86.182   -18.833   161.360 
 1160.000000   -15.841   172.043    -1.372    76.703    -1.359    76.676   -17.428   145.869 
 1180.000000   -14.280   168.291    -1.534    66.527    -1.524    66.530   -16.053   129.113 
 1200.000000   -12.737   163.786    -1.747    55.704    -1.730    55.712   -14.705   111.452 
 1220.000000   -11.266   158.555    -2.013    44.104    -1.994    44.133   -13.447    92.646 
 1240.000000    -9.841   152.751    -2.333    31.610    -2.326    31.604   -12.231    72.632 
 1260.000000    -8.463   146.482    -2.761    18.231    -2.756    18.221   -11.074    50.949 
 1280.000000    -7.179   139.496    -3.318     3.816    -3.311     3.825    -9.997    27.752 
 1300.000000    -5.985   131.914    -4.018   -11.660    -4.005   -11.643    -9.048     2.738 
 1320.000000    -4.898   123.839    -4.898   -28.211    -4.883   -28.166    -8.242   -24.157 
 1340.000000    -3.963   115.386    -6.024   -45.682    -6.012   -45.720    -7.562   -53.179 
 1360.000000    -3.176   106.619    -7.413   -64.052    -7.383   -64.051    -6.978   -84.070 
 1380.000000    -2.515    97.710    -9.063   -83.000    -9.041   -82.933    -6.475  -116.345 
 1400.000000    -2.010    89.067   -11.008  -102.065   -10.995  -102.143    -5.994  -149.453 
 1420.000000    -1.655    80.543   -13.218  -121.157   -13.186  -121.229    -5.444   177.975 
 1440.000000    -1.378    72.446   -15.603  -139.837   -15.580  -139.825    -4.853   147.338 
 1460.000000    -1.179    64.754   -18.026  -157.741   -18.029  -157.820    -4.252   119.405 
 1480.000000    -1.048    57.630   -20.413  -174.834   -20.392  -174.831    -3.699    94.634 
 1500.000000    -0.948    50.875   -22.619   168.796   -22.604   168.756    -3.216    72.738 
 1520.000000    -0.885    44.508   -24.571   153.570   -24.576   153.591    -2.826    53.331 
 1550.000000    -0.801    35.675   -26.950   133.110   -26.941   133.194    -2.332    28.426 
 1560.000000    -0.784    32.883   -27.605   127.047   -27.591   127.117    -2.189    21.035 
 1580.000000    -0.745    27.407   -28.745   115.728   -28.731   115.813    -1.963     7.373 
 1600.000000    -0.704    22.246   -29.689   105.738   -29.693   105.664    -1.763    -5.047 
 1620.000000    -0.673    17.343   -30.573    96.821   -30.573    96.852    -1.604   -16.274 
 1640.000000    -0.665    12.569   -31.422    88.941   -31.390    88.936    -1.449   -26.719 
 1660.000000    -0.627     7.879   -32.213    81.821   -32.179    81.876    -1.327   -36.283 
 1680.000000    -0.611     3.505   -33.047    75.495   -33.012    75.571    -1.236   -45.064 
 1700.000000    -0.593    -0.745   -33.907    69.691   -33.888    69.615    -1.143   -53.318 
 1720.000000    -0.579    -4.969   -34.845    64.310   -34.837    64.346    -1.057   -61.001 
 1740.000000    -0.558    -8.957   -35.857    59.576   -35.847    59.532    -0.991   -68.257 
 1760.000000    -0.542   -12.978   -36.994    55.184   -36.985    55.108    -0.932   -74.998 
 1780.000000    -0.544   -16.866   -38.281    51.305   -38.256    51.096    -0.881   -81.450 
 1800.000000    -0.524   -20.793   -39.693    47.862   -39.629    47.711    -0.805   -87.471 
 1820.000000    -0.505   -24.544   -41.334    45.348   -41.304    45.553    -0.778   -93.113 
 1840.000000    -0.501   -28.303   -43.236    44.194   -43.237    44.161    -0.745   -98.689 
 1860.000000    -0.498   -32.001   -45.413    44.658   -45.365    44.958    -0.705  -104.007 
 1880.000000    -0.485   -35.635   -48.125    47.538   -48.093    47.390    -0.669  -109.057 
 1900.000000    -0.471   -39.230   -51.493    57.720   -51.490    57.953    -0.647  -113.926 
 1920.000000    -0.471   -42.786   -54.923    83.683   -54.860    84.080    -0.617  -118.682 
 1940.000000    -0.456   -46.330   -54.685   123.443   -54.592   123.639    -0.573  -123.179 
 1960.000000    -0.456   -49.715   -51.545   145.702   -51.574   145.559    -0.575  -127.314 
 1980.000000    -0.434   -53.060   -48.779   153.826   -48.757   153.719    -0.552  -131.552 
 2000.000000    -0.430   -56.356   -46.762   156.319   -46.731   156.150    -0.520  -135.571 
 2020.000000    -0.427   -59.687   -45.151   156.430   -45.131   156.349    -0.494  -139.411 
 2040.000000    -0.414   -62.830   -43.881   155.120   -43.872   155.199    -0.497  -143.132 
 2060.000000    -0.410   -65.957   -42.939   153.348   -42.902   153.115    -0.488  -146.794 
 2080.000000    -0.399   -69.041   -42.124   151.679   -42.096   151.351    -0.457  -150.479 
 2100.000000    -0.392   -72.023   -41.475   149.134   -41.420   148.959    -0.459  -153.809 
 2120.000000    -0.398   -75.059   -40.998   146.581   -41.011   146.188    -0.459  -157.278 
 2140.000000    -0.394   -78.102   -40.604   144.342   -40.629   144.484    -0.438  -160.622 
 2160.000000    -0.389   -81.127   -40.223   142.156   -40.206   142.054    -0.421  -163.933 
 2180.000000    -0.388   -84.108   -39.921   139.694   -39.865   139.716    -0.421  -167.031 
 2200.000000    -0.379   -87.069   -39.705   137.182   -39.650   136.945    -0.421  -170.313 
 2220.000000    -0.381   -90.084   -39.507   134.712   -39.431   134.315    -0.379  -173.495 
 2240.000000    -0.374   -93.009   -39.357   132.292   -39.318   131.936    -0.385  -176.359 
 2260.000000    -0.368   -95.977   -39.260   129.760   -39.227   129.705    -0.377  -179.330 
 2280.000000    -0.363   -98.819   -39.189   127.188   -39.148   127.108    -0.373   177.764 
 2300.000000    -0.362  -101.683   -39.169   124.672   -39.138   124.519    -0.349   174.999 
 2320.000000    -0.355  -104.478   -39.157   122.307   -39.141   122.273    -0.353   172.410 
 2340.000000    -0.357  -107.346   -39.221   119.674   -39.201   119.601    -0.357   169.745 
 2360.000000    -0.352  -110.170   -39.330   117.489   -39.286   117.351    -0.333   167.148 
 2380.000000    -0.349  -112.861   -39.420   115.418   -39.375   115.265    -0.329   164.767 
 2400.000000    -0.344  -115.609   -39.498   113.073   -39.498   113.157    -0.331   162.279 
 2420.000000    -0.353  -118.275   -39.658   110.915   -39.612   110.729    -0.339   159.738 
 2440.000000    -0.346  -120.929   -39.785   108.815   -39.734   108.690    -0.316   157.316 
 2460.000000    -0.347  -123.562   -39.940   106.028   -39.891   105.823    -0.337   154.990 
 2480.000000    -0.342  -126.117   -40.244   104.273   -40.224   104.143    -0.322   152.549 
 2500.000000    -0.339  -128.740   -40.465   102.340   -40.457   102.149    -0.314   150.145 
 2520.000000    -0.342  -131.245   -40.701   100.640   -40.660   100.549    -0.302   147.878 
 2540.000000    -0.346  -133.867   -40.955    98.668   -40.916    98.484    -0.300   145.556 
 2560.000000    -0.340  -136.467   -41.243    96.773   -41.195    96.397    -0.294   143.343 
 2580.000000    -0.343  -139.103   -41.561    94.752   -41.497    94.501    -0.279   141.101 
 2600.000000    -0.339  -141.727   -41.880    92.891   -41.842    92.806    -0.286   139.069 
 2620.000000    -0.339  -144.280   -42.288    91.325   -42.269    91.254    -0.296   136.809 
 2640.000000    -0.335  -146.918   -42.677    89.826   -42.646    89.703    -0.288   134.563 
 2660.000000    -0.343  -149.464   -43.098    88.377   -43.035    88.061    -0.273   132.433 
 2680.000000    -0.340  -152.070   -43.529    86.802   -43.509    86.898    -0.281   130.526 
 2700.000000    -0.348  -154.597   -44.061    86.175   -44.010    85.986    -0.288   128.424 
 2720.000000    -0.343  -157.123   -44.506    85.553   -44.457    85.293    -0.269   126.364 
 2740.000000    -0.332  -159.642   -44.951    84.819   -44.904    84.611    -0.277   124.492 
 2760.000000    -0.335  -162.050   -45.439    83.752   -45.446    83.714    -0.278   122.485 
 2780.000000    -0.328  -164.522   -45.950    83.578   -45.929    83.141    -0.276   120.584 
 2800.000000    -0.336  -166.900   -46.502    82.841   -46.476    82.895    -0.260   118.751 
 2820.000000    -0.342  -169.323   -47.160    82.599   -47.035    82.650    -0.268   116.941 
 2840.000000    -0.341  -171.696   -47.793    82.613   -47.679    82.156    -0.274   114.968 
 2860.000000    -0.339  -174.063   -48.514    82.740   -48.462    82.464    -0.258   112.982 
 2880.000000    -0.338  -176.424   -49.261    83.733   -49.237    83.598    -0.260   111.131 
 2900.000000    -0.339  -178.777   -50.136    83.837   -50.067    83.858    -0.258   109.253 
 2920.000000    -0.332   178.836   -51.171    85.107   -51.229    85.478    -0.263   107.449 
 2940.000000    -0.341   176.499   -52.786    89.779   -52.631    89.464    -0.237   105.683 
 2960.000000    -0.339   174.072   -53.770   102.966   -53.756   102.749    -0.255   104.093 
 2980.000000    -0.348   171.733   -53.138   111.522   -53.208   110.731    -0.263   102.269 
 3000.000000    -0.347   169.320   -53.301   113.071   -53.367   114.315    -0.254   100.563 
 3020.000000    -0.341   166.914   -54.117   118.206   -53.931   118.217    -0.253    98.827 
 3040.000000    -0.338   164.486   -54.728   126.765   -54.717   126.120    -0.250    97.204 
 3060.000000    -0.342   162.100   -55.062   141.456   -55.040   141.878    -0.255    95.420 
 3080.000000    -0.345   159.658   -53.393   156.753   -53.419   156.820    -0.240    93.770 
 3100.000000    -0.349   157.331   -51.487   157.809   -51.357   157.927    -0.260    92.175 
 3120.000000    -0.348   155.008   -51.014   158.150   -50.929   157.692    -0.257    90.383 
 3140.000000    -0.346   152.612   -50.261   161.432   -50.241   161.380    -0.248    88.650 
 3160.000000    -0.340   150.416   -49.553   164.019   -49.491   163.909    -0.244    87.109 
 3180.000000    -0.337   148.124   -48.648   166.620   -48.544   166.481    -0.250    85.620 
 3200.000000    -0.344   145.974   -47.755   167.092   -47.706   166.786    -0.244    83.978 
 3220.000000    -0.346   143.772   -46.878   166.768   -46.858   166.583    -0.240    82.372 
 3240.000000    -0.346   141.555   -46.340   166.549   -46.256   166.143    -0.249    80.682 
 3260.000000    -0.344   139.329   -45.631   166.778   -45.597   166.707    -0.245    78.874 
 3280.000000    -0.338   137.160   -44.677   166.397   -44.670   166.551    -0.257    77.129 
 3300.000000    -0.347   134.987   -43.983   163.282   -43.910   163.075    -0.245    75.574 
 3320.000000    -0.341   132.737   -43.261   161.713   -43.208   161.876    -0.251    74.157 
 3340.000000    -0.343   130.588   -42.579   158.804   -42.471   158.798    -0.258    72.604 
 3360.000000    -0.358   128.350   -42.225   152.751   -42.168   152.511    -0.260    71.091 
 3380.000000    -0.355   126.142   -42.197   152.415   -42.149   152.300    -0.263    69.708 
 3400.000000    -0.358   123.913   -41.497   150.003   -41.466   149.667    -0.258    68.385 
 3420.000000    -0.358   121.638   -41.091   145.398   -41.121   145.336    -0.260    67.184 
 3440.000000    -0.363   119.505   -41.211   140.578   -41.162   141.127    -0.266    65.970 
 3460.000000    -0.364   117.249   -41.258   138.462   -41.129   138.612    -0.276    64.627 
 3480.000000    -0.360   115.138   -41.415   136.240   -41.379   136.058    -0.284    62.903 
 3500.000000    -0.358   112.883   -41.617   135.920   -41.569   135.990    -0.270    61.161 
 3520.000000    -0.354   110.743   -41.631   138.166   -41.606   138.096    -0.258    59.417 
 3540.000000    -0.357   108.505   -40.991   139.309   -40.934   139.213    -0.249    57.884 
 3560.000000    -0.357   106.428   -40.357   136.771   -40.352   136.711    -0.255    56.241 
 3580.000000    -0.359   104.305   -40.157   133.504   -40.126   133.521    -0.263    54.742 
 3600.000000    -0.358   102.178   -39.867   131.643   -39.843   131.499    -0.277    53.193 
 3620.000000    -0.361   100.122   -39.793   127.655   -39.733   127.743    -0.272    51.585 
 3640.000000    -0.354    98.050   -40.084   126.409   -40.012   126.486    -0.254    50.190 
 3660.000000    -0.357    96.010   -39.812   128.624   -39.748   128.312    -0.241    48.959 
 3680.000000    -0.354    93.896   -39.056   126.425   -39.046   126.480    -0.258    47.843 
 3700.000000    -0.361    91.852   -39.028   120.825   -38.991   120.512    -0.268    46.685 
 3720.000000    -0.361    89.819   -39.231   121.120   -39.242   121.087    -0.255    45.418 
 3740.000000    -0.356    87.775   -38.983   120.920   -38.958   121.059    -0.251    43.985 
 3760.000000    -0.359    85.713   -38.558   119.887   -38.502   119.977    -0.260    42.562 
 3780.000000    -0.359    83.551   -38.236   117.574   -38.169   117.509    -0.259    41.190 
 3800.000000    -0.364    81.460   -37.859   115.397   -37.770   115.218    -0.270    39.973 
 3820.000000    -0.375    79.352   -37.595   110.305   -37.569   110.032    -0.284    38.706 
 3840.000000    -0.369    77.309   -37.959   107.949   -37.928   107.810    -0.288    37.226 
 3860.000000    -0.371    75.261   -37.590   107.484   -37.587   107.525    -0.290    35.640 
 3880.000000    -0.363    73.255   -37.655   104.244   -37.619   104.455    -0.282    34.067 
 3900.000000    -0.361    71.209   -37.549   103.575   -37.500   103.769    -0.284    32.616 
 3920.000000    -0.366    69.080   -37.324   101.833   -37.240   101.732    -0.274    31.138 
 3940.000000    -0.366    67.035   -37.254    99.497   -37.181    99.384    -0.277    29.861 
 3960.000000    -0.359    65.058   -37.176    99.745   -37.150    99.416    -0.277    28.434 
 3980.000000    -0.366    63.082   -36.374    98.740   -36.380    98.593    -0.285    26.812 
 4000.000000    -0.376    61.216   -35.873    93.685   -35.875    93.920    -0.281    25.267 
 4020.000000    -0.382    59.322   -35.600    87.238   -35.516    87.589    -0.291    24.068 
 4040.000000    -0.389    57.456   -35.808    81.126   -35.734    80.948    -0.310    23.075 
 4060.000000    -0.390    55.516   -36.532    77.267   -36.460    77.109    -0.298    22.077 
 4080.000000    -0.376    53.654   -36.685    77.488   -36.674    76.924    -0.289    20.951 
 4120.000000    -0.394    49.932   -37.216    69.904   -37.140    70.229    -0.295    18.800 
 4160.000000    -0.361    45.956   -37.919    74.876   -37.865    74.813    -0.266    16.287 
 4200.000000    -0.379    41.902   -37.210    75.883   -37.141    75.916    -0.279    13.619 
 4240.000000    -0.376    37.970   -36.708    73.365   -36.675    73.060    -0.287    10.684 
 4280.000000    -0.377    33.875   -36.021    67.345   -35.996    67.883    -0.299     7.509 
 4320.000000    -0.380    30.218   -36.528    63.635   -36.419    63.726    -0.282     4.883 
