!
! Hittite Microwave Corporation
! 2 Elizabeth Drive
! Chelmsford, MA 01824
! http://www.hittite.com
! Tel: 978-250-3343
! Fax: 978-250-3373
! 
! Device:      HMC424LP3
! Description: 0.5 dB GaAs MMIC 6-Bit Digital Attenuator
! Frequency:    DC -  13.00 GHz
! Package:     LP3  - 3x3 mm Quad Flatpack No-Lead (QFN) Plastic Package: 16 pin
! Ports:       2 RF, 7 DC
!              Pad  1  = Ground
!              Pad  2  = RF IN   = Port 1
!              Pad  3  = Ground
!              Pad  4  = V6
!              Pad  5  = V5
!              Pad  6  = V4
!              Pad  7  = V3
!              Pad  8  = V2
!              Pad  9  = V1
!              Pad 10  = Ground
!              Pad 11  = RF OUT  = Port 2
!              Pad 12  = Ground
!              Pad 15  = VEE
!
! Control:     -5 Volt control voltage
! State:        11 
! Attenuation:  5.5 dB
! Voltages:    Vdd = -5.00 Volts  Idd =  -2.560 mA
!              V1  = -5.00 Volts  I1  =  -1.0 uA
!              V2  = -5.00 Volts  I2  =  -1.0 uA
!              V3  = 0.00 Volts  I3  =  29.0 uA
!              V4  = -5.00 Volts  I4  =  -1.0 uA
!              V5  = 0.00 Volts  I5  =  29.0 uA
!              V6  = 0.00 Volts  I6  =  30.0 uA
!
! Data:    The device was measured on evaluation board 105354-1. 
!          Data was collected using a calibrated network analyzer.
!          The evaluation circuit board was modeled and simulated.  This was use
!          to removed the evaluation board circuit from the measured data.
!          The reference plane is the edge of the package pin.
!
! Misc:    Lot xxxx, Unit 1
!          Application 20120001, Data collected in Application 20090083
!
! Date Measured:  2009-09-15
! Date:           2012-05-14  MJV
! Note: 
!   Hittite supplies this data as a sample of measured data at the package pin
!   for this product.  Your particular data for this product may vary.
!   Data was taken at 25 degrees C.
!   Hittite reserves the right to change this data at anytime.
!
# GHz S MA R 50

0.01	0.0085673346	66.432701	0.39816276	-1.0147565	0.39724701	-1.5092565	0.14772309	1.2991346	
0.11	0.0021849368	-120.25553	0.39489051	-2.4387454	0.39425454	-2.4356454	0.14309523	-1.8597235	
0.21	0.0034487122	-101.25521	0.39398476	-4.1654846	0.3937127	-4.1963846	0.14218097	-5.7834824	
0.31	0.0050968487	-77.027942	0.39346997	-5.8799358	0.39301723	-5.9343358	0.14732616	-8.0523409	
0.41	0.0073895398	-79.253219	0.39324627	-7.5971262	0.39311047	-7.6132262	0.14804492	-9.6412478	
0.51	0.0097652531	-75.227219	0.39233004	-9.3921306	0.39219456	-9.4039306	0.14665901	-11.882605	
0.61	0.011893351	-76.219035	0.39207632	-11.05348	0.39162518	-11.05998	0.14769399	-15.401402	
0.71	0.014734883	-69.978923	0.39176114	-12.796015	0.39108518	-12.790715	0.15397278	-17.534264	
0.81	0.017103931	-69.894904	0.39114149	-14.509358	0.3908264	-14.477958	0.15391915	-18.472788	
0.91	0.019406096	-67.219679	0.39073268	-16.22789	0.39023816	-16.19929	0.15454851	-21.575884	
1.01	0.020893699	-64.565678	0.39018211	-17.879843	0.39000246	-17.896743	0.1577652	-24.145636	
1.11	0.023484027	-63.356113	0.38993466	-19.57984	0.38935149	-19.58234	0.16423714	-25.243192	
1.21	0.025053431	-62.814117	0.38944749	-21.276809	0.38904417	-21.282609	0.16256226	-25.842822	
1.31	0.026635417	-61.732617	0.38884851	-22.995172	0.38844581	-22.962672	0.16462514	-28.936231	
1.41	0.028228776	-58.807474	0.38873483	-24.625512	0.38824284	-24.640312	0.16925258	-30.308789	
1.51	0.029937148	-58.878416	0.38826785	-26.339386	0.3879104	-26.327186	0.17305027	-30.816266	
1.61	0.031312933	-57.762992	0.38760579	-28.030841	0.38738273	-28.025241	0.1704942	-31.527397	
1.71	0.031594794	-56.738727	0.38724315	-29.661319	0.38684211	-29.645319	0.17214656	-34.437529	
1.81	0.033168683	-55.453028	0.38695526	-31.325966	0.3867771	-31.324366	0.17629891	-35.326878	
1.91	0.033395931	-55.629242	0.38673506	-33.012703	0.3862456	-33.033903	0.17704441	-36.03624	
2.01	0.033415435	-55.702526	0.38604789	-34.690064	0.3857369	-34.667864	0.17415018	-37.247639	
2.11	0.033283837	-55.049542	0.38570064	-36.273042	0.38538993	-36.310142	0.17611071	-40.260205	
2.21	0.034211234	-55.653181	0.38555649	-37.967191	0.3851572	-37.989691	0.18029656	-40.987731	
2.31	0.034376627	-56.825658	0.38531328	-39.623601	0.38469273	-39.618901	0.17918554	-41.940598	
2.41	0.0339085	-57.882797	0.38446376	-41.270226	0.38410981	-41.279126	0.17718275	-43.870249	
2.51	0.034164394	-58.655204	0.38452259	-42.945858	0.38385912	-42.913458	0.1802249	-46.759002	
2.61	0.034443586	-61.007148	0.38420441	-44.573499	0.38376233	-44.583599	0.18390281	-47.261682	
2.71	0.034559618	-63.602407	0.38370296	-46.274912	0.38334972	-46.256212	0.1813652	-48.664395	
2.81	0.033727944	-65.927858	0.38311233	-47.866661	0.38289185	-47.923261	0.18073342	-51.060909	
2.91	0.034891929	-68.454359	0.38315356	-49.546111	0.3828449	-49.589311	0.18432688	-53.594568	
3.01	0.035265313	-72.453268	0.38265172	-51.220592	0.38234347	-51.251592	0.18733832	-54.104605	
3.11	0.035595246	-76.357275	0.38214519	-52.895778	0.38183735	-52.885878	0.18345446	-55.835116	
3.21	0.035631762	-79.459201	0.38166273	-54.568369	0.38148701	-54.523569	0.18411196	-58.645899	
3.31	0.03688596	-83.156387	0.38140486	-56.182111	0.38100987	-56.170811	0.18757964	-60.685201	
3.41	0.038015245	-87.918991	0.38105139	-57.90841	0.38052531	-57.89571	0.18892294	-61.453022	
3.51	0.039090336	-91.430641	0.38015685	-59.489887	0.37989434	-59.497587	0.18530828	-63.703281	
3.61	0.04073168	-94.790415	0.37993056	-61.13807	0.3795371	-61.15097	0.18790891	-66.868732	
3.71	0.043108129	-97.675953	0.37962413	-62.786629	0.37901274	-62.785029	0.19165014	-68.569492	
3.81	0.045323841	-100.60805	0.37888313	-64.45608	0.37849075	-64.47318	0.19192611	-69.575692	
3.91	0.047037481	-102.87971	0.37813237	-66.070459	0.37787125	-66.065659	0.18927152	-72.406984	
4.01	0.054402095	-97.609943	0.37844379	-67.650684	0.37792131	-67.653284	0.20240666	-73.821667	
4.11	0.056608075	-98.968761	0.37772106	-69.326266	0.37746022	-69.334566	0.20593631	-74.726859	
4.21	0.05886658	-100.12575	0.3772768	-70.958802	0.3768427	-70.917702	0.20618505	-75.743082	
4.31	0.061027557	-99.747809	0.37676174	-72.536621	0.37619827	-72.580421	0.20603647	-78.108901	
4.41	0.063254855	-99.293267	0.37621472	-74.199565	0.37586838	-74.196065	0.213129	-79.683552	
4.51	0.065077825	-99.390882	0.37572495	-75.8441	0.37520622	-75.8697	0.21511514	-79.767291	
4.61	0.066585884	-99.033052	0.37497357	-77.463661	0.37454212	-77.458961	0.21453201	-80.557895	
4.71	0.06861502	-97.75108	0.37470795	-79.047781	0.37419063	-79.063981	0.21467086	-82.293303	
4.81	0.070327587	-96.85587	0.3743257	-80.663514	0.37385195	-80.667814	0.22136427	-83.208953	
4.91	0.071972787	-95.841646	0.37337396	-82.331889	0.37277263	-82.308389	0.22113492	-82.748474	
5.01	0.07303477	-94.32769	0.37289238	-83.904443	0.37242044	-83.875843	0.21946104	-83.655175	
5.11	0.0749676	-91.876559	0.37240296	-85.444436	0.3721458	-85.473736	0.22000095	-84.962808	
5.21	0.076233994	-90.528358	0.37200393	-87.079002	0.37166146	-87.067502	0.22518418	-85.545373	
5.31	0.077753544	-88.515941	0.37122802	-88.705568	0.37084356	-88.705668	0.22392967	-84.70196	
5.41	0.078841811	-85.663475	0.37092494	-90.25909	0.37045549	-90.23779	0.22182983	-85.813325	
5.51	0.081007337	-83.344718	0.3707971	-91.822968	0.37028518	-91.826168	0.22393713	-86.627931	
5.61	0.082725359	-80.641856	0.37041423	-93.41905	0.37003062	-93.39965	0.22789206	-86.759868	
5.71	0.083395598	-78.157679	0.36978002	-95.04431	0.36931202	-95.02431	0.22578671	-85.797953	
5.81	0.085490318	-74.875711	0.36977259	-96.589199	0.3693046	-96.591399	0.22330881	-86.866315	
5.91	0.086616444	-72.604595	0.36954909	-98.18313	0.36903889	-98.17333	0.22667998	-87.291493	
6.01	0.08832504	-69.759242	0.36929518	-99.78654	0.36878534	-99.79184	0.22891576	-86.717494	
6.11	0.08962726	-66.868597	0.3687242	-101.39057	0.36834234	-101.39687	0.22547005	-85.761349	
6.21	0.091443383	-63.380202	0.36887086	-102.99773	0.36831919	-102.97773	0.22193139	-86.741272	
6.31	0.092525379	-61.14453	0.36876029	-104.61751	0.36829358	-104.61111	0.22456626	-86.744771	
6.41	0.093764327	-57.661061	0.36820151	-106.22522	0.36777784	-106.22762	0.2232124	-85.959846	
6.51	0.094586939	-54.432266	0.36797385	-107.88111	0.36763509	-107.83551	0.21822006	-85.135629	
6.61	0.095405537	-51.336148	0.36836317	-109.50808	0.36806642	-109.49718	0.21294169	-86.227162	
6.71	0.09539947	-48.785336	0.36855862	-111.15305	0.36800742	-111.16815	0.21372085	-86.400794	
6.81	0.095710779	-45.79166	0.36817741	-112.8407	0.36783846	-112.8042	0.20874315	-85.81741	
6.91	0.095702391	-42.769548	0.36835024	-114.50317	0.36775701	-114.49637	0.202203	-85.94128	
7.01	0.094962517	-40.176392	0.36869829	-116.21385	0.36831646	-116.20485	0.19530788	-87.530172	
7.11	0.093493169	-37.348002	0.36864422	-117.92653	0.36851692	-117.92813	0.1950824	-88.376109	
7.21	0.091783854	-34.22313	0.36858667	-119.6395	0.36824734	-119.6073	0.18715654	-88.237078	
7.31	0.090102217	-31.014185	0.36905354	-121.3833	0.36867134	-121.3664	0.17952774	-90.056138	
7.41	0.087285832	-28.02916	0.36957489	-123.15703	0.36910714	-123.13693	0.17380633	-92.554328	
7.51	0.084596687	-24.22613	0.36982752	-124.94085	0.36940199	-124.92485	0.17164988	-94.200219	
7.61	0.08132338	-20.700792	0.36960215	-126.7444	0.36904938	-126.6975	0.16282587	-94.981301	
7.71	0.078074206	-16.835427	0.37016032	-128.55884	0.36969184	-128.52044	0.15461779	-98.455483	
7.81	0.073537864	-12.619433	0.37026233	-130.41543	0.36987888	-130.40343	0.14926027	-102.02932	
7.91	0.070125077	-7.5788438	0.37033669	-132.25078	0.36995316	-132.25208	0.1458602	-104.87229	
8.01	0.066537884	-1.9678934	0.37008558	-134.10882	0.36957464	-134.11852	0.13628151	-107.64196	
8.11	0.062163799	4.0922256	0.37052361	-136.01438	0.37001206	-136.00628	0.13022751	-113.65569	
8.21	0.058500942	11.230531	0.37036163	-137.97588	0.36976516	-137.94348	0.12731068	-118.93832	
8.31	0.055866806	19.379361	0.37021011	-139.8331	0.36986929	-139.8214	0.12493742	-123.35898	
8.41	0.053562492	28.090496	0.36981334	-141.7332	0.36930277	-141.7435	0.11791097	-129.0744	
8.51	0.051781134	37.862193	0.37001919	-143.75116	0.36959344	-143.70906	0.11866233	-137.46866	
8.61	0.051849839	47.774297	0.36948627	-145.72631	0.36918861	-145.69371	0.12223503	-143.5517	
8.71	0.052768699	57.8342	0.36922161	-147.61982	0.36866942	-147.61132	0.12424051	-148.72532	
8.81	0.054454393	67.71149	0.3685921	-149.59241	0.36799848	-149.59061	0.12522904	-155.57311	
8.91	0.056673006	76.861952	0.36843552	-151.59535	0.3678845	-151.58085	0.13521353	-161.95641	
9.01	0.059725819	84.178634	0.36780712	-153.55534	0.36708795	-153.54764	0.14298567	-165.28763	
9.11	0.064213635	90.845295	0.36680162	-155.4647	0.36625305	-155.4661	0.15052472	-168.6584	
9.21	0.067462082	98.084862	0.36606735	-157.39036	0.36568824	-157.36296	0.15604859	-172.30179	
9.31	0.072395623	103.30548	0.3653657	-159.41749	0.36486128	-159.37339	0.16917951	-175.78922	
9.41	0.077127575	109.27029	0.36439019	-161.34036	0.36401282	-161.29496	0.17713797	-176.14243	
9.51	0.08087291	113.80726	0.36306084	-163.14897	0.36243439	-163.12057	0.1820934	-178.41803	
9.61	0.084815677	118.61601	0.36216577	-165.02981	0.3615825	-165.00901	0.19191836	179.79391	
9.71	0.087655281	123.38528	0.36139966	-166.89774	0.36073455	-166.86894	0.20154481	178.83337	
9.81	0.090431869	127.61947	0.3602489	-168.73361	0.35975154	-168.73501	0.20823949	178.70599	
9.91	0.093100981	131.71726	0.35884222	-170.50758	0.35838806	-170.48388	0.21273541	177.61401	
10.01	0.095882449	135.74179	0.35804998	-172.34713	0.35759682	-172.30853	0.22185213	176.77424	
10.11	0.09889605	139.97321	0.35693206	-174.15183	0.35648032	-174.15613	0.23020778	176.67669	
10.21	0.10118803	143.97231	0.35582983	-175.92806	0.35525676	-175.92856	0.23533619	177.28757	
10.31	0.10383634	148.58716	0.35434796	-177.66267	0.35385875	-177.63417	0.23849365	176.67994	
10.41	0.10631129	151.93826	0.3532463	-179.40233	0.35267739	-179.38793	0.247375	176.64183	
10.51	0.10974108	155.89242	0.35214168	178.84806	0.35181749	178.88636	0.25466509	177.19223	
10.61	0.11264197	160.03621	0.35116607	177.20161	0.35084279	177.23101	0.25839308	177.9272	
10.71	0.11568234	163.86789	0.3499701	175.4778	0.34948693	175.5306	0.26166203	177.53555	
10.81	0.11925246	167.3407	0.34924109	173.72936	0.3488794	173.78126	0.26963567	177.83449	
10.91	0.12241685	170.94088	0.34814915	172.09129	0.34778859	172.09129	0.27359781	178.69909	
11.01	0.12671705	174.02569	0.34718569	170.41856	0.34670636	170.43416	0.27530748	179.26839	
11.11	0.13049926	177.30483	0.34620519	168.75607	0.34568742	168.77257	0.27698646	179.19159	
11.21	0.13398224	179.84338	0.34526906	167.09036	0.34475269	167.10056	0.28251692	179.4666	
11.31	0.1377825	-177.68172	0.34443755	165.41494	0.34376408	165.44374	0.28398439	-179.81059	
11.41	0.1423706	-175.57359	0.34346454	163.8083	0.34291139	163.8164	0.28404251	-179.36235	
11.51	0.14620781	-173.45262	0.34258514	162.15488	0.34203341	162.19318	0.28402889	-179.80478	
11.61	0.14983151	-171.88326	0.34166611	160.45718	0.34127298	160.48828	0.28893738	-179.86352	
11.71	0.15368241	-170.23369	0.34074728	158.79649	0.34043359	158.84519	0.28853649	-179.45805	
11.81	0.15764368	-168.90918	0.33992263	157.20034	0.33949241	157.17504	0.28853153	-179.79813	
11.91	0.16138611	-167.79107	0.33897423	155.492	0.33842831	155.515	0.28917702	179.78327	
12.01	0.16520998	-166.79236	0.33813654	153.78521	0.33774747	153.80661	0.29284977	179.51837	
12.11	0.1691716	-165.91369	0.33708803	152.11125	0.33689404	152.12515	0.29211014	179.69507	
12.21	0.17328687	-165.29556	0.33628177	150.47298	0.33593351	150.47788	0.29200411	178.97721	
12.31	0.1774476	-164.90536	0.33501622	148.70117	0.33482342	148.72697	0.29428488	178.46418	
12.41	0.18150035	-164.75004	0.33365996	146.99256	0.33327604	146.99446	0.29824232	178.17903	
12.51	0.18444515	-164.81971	0.33252104	145.33711	0.33198552	145.34681	0.2978052	178.38789	
12.61	0.18729345	-164.55127	0.33111648	143.77576	0.33062128	143.82296	0.29850469	177.27854	
12.71	0.19167101	-163.7329	0.33040284	142.14931	0.32990871	142.19141	0.30242413	176.89777	
12.81	0.19616139	-163.29006	0.32957575	140.51161	0.32919653	140.53121	0.30528984	176.65388	
12.91	0.2017716	-162.98729	0.32920731	138.82758	0.32867711	138.84748	0.30588567	176.78285	
13.01	0.20677161	-162.84068	0.32840551	137.13178	0.32798987	137.17698	0.30736669	175.93384	
13.11	0.21308175	-162.78063	0.32731366	135.39267	0.32682414	135.44487	0.31150695	175.70797	
13.21	0.21910437	-162.63711	0.32616489	133.70588	0.32578959	133.73318	0.31418387	175.59898	
13.31	0.22492427	-162.60401	0.32512241	132.02263	0.3245988	132.04363	0.31619396	175.60359	
13.41	0.23136893	-162.61854	0.32391626	130.35495	0.32332013	130.38805	0.31857174	175.06184	
13.51	0.23847033	-162.42069	0.32261715	128.69949	0.32220884	128.73989	0.32432325	175.01488	
13.61	0.24572065	-162.44323	0.3215038	127.02594	0.32083823	127.05774	0.32759822	175.21348	
13.71	0.25407266	-162.37365	0.32026558	125.36575	0.31978661	125.39055	0.32995913	175.37211	
13.81	0.26191634	-162.04353	0.31898869	123.73759	0.31862165	123.77319	0.33355632	175.11475	
13.91	0.26966841	-161.97137	0.31761015	122.08099	0.31709864	122.10309	0.34018865	175.57842	
14.01	0.27873756	-161.84027	0.31628485	120.44167	0.31592093	120.48557	0.34221329	176.10706	
14.11	0.28681063	-161.44568	0.31504488	118.81615	0.31435649	118.81005	0.34588303	176.47282	
14.21	0.29442894	-161.13552	0.3137119	117.2064	0.31320666	117.2411	0.3490475	176.68659	
14.31	0.30329425	-160.83252	0.31221617	115.65248	0.31164158	115.67478	0.35486929	177.53427	
14.41	0.31153111	-160.36903	0.3109127	114.07514	0.31048346	114.11044	0.35523344	178.27313	
14.51	0.31968458	-159.87866	0.3096377	112.49938	0.30921021	112.55588	0.35823429	178.77622	
14.61	0.32758701	-159.27856	0.30851283	110.97342	0.30801596	110.97022	0.35971495	179.41529	
14.71	0.33487416	-158.63532	0.30697894	109.4316	0.30659042	109.4696	0.36383664	-179.6108	
14.81	0.34197164	-158.1276	0.30604366	107.89303	0.30548042	107.93153	0.36215682	-178.42674	
14.91	0.34887135	-157.23988	0.30476225	106.41097	0.30441158	106.39727	0.36269839	-177.86444	
15.01	0.35409492	-156.49422	0.30375908	104.88714	0.30320005	104.89844	0.36235444	-176.86025	
15.11	0.35895807	-155.72357	0.3026456	103.44775	0.30222777	103.45975	0.36317038	-175.8836	
15.21	0.36354511	-154.88964	0.30168826	101.98989	0.30123707	102.00419	0.35951135	-174.39595	
15.31	0.36761167	-153.93991	0.30117147	100.52822	0.30075568	100.55902	0.35712867	-173.73107	
15.41	0.37058316	-153.07215	0.3004299	99.074187	0.30011877	99.119387	0.35465336	-172.34126	
15.51	0.37268254	-152.09268	0.29974364	97.634953	0.29953665	97.660653	0.35116255	-171.09974	
15.61	0.37243251	-151.00192	0.29936222	96.122773	0.29901776	96.142173	0.34404455	-169.47608	
15.71	0.37114451	-149.86154	0.29931854	94.730081	0.29887089	94.721581	0.33778476	-168.73603	
15.81	0.37122659	-148.41329	0.29899683	93.315351	0.29865279	93.331851	0.33311174	-167.08649	
15.91	0.37070362	-147.12801	0.2991563	91.770805	0.29888089	91.787905	0.32473409	-165.46233	
16.01	0.36772943	-145.85413	0.29935737	90.152396	0.29887526	90.231096	0.31455277	-163.79357	
16.11	0.36313472	-144.34791	0.2994644	88.673824	0.29891327	88.708024	0.30477923	-162.62325	
16.21	0.35886293	-142.44517	0.29922282	87.224501	0.29891294	87.256601	0.29729386	-160.66153	
16.31	0.3571956	-140.43089	0.29997627	85.703518	0.29949316	85.697218	0.28426662	-158.54776	
16.41	0.35464706	-138.59758	0.30116363	84.028507	0.30064398	84.045707	0.27149334	-156.74399	
16.51	0.35067269	-137.08817	0.30221415	82.292977	0.30186641	82.326377	0.25752996	-155.00536	
16.61	0.34582917	-135.79816	0.30312909	80.537774	0.30288489	80.590374	0.246498	-153.04275	
16.71	0.33995658	-134.38049	0.30375556	78.729173	0.30337112	78.776273	0.23288366	-150.30477	
16.81	0.33152417	-132.98335	0.30481473	76.858673	0.30425375	76.882573	0.2179979	-147.77048	
16.91	0.32391453	-131.52474	0.30590125	74.950985	0.30551409	74.944185	0.20384177	-145.42346	
17.01	0.31388973	-130.17689	0.30700818	72.920199	0.30672554	72.927099	0.19139987	-142.66802	
17.11	0.30353117	-129.11825	0.30741597	70.815166	0.30706225	70.843766	0.17706591	-139.13829	
17.21	0.29043613	-128.28928	0.30822417	68.615622	0.30776321	68.619221	0.16227913	-135.71277	
17.31	0.27618489	-127.4249	0.30842012	66.286963	0.30806525	66.344062	0.14734454	-132.29436	
17.41	0.25743096	-126.51806	0.30848691	63.98401	0.30809648	64.051908	0.13468123	-128.40239	
17.51	0.23779613	-125.05554	0.3074849	61.724538	0.30706038	61.744238	0.11913879	-123.54082	
17.61	0.21867899	-122.55291	0.30709483	59.545791	0.3067768	59.596991	0.10503746	-119.19588	
17.71	0.20374809	-119.98461	0.3079272	57.331433	0.30746668	57.370233	0.091481733	-113.73016	
17.81	0.18604583	-119.38671	0.30880304	54.757719	0.30823473	54.826219	0.080385111	-107.90812	
17.91	0.16673201	-117.24706	0.3071113	52.207727	0.30675793	52.248727	0.066381678	-97.355344	
18.01	0.15246079	-113.21183	0.30660137	49.924188	0.30635438	49.991986	0.051441565	-88.539141	
18.11	0.14419626	-112.82847	0.30785188	47.631793	0.30749766	47.663594	0.042832998	-72.986954	
18.21	0.13290403	-116.43364	0.30996905	44.856213	0.30946985	44.911212	0.032371269	-49.692787	
18.31	0.11593637	-122.14953	0.31059414	41.882673	0.31009393	41.908673	0.032382404	-18.790385	
18.41	0.094799628	-131.47119	0.31034625	38.656861	0.31006054	38.701561	0.037991216	19.068483	
18.51	0.075309807	-144.01011	0.30943849	35.812949	0.30890457	35.809049	0.045377842	36.278418	
18.61	0.064901053	-163.46483	0.30910931	32.880564	0.30857595	32.924064	0.061818202	47.27849	
18.71	0.066661645	173.90064	0.30904498	29.808957	0.30872493	29.823057	0.077399381	55.047185	
18.81	0.080316861	147.99675	0.30761272	26.262076	0.3072234	26.227479	0.10162761	61.665619	
18.91	0.1070503	131.607	0.30564995	22.697752	0.30522797	22.708052	0.12034525	68.605135	
19.01	0.13361442	120.80635	0.3013382	19.412205	0.3008529	19.424905	0.14136384	70.883066	
19.11	0.15823862	112.52649	0.29664677	16.391414	0.29620313	16.404215	0.16208636	74.317843	
19.21	0.18360001	109.71103	0.29376228	13.551646	0.29342427	13.581546	0.18233443	76.189129	
