!
! Hittite Microwave Corporation
! 2 Elizabeth Drive
! Chelmsford, MA 01824
! http://www.hittite.com
! Tel: 978-250-3343
! Fax: 978-250-3373
! 
! Device:      HMC424LP3
! Description: 0.5 dB GaAs MMIC 6-Bit Digital Attenuator
! Frequency:    DC -  13.00 GHz
! Package:     LP3  - 3x3 mm Quad Flatpack No-Lead (QFN) Plastic Package: 16 pin
! Ports:       2 RF, 7 DC
!              Pad  1  = Ground
!              Pad  2  = RF IN   = Port 1
!              Pad  3  = Ground
!              Pad  4  = V6
!              Pad  5  = V5
!              Pad  6  = V4
!              Pad  7  = V3
!              Pad  8  = V2
!              Pad  9  = V1
!              Pad 10  = Ground
!              Pad 11  = RF OUT  = Port 2
!              Pad 12  = Ground
!              Pad 15  = VEE
!
! Control:     -5 Volt control voltage
! State:        9 
! Attenuation:  4.5 dB
! Voltages:    Vdd = -5.00 Volts  Idd =  -2.437 mA
!              V1  = -5.00 Volts  I1  =  -1.0 uA
!              V2  = 0.00 Volts  I2  =  29.0 uA
!              V3  = 0.00 Volts  I3  =  30.0 uA
!              V4  = -5.00 Volts  I4  =  -1.0 uA
!              V5  = 0.00 Volts  I5  =  29.0 uA
!              V6  = 0.00 Volts  I6  =  30.0 uA
!
! Data:    The device was measured on evaluation board 105354-1. 
!          Data was collected using a calibrated network analyzer.
!          The evaluation circuit board was modeled and simulated.  This was use
!          to removed the evaluation board circuit from the measured data.
!          The reference plane is the edge of the package pin.
!
! Misc:    Lot xxxx, Unit 1
!          Application 20120001, Data collected in Application 20090083
!
! Date Measured:  2009-09-15
! Date:           2012-05-14  MJV
! Note: 
!   Hittite supplies this data as a sample of measured data at the package pin
!   for this product.  Your particular data for this product may vary.
!   Data was taken at 25 degrees C.
!   Hittite reserves the right to change this data at anytime.
!
# GHz S MA R 50

0.01	0.091377676	3.6863035	0.44684595	-1.0843215	0.44484409	-1.3043215	0.16520283	0.99084704	
0.11	0.088160228	-3.4337302	0.44323355	-2.4387031	0.44297848	-2.4184031	0.15953122	-2.0341796	
0.21	0.088437217	-6.2183976	0.44245564	-4.1796294	0.44204831	-4.1953294	0.15835678	-5.8176815	
0.31	0.090362655	-8.7643014	0.44155356	-5.9518841	0.44114706	-5.9314841	0.16349193	-8.0078241	
0.41	0.091104204	-11.788813	0.44143083	-7.6495104	0.4411768	-7.7012104	0.16430348	-9.7876562	
0.51	0.092796997	-14.700844	0.44057702	-9.4730647	0.44017142	-9.4837647	0.16284503	-12.046185	
0.61	0.093862713	-17.374151	0.43985508	-11.132874	0.43955135	-11.129374	0.16383515	-15.452226	
0.71	0.096944073	-19.851273	0.43946646	-12.888988	0.43916299	-12.926588	0.17007299	-17.660296	
0.81	0.09862116	-22.385379	0.43903803	-14.608478	0.43848238	-14.557078	0.16990956	-18.682109	
0.91	0.10093833	-24.436884	0.4382893	-16.334209	0.43758343	-16.333909	0.17029112	-21.771242	
1.01	0.10306213	-25.866681	0.4376828	-17.999069	0.43717919	-18.005369	0.17360313	-24.304444	
1.11	0.10554768	-27.92613	0.4371658	-19.723238	0.43671306	-19.708438	0.17994131	-25.508376	
1.21	0.10722963	-29.666739	0.43648115	-21.415465	0.43597892	-21.409065	0.17813285	-26.2215	
1.31	0.10894804	-31.175605	0.43587399	-23.143009	0.43547272	-23.135109	0.18013583	-29.312961	
1.41	0.11129082	-32.10892	0.43551271	-24.765469	0.4350116	-24.759469	0.18464626	-30.662208	
1.51	0.11311139	-33.792601	0.43510928	-26.494723	0.43455859	-26.479923	0.18827827	-31.370247	
1.61	0.11474531	-35.052582	0.43424149	-28.158765	0.43379178	-28.170465	0.18552619	-32.164407	
1.71	0.11531196	-36.022996	0.43381345	-29.822044	0.43321453	-29.812344	0.1870875	-35.043275	
1.81	0.1172424	-37.019955	0.43337272	-31.454786	0.43282424	-31.476586	0.19114098	-36.023007	
1.91	0.11762526	-38.329331	0.43291082	-33.175743	0.4324127	-33.162043	0.19176774	-36.840432	
2.01	0.11755586	-39.477377	0.43188304	-34.792522	0.4317339	-34.804622	0.18867791	-38.116541	
2.11	0.11774196	-40.430798	0.43158631	-36.460264	0.43113935	-36.452764	0.19054426	-41.052976	
2.21	0.11870108	-41.819288	0.43142057	-38.096073	0.43082495	-38.157673	0.19466159	-41.920112	
2.31	0.11885376	-43.356731	0.43119612	-39.814257	0.43030346	-39.752257	0.19354209	-42.888045	
2.41	0.11819226	-44.708997	0.43000144	-41.429417	0.42960557	-41.417617	0.19136991	-44.877904	
2.51	0.11863828	-45.964618	0.43011862	-43.101851	0.4292282	-43.043951	0.19442109	-47.674551	
2.61	0.11871471	-47.790349	0.42981682	-44.744951	0.42907519	-44.764051	0.19798413	-48.324993	
2.71	0.11846021	-49.728548	0.42886687	-46.409701	0.42857072	-46.433001	0.19535573	-49.80979	
2.81	0.11734439	-51.401742	0.42850749	-48.058354	0.428113	-48.072254	0.19473309	-52.170702	
2.91	0.11845678	-53.33619	0.42816138	-49.674738	0.42791499	-49.733838	0.19827751	-54.651632	
3.01	0.11836632	-55.753904	0.42794788	-51.4216	0.42720947	-51.4351	0.20116146	-55.273381	
3.11	0.11782713	-57.976905	0.42694084	-53.070199	0.4265478	-53.048299	0.19701067	-57.070982	
3.21	0.11750166	-59.962185	0.42634786	-54.737509	0.42620063	-54.714209	0.19773913	-59.812201	
3.31	0.11805002	-62.362757	0.42619947	-56.401342	0.42580711	-56.347342	0.2011411	-61.883625	
3.41	0.1184165	-65.118377	0.42544832	-58.043612	0.42476313	-58.063812	0.20226909	-62.736699	
3.51	0.11843583	-67.459383	0.42453244	-59.698555	0.42414161	-59.683255	0.198489	-65.023544	
3.61	0.11925995	-69.937034	0.42401392	-61.337323	0.42347728	-61.337523	0.2010264	-68.101637	
3.71	0.12111286	-72.358056	0.42368985	-62.98524	0.4230562	-62.99584	0.20486733	-69.792937	
3.81	0.1222261	-74.903253	0.42264015	-64.673117	0.42220246	-64.673917	0.20474074	-70.899277	
3.91	0.12314236	-77.005205	0.42157261	-66.26622	0.42142703	-66.25142	0.20207223	-73.743178	
4.01	0.13248037	-77.22885	0.42196787	-67.83735	0.42143382	-67.82235	0.21512562	-75.035268	
4.11	0.13444094	-79.084539	0.42130816	-69.528532	0.4207265	-69.453432	0.21864853	-75.978416	
4.21	0.1364647	-80.724077	0.42032695	-71.1381	0.42013343	-71.1237	0.21870039	-77.081828	
4.31	0.13897823	-81.711567	0.41965502	-72.713996	0.41897916	-72.760896	0.21810639	-79.423601	
4.41	0.14160378	-82.715124	0.41913727	-74.379299	0.4187032	-74.337599	0.22507724	-80.968524	
4.51	0.14359187	-83.851481	0.41825035	-76.020785	0.4177691	-76.034685	0.22689416	-81.166618	
4.61	0.14535765	-84.69867	0.41731622	-77.644842	0.41693204	-77.619242	0.22604864	-82.029188	
4.71	0.14794811	-85.0696	0.41701749	-79.211424	0.41625002	-79.187624	0.22598896	-83.762287	
4.81	0.15021629	-85.619207	0.4164502	-80.803654	0.41582737	-80.786354	0.23232132	-84.657362	
4.91	0.15209414	-86.049118	0.41497313	-82.45225	0.41444794	-82.43845	0.23173088	-84.333391	
5.01	0.15345733	-86.129335	0.41435636	-83.985362	0.41392724	-83.976162	0.22988562	-85.248475	
5.11	0.15597144	-85.826667	0.41397947	-85.538963	0.41359835	-85.555763	0.23025702	-86.559437	
5.21	0.15748414	-85.899541	0.41323599	-87.13039	0.41295063	-87.13139	0.23519852	-87.151611	
5.31	0.1590436	-85.710193	0.41218971	-88.733929	0.41181025	-88.747329	0.23338898	-86.417485	
5.41	0.16029697	-85.024546	0.41195667	-90.259219	0.41143528	-90.250119	0.23108309	-87.527626	
5.51	0.16242085	-84.515822	0.41159992	-91.805403	0.41098434	-91.804203	0.23298536	-88.333467	
5.61	0.16382571	-83.867287	0.41107855	-93.367228	0.41065282	-93.362828	0.23670649	-88.482351	
5.71	0.16400273	-83.306157	0.41053137	-94.968515	0.40987021	-94.948815	0.23428277	-87.617093	
5.81	0.16541384	-82.177426	0.41040989	-96.472039	0.40989047	-96.478839	0.23158946	-88.710181	
5.91	0.16581244	-81.631347	0.41006555	-98.053909	0.40964087	-98.060709	0.23488019	-89.095024	
6.01	0.16635476	-80.752305	0.40990526	-99.615446	0.4095279	-99.629046	0.23689888	-88.574767	
6.11	0.16626147	-79.814032	0.40935691	-101.21528	0.40879175	-101.18548	0.23305241	-87.666589	
6.21	0.16641132	-78.49853	0.40986945	-102.76646	0.40920935	-102.76016	0.22965398	-88.736696	
6.31	0.16594562	-77.903366	0.40983617	-104.36194	0.40922324	-104.35804	0.23215209	-88.76478	
6.41	0.1647108	-76.586211	0.40950621	-105.94258	0.40879962	-105.93468	0.23063063	-88.013225	
6.51	0.16288555	-75.402059	0.40933456	-107.57797	0.4088165	-107.52017	0.22542581	-87.310459	
6.61	0.16117308	-74.306262	0.40986669	-109.16368	0.40953651	-109.15328	0.22026678	-88.469781	
6.71	0.15857055	-73.66334	0.41021299	-110.80162	0.40950519	-110.80192	0.22069852	-88.677493	
6.81	0.15565543	-72.664234	0.41021425	-112.46149	0.40950644	-112.43949	0.2156314	-88.255313	
6.91	0.15232287	-71.722163	0.41065706	-114.10644	0.40985411	-114.10344	0.2091365	-88.526532	
7.01	0.14863115	-71.209754	0.41132463	-115.79462	0.41070947	-115.81142	0.20227811	-90.2964	
7.11	0.14355603	-70.81077	0.4115103	-117.51998	0.41113146	-117.50498	0.20209574	-91.202524	
7.21	0.13806706	-70.244122	0.41168515	-119.22157	0.41116411	-119.21357	0.19399429	-91.2941	
7.31	0.13229376	-69.924811	0.41262604	-120.96928	0.41200893	-120.96138	0.18660535	-93.308584	
7.41	0.12577322	-70.008648	0.41338143	-122.7468	0.41285825	-122.7377	0.18110859	-95.994008	
7.51	0.11811969	-70.025635	0.41400059	-124.58455	0.41338142	-124.54475	0.17896868	-97.777461	
7.61	0.11031472	-70.491225	0.41406484	-126.3693	0.4133028	-126.345	0.16998639	-98.90149	
7.71	0.10238415	-71.227388	0.41496072	-128.22586	0.41434012	-128.18976	0.16224574	-102.60143	
7.81	0.093242648	-72.869979	0.41543203	-130.11171	0.41485848	-130.10401	0.15731326	-106.38704	
7.91	0.083964812	-74.350246	0.41561087	-132.00401	0.41508487	-131.98871	0.15399188	-109.40363	
8.01	0.07440173	-76.554526	0.41544233	-133.89725	0.41486877	-133.87835	0.14460478	-112.52112	
8.11	0.064962914	-80.849119	0.41604499	-135.84314	0.41551844	-135.82394	0.1392933	-118.70746	
8.21	0.055388014	-86.570607	0.41602342	-137.81711	0.4153056	-137.81151	0.13690266	-124.00319	
8.31	0.046611324	-94.498014	0.41598609	-139.74765	0.41541178	-139.71385	0.13488592	-128.40513	
8.41	0.039368096	-106.47528	0.41544755	-141.69857	0.41482622	-141.67357	0.12855548	-134.3002	
8.51	0.035195912	-124.03985	0.41573867	-143.73067	0.41506912	-143.70997	0.13021704	-142.35138	
8.61	0.034403147	-143.56354	0.41511358	-145.75518	0.4145882	-145.73608	0.13435403	-148.05267	
8.71	0.038152293	-162.34379	0.41464397	-147.72019	0.41392852	-147.70089	0.13669237	-153.02409	
8.81	0.045554111	-175.33104	0.41377297	-149.7092	0.41301147	-149.7067	0.13811957	-159.54905	
8.91	0.055032125	176.15979	0.41331609	-151.76352	0.41279299	-151.77282	0.14871901	-165.43127	
9.01	0.063806989	170.40234	0.41210127	-153.77358	0.41157971	-153.76458	0.15626248	-168.59574	
9.11	0.073595811	165.92369	0.4109887	-155.71971	0.41037404	-155.69261	0.1636413	-171.80886	
9.21	0.084198427	164.21069	0.40980912	-157.65651	0.40943184	-157.64701	0.16921238	-175.35761	
9.31	0.093919722	161.86765	0.40882655	-159.70604	0.40812114	-159.67154	0.1823949	-178.59348	
9.41	0.10429816	161.10061	0.40749325	-161.60379	0.40669649	-161.59569	0.18955347	-179.00933	
9.51	0.11316322	160.69091	0.40544016	-163.44859	0.4047406	-163.42379	0.19428592	178.78322	
9.61	0.12217285	160.76226	0.40404821	-165.33563	0.40349038	-165.31813	0.2035566	177.0248	
9.71	0.13068331	161.49833	0.40290218	-167.23361	0.4022533	-167.19281	0.21250586	176.1233	
9.81	0.13805543	162.15894	0.40119484	-169.07187	0.40073321	-169.04737	0.21845254	175.94013	
9.91	0.14489069	163.10726	0.39958903	-170.81264	0.39885364	-170.79394	0.22242951	174.85064	
10.01	0.15172142	163.91061	0.39832362	-172.64175	0.39745326	-172.63275	0.23092148	174.00961	
10.11	0.15848673	165.02967	0.39659198	-174.4478	0.39599885	-174.4413	0.23861201	173.98674	
10.21	0.1644031	166.22617	0.3950002	-176.19418	0.39436405	-176.20298	0.24303884	174.60386	
10.31	0.17027564	167.86017	0.39319462	-177.89485	0.392471	-177.85485	0.24534601	174.02715	
10.41	0.17519151	168.81445	0.39170889	-179.61732	0.39107804	-179.57562	0.25363747	174.05499	
10.51	0.18072892	170.22058	0.38995705	178.64834	0.38964291	178.70814	0.26001577	174.65053	
10.61	0.18580878	171.88499	0.38884491	177.04499	0.38830807	177.09279	0.26308142	175.394	
10.71	0.19053285	173.39367	0.38730575	175.3874	0.38668199	175.3938	0.26574906	175.07888	
10.81	0.1955689	174.65401	0.38602674	173.6595	0.38571576	173.72	0.27297008	175.45735	
10.91	0.1996243	176.18432	0.3849566	172.05587	0.38433663	172.07607	0.2763058	176.38789	
11.01	0.20442114	177.44794	0.3836226	170.4284	0.38300477	170.4521	0.27733332	177.00212	
11.11	0.20855805	178.95424	0.38236778	168.82886	0.38170803	168.82516	0.27857957	176.97967	
11.21	0.21190207	-179.98784	0.38128339	167.18541	0.38066933	167.19841	0.2836438	177.34151	
11.31	0.2155377	-178.97136	0.38011994	165.54691	0.37946406	165.57361	0.28481818	178.10805	
11.41	0.21964413	-178.07425	0.37904758	163.98261	0.37843712	164.01611	0.28411249	178.61751	
11.51	0.2229402	-177.14697	0.37789648	162.41188	0.37733131	162.42778	0.28392782	178.23109	
11.61	0.22583756	-176.50371	0.37688541	160.72136	0.37632176	160.76636	0.28858381	178.24845	
11.71	0.22891231	-175.81301	0.37570454	159.10524	0.37548833	159.12174	0.28783063	178.71727	
11.81	0.23195045	-175.29902	0.37472609	157.53388	0.37420874	157.52828	0.28742602	178.42832	
11.91	0.23466753	-174.86185	0.3735789	155.88625	0.37306314	155.90195	0.28793608	178.04304	
12.01	0.23747679	-174.52476	0.37268871	154.20374	0.37221703	154.23234	0.29134383	177.84471	
12.11	0.2401612	-174.25331	0.3715795	152.56485	0.37123742	152.60345	0.29026693	178.05343	
12.21	0.24335065	-174.1048	0.37046616	150.97207	0.3700825	150.98397	0.29016448	177.40972	
12.31	0.24626285	-174.05324	0.36922017	149.24983	0.3688378	149.29323	0.29237617	176.96384	
12.41	0.2492708	-174.17183	0.36742909	147.57929	0.36717537	147.59519	0.29617175	176.77018	
12.51	0.25150141	-174.40994	0.36622161	145.99479	0.36571601	146.01779	0.29573213	176.96143	
12.61	0.25358107	-174.48441	0.36508949	144.48483	0.36454347	144.50033	0.29625827	175.88249	
12.71	0.25663876	-174.15525	0.36435891	142.87809	0.36368835	142.90859	0.29993004	175.55836	
12.81	0.25980924	-174.04357	0.36346108	141.24085	0.3629175	141.26175	0.30267994	175.38598	
12.91	0.26409461	-173.99529	0.36285159	139.57494	0.36239236	139.59824	0.30300278	175.5688	
13.01	0.26778133	-174.0367	0.36205664	137.93236	0.36143193	137.97576	0.30442238	174.77041	
13.11	0.27267295	-174.06682	0.36060695	136.24846	0.3602335	136.28096	0.30849892	174.60707	
13.21	0.27720511	-173.9987	0.35934861	134.60715	0.35897646	134.62835	0.31111206	174.57543	
13.31	0.28172122	-174.06792	0.35834562	132.94943	0.35789209	132.98103	0.3131339	174.65067	
13.41	0.28694489	-174.10181	0.35712962	131.34074	0.35630825	131.35974	0.31539177	174.13965	
13.51	0.29225635	-173.96366	0.35569409	129.72204	0.35520302	129.76784	0.32113471	174.18214	
13.61	0.2981013	-173.96109	0.35440302	128.08886	0.35379151	128.13646	0.32445564	174.43482	
13.71	0.30478062	-173.8354	0.35318616	126.49222	0.35265795	126.51772	0.32680729	174.66129	
13.81	0.31090129	-173.53262	0.35190051	124.89592	0.35133377	124.93582	0.33053767	174.42588	
13.91	0.31705212	-173.41188	0.35037831	123.31482	0.34977375	123.32332	0.33726359	174.96383	
14.01	0.3242886	-173.20831	0.34900073	121.70871	0.3485189	121.73841	0.33928424	175.51452	
14.11	0.33042341	-172.8008	0.34760447	120.14229	0.34704465	120.15469	0.34315183	175.93608	
14.21	0.33614928	-172.46279	0.34637635	118.5878	0.34573889	118.6254	0.34647057	176.1909	
14.31	0.34306112	-172.08228	0.34491026	117.05732	0.34423587	117.11362	0.35250281	177.06338	
14.41	0.34920348	-171.57894	0.34363271	115.55475	0.34315829	115.58705	0.35306565	177.83186	
14.51	0.35520614	-171.03912	0.3424543	114.05127	0.34190277	114.07507	0.35617313	178.32545	
14.61	0.36077064	-170.40867	0.34144817	112.55001	0.34085902	112.57431	0.35783457	178.99482	
14.71	0.3657299	-169.75054	0.34004213	111.05929	0.33965086	111.11519	0.36214506	179.95571	
14.81	0.37061366	-169.18835	0.33921774	109.58242	0.33871042	109.61082	0.36079403	-178.87154	
14.91	0.37482608	-168.29521	0.33818769	108.14059	0.3375653	108.13519	0.36142274	-178.33743	
15.01	0.37755358	-167.54758	0.33733151	106.68826	0.33678823	106.68256	0.361347	-177.34468	
15.11	0.37975701	-166.84289	0.33647569	105.246	0.33608853	105.2751	0.36222338	-176.44387	
15.21	0.38173878	-166.02287	0.33595518	103.82937	0.33545274	103.84227	0.35834765	-174.99022	
15.31	0.38289369	-165.12848	0.33570292	102.42426	0.33527805	102.40466	0.35599173	-174.39538	
15.41	0.38300299	-164.33156	0.33537524	100.9462	0.33498935	100.9886	0.35356877	-173.05991	
15.51	0.38241931	-163.40247	0.33492576	99.54232	0.33469448	99.57502	0.34978157	-171.87733	
15.61	0.3787572	-162.44647	0.33485993	98.066957	0.33447463	98.078557	0.34251393	-170.32315	
15.71	0.37466652	-161.47719	0.33530507	96.658993	0.33499638	96.681593	0.33579562	-169.68101	
15.81	0.37126705	-160.22211	0.33589586	95.235686	0.3352005	95.254586	0.33066873	-168.06487	
15.91	0.36688706	-159.01981	0.33629918	93.658855	0.33591223	93.715355	0.32166207	-166.53309	
16.01	0.36016195	-157.92238	0.33690311	92.124069	0.33647672	92.152569	0.31099584	-164.92326	
16.11	0.35177707	-156.61605	0.33746148	90.590672	0.336918	90.638672	0.30052917	-163.87073	
16.21	0.3432563	-154.93962	0.33817178	89.117643	0.33786045	89.130543	0.29196415	-161.92087	
16.31	0.33648118	-153.05925	0.33968225	87.557409	0.33913519	87.581809	0.27810174	-159.80653	
16.41	0.32864705	-151.27591	0.3415401	85.802893	0.34102931	85.836593	0.26446287	-158.00174	
16.51	0.31968729	-149.77608	0.34309051	83.948554	0.34241967	83.986054	0.24957554	-156.26055	
16.61	0.31050402	-148.43375	0.3443726	82.124405	0.34401595	82.167405	0.23783025	-154.21139	
16.71	0.30004188	-146.97994	0.34536655	80.210287	0.34488974	80.226587	0.22324438	-151.3285	
16.81	0.28709117	-145.52863	0.3463547	78.243616	0.34603584	78.275116	0.20781783	-148.62667	
16.91	0.2751577	-143.99807	0.34795583	76.205822	0.34747545	76.233122	0.19294103	-145.965	
17.01	0.26114121	-142.54675	0.34915828	74.07428	0.34863609	74.11978	0.18005731	-142.82729	
17.11	0.24716216	-141.36975	0.3497486	71.897025	0.34922553	71.921225	0.16530766	-138.85652	
17.21	0.23105344	-140.45194	0.35003093	69.58706	0.3494672	69.627058	0.15024741	-134.72568	
17.31	0.21407428	-139.4357	0.34983617	67.246484	0.34971534	67.273286	0.13570473	-130.55339	
17.41	0.19352491	-138.69134	0.34949886	64.91471	0.34905652	64.951508	0.12364542	-125.62047	
17.51	0.17164454	-137.37198	0.34800019	62.621896	0.34759976	62.619897	0.10894574	-119.45327	
17.61	0.14959571	-134.60813	0.34722911	60.457725	0.34674973	60.477925	0.096249722	-113.30176	
17.71	0.13130931	-131.07673	0.34789424	58.219854	0.34737394	58.211254	0.085099973	-105.79775	
17.81	0.11189643	-130.42995	0.34825523	55.653026	0.3477344	55.679426	0.0768054	-98.356606	
17.91	0.091462197	-127.29915	0.34610728	53.165095	0.34554987	53.223695	0.06668463	-85.354119	
18.01	0.074576733	-119.98859	0.34589287	50.943588	0.34529605	50.974788	0.055702384	-74.05208	
18.11	0.064275184	-117.60893	0.34741639	48.592828	0.34725643	48.629227	0.051863991	-60.041447	
18.21	0.052177064	-123.2701	0.34951369	45.757454	0.34923212	45.803154	0.044748754	-41.99656	
18.31	0.035940818	-137.90458	0.3498237	42.697635	0.34926031	42.736432	0.044909754	-21.589684	
18.41	0.023855927	178.3628	0.34882235	39.510641	0.3484611	39.539541	0.046413099	7.0873885	
18.51	0.031320026	126.84803	0.34726551	36.689659	0.34670624	36.673559	0.049754912	23.166195	
18.61	0.05148739	108.81095	0.346439	33.789894	0.34592088	33.831694	0.062532785	36.767979	
18.71	0.074113824	103.33075	0.34613682	30.74502	0.34538049	30.79272	0.075031063	47.122428	
18.81	0.10503832	98.520991	0.3440275	27.22405	0.34335484	27.227951	0.097564751	56.583848	
18.91	0.13823723	96.581061	0.34119114	23.778043	0.34064165	23.796343	0.11490048	65.126438	
19.01	0.16816419	93.727751	0.3357508	20.662816	0.33517148	20.677415	0.13588055	68.291348	
19.11	0.19584054	90.705153	0.33030292	17.787341	0.32984692	17.803543	0.15601112	72.305637	
19.21	0.2202173	90.575428	0.32728162	15.091656	0.32690504	15.118456	0.17606418	74.693748	
19.31	0.24427455	91.593448	0.32559078	12.071998	0.32510383	12.105598	0.19821166	78.156077	
