!
! Hittite Microwave Corporation
! 2 Elizabeth Drive
! Chelmsford, MA 01824
! http://www.hittite.com
! Tel: 978-250-3343
! Fax: 978-250-3373
! 
! Device:      HMC424LP3
! Description: 0.5 dB GaAs MMIC 6-Bit Digital Attenuator
! Frequency:    DC -  13.00 GHz
! Package:     LP3  - 3x3 mm Quad Flatpack No-Lead (QFN) Plastic Package: 16 pin
! Ports:       2 RF, 7 DC
!              Pad  1  = Ground
!              Pad  2  = RF IN   = Port 1
!              Pad  3  = Ground
!              Pad  4  = V6
!              Pad  5  = V5
!              Pad  6  = V4
!              Pad  7  = V3
!              Pad  8  = V2
!              Pad  9  = V1
!              Pad 10  = Ground
!              Pad 11  = RF OUT  = Port 2
!              Pad 12  = Ground
!              Pad 15  = VEE
!
! Control:     -5 Volt control voltage
! State:        10 
! Attenuation:  5.0 dB
! Voltages:    Vdd = -5.00 Volts  Idd =  -2.437 mA
!              V1  = 0.00 Volts  I1  =  29.0 uA
!              V2  = -5.00 Volts  I2  =  -1.0 uA
!              V3  = 0.00 Volts  I3  =  29.0 uA
!              V4  = -5.00 Volts  I4  =  -1.0 uA
!              V5  = 0.00 Volts  I5  =  30.0 uA
!              V6  = 0.00 Volts  I6  =  30.0 uA
!
! Data:    The device was measured on evaluation board 105354-1. 
!          Data was collected using a calibrated network analyzer.
!          The evaluation circuit board was modeled and simulated.  This was use
!          to removed the evaluation board circuit from the measured data.
!          The reference plane is the edge of the package pin.
!
! Misc:    Lot xxxx, Unit 1
!          Application 20120001, Data collected in Application 20090083
!
! Date Measured:  2009-09-15
! Date:           2012-05-14  MJV
! Note: 
!   Hittite supplies this data as a sample of measured data at the package pin
!   for this product.  Your particular data for this product may vary.
!   Data was taken at 25 degrees C.
!   Hittite reserves the right to change this data at anytime.
!
# GHz S MA R 50

0.01	0.033804005	10.388242	0.41851352	-1.2536767	0.41659063	-1.2957767	0.15725646	1.2473476	
0.11	0.029686975	-5.7596261	0.41606408	-2.4148205	0.41515496	-2.4371205	0.15201442	-1.9286133	
0.21	0.03040257	-11.076199	0.41496051	-4.1702106	0.41448305	-4.1431106	0.15125426	-5.6872555	
0.31	0.032509964	-15.130704	0.41422056	-5.9149516	0.41388687	-5.8876516	0.15627314	-8.0084055	
0.41	0.033658037	-20.25074	0.41402385	-7.63471	0.41388087	-7.62791	0.15714044	-9.6934811	
0.51	0.035715109	-24.79002	0.41323917	-9.4165317	0.41276369	-9.4404317	0.15570371	-11.927164	
0.61	0.037201741	-28.993975	0.4128653	-11.087092	0.41224784	-11.071092	0.15665803	-15.382952	
0.71	0.040519224	-31.927733	0.41233079	-12.827657	0.41176152	-12.786157	0.16291781	-17.522149	
0.81	0.042701085	-35.09552	0.41190228	-14.530715	0.41128626	-14.479015	0.16283874	-18.531221	
0.91	0.045376132	-37.068678	0.41112665	-16.254689	0.41051179	-16.228889	0.16333048	-21.620715	
1.01	0.047305255	-38.021142	0.41072257	-17.899989	0.41029721	-17.939989	0.16659642	-24.192655	
1.11	0.050157546	-39.974562	0.41035347	-19.638308	0.4098813	-19.636208	0.17308287	-25.364527	
1.21	0.051984528	-41.528656	0.40973348	-21.332303	0.40921492	-21.285803	0.1712477	-25.978524	
1.31	0.053839391	-42.746917	0.4091846	-23.028915	0.40876084	-23.001715	0.17333765	-29.046224	
1.41	0.055961053	-42.693503	0.40900653	-24.660366	0.40839483	-24.654266	0.17791569	-30.444355	
1.51	0.057828391	-44.112325	0.4085985	-26.36786	0.40803439	-26.32486	0.18173984	-31.043172	
1.61	0.059565055	-44.862287	0.4077526	-28.031718	0.40733032	-28.050918	0.17895054	-31.823496	
1.71	0.060025164	-45.376288	0.40736417	-29.702795	0.40666129	-29.656095	0.1806354	-34.700579	
1.81	0.061868918	-45.743277	0.40710256	-31.357509	0.40663414	-31.337409	0.18470782	-35.643979	
1.91	0.062310626	-46.753155	0.40681895	-33.050062	0.40611701	-33.024362	0.18539878	-36.397179	
2.01	0.062325835	-47.747594	0.40586037	-34.675994	0.40534671	-34.677894	0.18242974	-37.691921	
2.11	0.062348141	-48.2145	0.40568067	-36.331552	0.40507395	-36.322252	0.18435444	-40.653849	
2.21	0.063336398	-49.481769	0.40538822	-37.965533	0.40492177	-37.988933	0.18858744	-41.447729	
2.31	0.063554855	-51.022	0.40522591	-39.717718	0.40424737	-39.634718	0.18754372	-42.425192	
2.41	0.063113101	-52.40429	0.40433561	-41.297353	0.4037309	-41.267053	0.185318	-44.387434	
2.51	0.063276491	-53.669027	0.40412085	-42.982138	0.40351646	-42.920838	0.18843929	-47.206824	
2.61	0.063569001	-55.820314	0.40402172	-44.634856	0.40318533	-44.600256	0.19205665	-47.798611	
2.71	0.06370275	-58.086099	0.40331156	-46.313024	0.40280113	-46.291624	0.18946291	-49.262644	
2.81	0.062697694	-60.033918	0.40273987	-47.898415	0.40236911	-47.945815	0.18887079	-51.631685	
2.91	0.063888816	-62.243101	0.40269233	-49.555586	0.40209008	-49.570386	0.19238541	-54.133972	
3.01	0.064069704	-65.551819	0.40230618	-51.291258	0.40151956	-51.257358	0.19541914	-54.693533	
3.11	0.064076316	-68.363676	0.40145111	-52.913435	0.40103535	-52.909835	0.19141388	-56.473255	
3.21	0.063980501	-70.939567	0.40089789	-54.590853	0.40066718	-54.557253	0.19206811	-59.257996	
3.31	0.065004171	-74.025819	0.4007165	-56.255878	0.40034759	-56.173878	0.19561804	-61.264672	
3.41	0.065890825	-77.629877	0.40001895	-57.873645	0.39965069	-57.904045	0.19681577	-62.121826	
3.51	0.066614385	-80.708516	0.39939761	-59.50916	0.39893806	-59.51266	0.19318052	-64.40109	
3.61	0.06790494	-83.703161	0.39892336	-61.154826	0.39846435	-61.145026	0.19573604	-67.476958	
3.71	0.070253738	-86.577108	0.39868306	-62.79748	0.39794934	-62.79078	0.19956496	-69.163207	
3.81	0.072202244	-89.405631	0.39785017	-64.486881	0.3973009	-64.482481	0.19957755	-70.228542	
3.91	0.073486824	-91.820653	0.39705251	-66.074885	0.39659565	-66.061485	0.19693097	-73.085351	
4.01	0.081913229	-89.780407	0.39718024	-67.638618	0.39644928	-67.634418	0.2099763	-74.433615	
4.11	0.084103297	-91.541891	0.39640753	-69.337144	0.39586025	-69.325244	0.21357284	-75.394592	
4.21	0.08632332	-93.05584	0.39574499	-70.958719	0.39538067	-70.954419	0.21371575	-76.47352	
4.31	0.088709976	-93.556671	0.39528119	-72.520883	0.39459915	-72.540883	0.21343375	-78.783711	
4.41	0.091137146	-93.934671	0.39473899	-74.202303	0.39437559	-74.185803	0.22042326	-80.358691	
4.51	0.093054576	-94.656849	0.394031	-75.82729	0.39326055	-75.83469	0.22222504	-80.486572	
4.61	0.09466351	-95.052741	0.39323161	-77.447417	0.39277915	-77.430217	0.2217096	-81.342342	
4.71	0.096859692	-94.774676	0.39276303	-78.996551	0.39222078	-79.008451	0.22177527	-83.079319	
4.81	0.098809436	-94.634047	0.39240064	-80.618766	0.39172358	-80.611266	0.22817695	-84.006451	
4.91	0.10042386	-94.478252	0.39135622	-82.263472	0.39063598	-82.263972	0.22781814	-83.62507	
5.01	0.10148254	-93.795735	0.39062411	-83.825806	0.39017464	-83.820106	0.22604888	-84.535863	
5.11	0.10340962	-92.577733	0.39034187	-85.37778	0.38980296	-85.40238	0.22658722	-85.853416	
5.21	0.10464041	-91.979156	0.38993147	-86.982838	0.38948281	-86.984438	0.2316319	-86.443341	
5.31	0.10580454	-90.945417	0.38891354	-88.581202	0.38860024	-88.592902	0.23012486	-85.684817	
5.41	0.10663129	-89.274431	0.38870459	-90.143073	0.38816795	-90.112373	0.22796657	-86.791567	
5.51	0.10842273	-87.820369	0.38850577	-91.672176	0.38792474	-91.701376	0.23001902	-87.621855	
5.61	0.10945815	-86.212677	0.38801102	-93.287794	0.38756456	-93.253694	0.23382144	-87.779869	
5.71	0.10946747	-84.712076	0.38752271	-94.895752	0.3869877	-94.859152	0.23151518	-86.881839	
5.81	0.11079605	-82.432986	0.38751825	-96.424878	0.38689415	-96.419378	0.22894672	-87.986915	
5.91	0.1111591	-80.980791	0.3871609	-98.007912	0.38671542	-98.002812	0.23214018	-88.398883	
6.01	0.11173887	-79.045688	0.3870512	-99.585816	0.38642785	-99.595516	0.2342542	-87.862212	
6.11	0.11184157	-77.056202	0.38647883	-101.19611	0.38598969	-101.17841	0.23062742	-86.951557	
6.21	0.1122281	-74.434883	0.38671322	-102.77177	0.38600153	-102.75737	0.22703546	-87.990092	
6.31	0.11205054	-72.90729	0.38677637	-104.3685	0.386109	-104.3758	0.22966207	-88.016367	
6.41	0.11149475	-70.23531	0.38610396	-105.99329	0.38557091	-105.95959	0.22817577	-87.278703	
6.51	0.11048198	-67.806802	0.38610298	-107.62215	0.38556993	-107.57905	0.22303847	-86.545493	
6.61	0.10954721	-65.37476	0.38652367	-109.23796	0.38599004	-109.23236	0.21774709	-87.671386	
6.71	0.10778865	-63.565844	0.38666784	-110.90634	0.38586736	-110.87574	0.21836938	-87.868157	
6.81	0.10601527	-61.194939	0.38648173	-112.57063	0.38577046	-112.54593	0.21319436	-87.419155	
6.91	0.10393271	-58.733677	0.3866881	-114.20008	0.38593201	-114.20088	0.2066758	-87.624141	
7.01	0.10121352	-56.856162	0.3871857	-115.92415	0.38642865	-115.90245	0.19969825	-89.301833	
7.11	0.097599809	-54.829651	0.38730251	-117.66611	0.3867678	-117.62311	0.19943133	-90.174311	
7.21	0.093468884	-52.427399	0.38710462	-119.37364	0.38661469	-119.34074	0.19138469	-90.19389	
7.31	0.089392311	-49.878838	0.3876811	-121.09536	0.38727961	-121.08796	0.18387413	-92.160631	
7.41	0.084367402	-47.821666	0.38839874	-122.87986	0.38790717	-122.87096	0.17824335	-94.741126	
7.51	0.078734671	-44.861398	0.38884244	-124.67993	0.38812682	-124.65403	0.17617386	-96.47354	
7.61	0.072899102	-42.203579	0.38872171	-126.48527	0.38796165	-126.42617	0.16727593	-97.451557	
7.71	0.066758452	-39.039262	0.38923999	-128.33113	0.38852364	-128.28173	0.15920891	-101.06979	
7.81	0.059336444	-35.930151	0.38958731	-130.19725	0.38887032	-130.17585	0.15400363	-104.74634	
7.91	0.052526343	-31.049135	0.38967467	-132.05891	0.38891274	-132.03121	0.15083249	-107.70278	
8.01	0.045514701	-25.006626	0.38917816	-133.92491	0.38868561	-133.91241	0.14146244	-110.67366	
8.11	0.037870614	-17.976533	0.3897071	-135.84179	0.38907947	-135.82369	0.13580464	-116.75611	
8.21	0.030919335	-6.7482449	0.38954027	-137.80282	0.38886814	-137.79112	0.13323374	-122.05043	
8.31	0.025807574	9.7066881	0.3893608	-139.69171	0.38859949	-139.67971	0.13086813	-126.50346	
8.41	0.022841609	31.728734	0.38897372	-141.61744	0.38834728	-141.61124	0.12451057	-132.25772	
8.51	0.023344316	57.671104	0.38909841	-143.63147	0.38842704	-143.59247	0.12586763	-140.39644	
8.61	0.028093351	77.810152	0.38851303	-145.61676	0.38784267	-145.57876	0.12969389	-146.15902	
8.71	0.034920088	91.879941	0.38797124	-147.54347	0.38725723	-147.52867	0.13199303	-151.21764	
8.81	0.04264683	102.01266	0.38712266	-149.52553	0.38654369	-149.48643	0.13340866	-157.83623	
8.91	0.050665687	109.79726	0.38694005	-151.51921	0.3862724	-151.51141	0.14370321	-163.91762	
9.01	0.05839407	114.34174	0.38603487	-153.50532	0.38523571	-153.49292	0.15138903	-167.16854	
9.11	0.066956771	117.82769	0.38483368	-155.42839	0.38430238	-155.38349	0.15891408	-170.35472	
9.21	0.074605062	122.37575	0.38389874	-157.34707	0.38350116	-157.30947	0.1644883	-173.93487	
9.31	0.082570899	124.85637	0.38307492	-159.36969	0.38236992	-159.31129	0.17754233	-177.28902	
9.41	0.090513497	128.11172	0.38190551	-161.27831	0.38133435	-161.23371	0.18523073	-177.69021	
9.51	0.096883811	130.60093	0.38027702	-163.095	0.37957717	-163.06	0.19014949	-179.94945	
9.61	0.1031966	133.35158	0.37904505	-164.97867	0.37839103	-164.91247	0.19965417	178.30417	
9.71	0.10850429	136.31549	0.37814097	-166.79167	0.37753197	-166.77987	0.20922967	177.40699	
9.81	0.1130733	138.91793	0.37698336	-168.63501	0.3763329	-168.62211	0.21540622	177.23419	
9.91	0.11744439	141.44135	0.37525511	-170.37919	0.3746939	-170.36929	0.21965348	176.13276	
10.01	0.12165212	143.87938	0.37419206	-172.21136	0.37371848	-172.18266	0.22860357	175.24744	
10.11	0.12593743	146.56462	0.37298464	-174.02144	0.3724697	-173.99044	0.2367247	175.15156	
10.21	0.12917595	149.14669	0.37170578	-175.72476	0.3710217	-175.75246	0.24125574	175.75776	
10.31	0.13277697	152.18885	0.37020009	-177.47035	0.36947625	-177.42555	0.24408989	175.1708	
10.41	0.13555135	154.34115	0.36896472	-179.1872	0.3681585	-179.1546	0.25266937	175.13744	
10.51	0.13914865	157.03179	0.36756193	179.09281	0.36705447	179.15341	0.25948943	175.67815	
10.61	0.14201149	159.96211	0.36656009	177.47385	0.36605402	177.51105	0.26284011	176.3887	
10.71	0.14481896	162.63273	0.36533058	175.77824	0.36478421	175.82684	0.26589617	176.02847	
10.81	0.1481074	165.11749	0.36440309	174.06577	0.3638581	174.10837	0.2733047	176.30573	
10.91	0.15059993	167.68967	0.36346064	172.43124	0.36287528	172.45084	0.27706408	177.20722	
11.01	0.15421819	169.98707	0.36245158	170.77351	0.36178454	170.81851	0.27829502	177.80234	
11.11	0.15696764	172.56174	0.36124735	169.16263	0.36062403	169.16223	0.27970588	177.66999	
11.21	0.15956435	174.45871	0.36026862	167.49212	0.35964699	167.53992	0.2849108	177.98771	
11.31	0.16221299	176.4002	0.35933899	165.87188	0.35876027	165.90558	0.28617242	178.75303	
11.41	0.16577431	178.14324	0.35841942	164.28549	0.35780098	164.29899	0.28584478	179.17804	
11.51	0.16852399	179.82329	0.35760025	162.6663	0.35702433	162.6792	0.28560488	178.75654	
11.61	0.17111554	-178.88779	0.35662313	160.97689	0.35604878	161.00459	0.29028849	178.71003	
11.71	0.17372977	-177.48243	0.3557102	159.35203	0.35509644	159.39913	0.28948513	179.12554	
11.81	0.17656629	-176.32903	0.35483138	157.75405	0.3543823	157.75675	0.28930931	178.83308	
11.91	0.17917761	-175.35817	0.35377129	156.09905	0.35316088	156.12875	0.28981507	178.40348	
12.01	0.18189649	-174.4955	0.35287985	154.39742	0.35243323	154.43292	0.29316829	178.15574	
12.11	0.18465617	-173.70078	0.35198677	152.7106	0.35166273	152.7531	0.29223409	178.34091	
12.21	0.18790055	-173.10342	0.35111914	151.11609	0.35063438	151.11129	0.29194727	177.6399	
12.31	0.19101262	-172.68611	0.34987333	149.39181	0.34947076	149.40581	0.294134	177.16675	
12.41	0.19418441	-172.50547	0.34837505	147.65918	0.34805433	147.66458	0.29789252	176.91525	
12.51	0.19641639	-172.53706	0.34719797	146.03226	0.3466388	146.05756	0.29732446	177.12606	
12.61	0.19844499	-172.25777	0.34592753	144.52849	0.34541017	144.54419	0.29792982	176.05278	
12.71	0.20164569	-171.46135	0.34529185	142.88939	0.34469607	142.93719	0.30172968	175.68454	
12.81	0.20499342	-170.9944	0.34436542	141.2593	0.34388999	141.2955	0.30437915	175.45515	
12.91	0.20973987	-170.56952	0.34397747	139.57701	0.34354212	139.62931	0.30469136	175.61002	
13.01	0.21367544	-170.30043	0.34327273	137.93102	0.34271988	137.96642	0.30615353	174.77343	
13.11	0.21910616	-170.09891	0.3420786	136.20599	0.34152768	136.27579	0.31009746	174.58147	
13.21	0.22413042	-169.74643	0.34105351	134.5471	0.34054344	134.5758	0.31255185	174.51551	
13.31	0.22906301	-169.62478	0.34001252	132.86797	0.33946492	132.91567	0.31445219	174.58374	
13.41	0.23478023	-169.45182	0.33892894	131.23322	0.3381105	131.25712	0.31675248	174.02522	
13.51	0.24074642	-169.07226	0.33762124	129.60657	0.3370775	129.63157	0.32235392	174.0292	
13.61	0.24730783	-168.89005	0.33638679	127.93755	0.33584503	127.96785	0.32551257	174.27814	
13.71	0.25454881	-168.62079	0.33547033	126.31562	0.3347373	126.33682	0.32774865	174.48027	
13.81	0.26132219	-168.10977	0.33412128	124.68842	0.33362158	124.73382	0.33137564	174.23117	
13.91	0.26832972	-167.84154	0.33267339	123.04418	0.33213761	123.07918	0.33781181	174.74805	
14.01	0.27639236	-167.51749	0.33140771	121.41164	0.3310645	121.48494	0.33969796	175.29598	
14.11	0.28354765	-166.93886	0.33029075	119.82982	0.32972085	119.80062	0.3434209	175.70289	
14.21	0.29025781	-166.46387	0.32889691	118.2037	0.32851847	118.2878	0.34647621	175.94686	
14.31	0.2981879	-165.96885	0.32748631	116.66224	0.32692125	116.69534	0.3521256	176.82437	
14.41	0.30545847	-165.31693	0.32633938	115.09498	0.32581381	115.13918	0.35241811	177.59894	
14.51	0.31277522	-164.64289	0.32520583	113.56184	0.32471946	113.59264	0.35548723	178.11956	
14.61	0.31963654	-163.89879	0.32412838	112.02435	0.32360637	112.03645	0.35686977	178.7682	
14.71	0.32604461	-163.0709	0.32274618	110.50494	0.3223377	110.54744	0.36089024	179.76888	
14.81	0.33220997	-162.43184	0.32187872	108.95484	0.32124935	108.99454	0.35919488	-179.04528	
14.91	0.33803373	-161.38739	0.32066886	107.47265	0.32007871	107.48265	0.35971843	-178.47054	
15.01	0.34239711	-160.51384	0.31977643	105.96885	0.31933495	105.97635	0.35929898	-177.47352	
15.11	0.34621258	-159.63068	0.31875871	104.52212	0.31835528	104.52292	0.36010305	-176.49421	
15.21	0.34975695	-158.6561	0.31792773	103.02742	0.3174157	103.05682	0.35607399	-174.99607	
15.31	0.35286721	-157.63306	0.31763105	101.55689	0.31708299	101.59389	0.3536586	-174.36677	
15.41	0.35486753	-156.62806	0.31719633	100.11906	0.31661257	100.12386	0.35112344	-172.96246	
15.51	0.35605792	-155.54822	0.31652996	98.653623	0.31612935	98.663823	0.34734003	-171.7291	
15.61	0.35448485	-154.35599	0.31613746	97.115044	0.31555565	97.152244	0.34001067	-170.10422	
15.71	0.35224362	-153.11513	0.31618681	95.689778	0.31567759	95.711078	0.33338741	-169.38879	
15.81	0.35112494	-151.56902	0.31603789	94.244929	0.31571059	94.293329	0.32856041	-167.71543	
15.91	0.34960313	-150.14059	0.31633698	92.700052	0.31600938	92.716452	0.31970054	-166.0993	
16.01	0.34530599	-148.72376	0.31659343	91.121529	0.31626556	91.120029	0.30929751	-164.4444	
16.11	0.33951946	-147.07366	0.31676707	89.52155	0.31629333	89.54935	0.29913884	-163.27478	
16.21	0.3341237	-144.98479	0.31672119	88.040381	0.31642961	88.096581	0.29125254	-161.26236	
16.31	0.33109941	-142.76235	0.31762257	86.507594	0.31714755	86.539994	0.27777249	-159.10775	
16.41	0.3273367	-140.66711	0.31877915	84.783703	0.31822911	84.832303	0.26452643	-157.2099	
16.51	0.3224283	-138.89947	0.32000894	83.02476	0.31967753	83.04916	0.25020954	-155.45531	
16.61	0.3167932	-137.33953	0.32107213	81.228512	0.32066578	81.271412	0.23871542	-153.35441	
16.71	0.31015929	-135.62063	0.32154616	79.359849	0.3211392	79.397749	0.22491759	-150.40924	
16.81	0.30081572	-133.88535	0.32246904	77.445	0.32213508	77.4913	0.20993589	-147.69974	
16.91	0.29268593	-132.06922	0.32368025	75.493951	0.32312175	75.498551	0.19548198	-145.07519	
17.01	0.28226101	-130.34662	0.32461135	73.415457	0.32420051	73.432957	0.18280796	-142.03244	
17.11	0.27183696	-128.87103	0.32502623	71.32193	0.32461487	71.32393	0.16875527	-138.11892	
17.21	0.2588447	-127.6046	0.32562667	69.082562	0.32502741	69.107063	0.15416286	-134.10133	
17.31	0.24461365	-126.19153	0.32551946	66.780042	0.32521978	66.789943	0.13983506	-130.17857	
17.41	0.22662209	-124.73462	0.32543702	64.432953	0.3248755	64.479251	0.12800998	-125.61724	
17.51	0.20742963	-122.55354	0.324172	62.166556	0.32372445	62.180755	0.11346574	-119.93462	
17.61	0.18928847	-119.01464	0.32347626	59.988657	0.32302967	60.047057	0.10033101	-114.56574	
17.71	0.17580524	-115.26341	0.3239028	57.79911	0.32353011	57.77731	0.088140379	-107.90068	
17.81	0.15898105	-113.53455	0.32446877	55.258349	0.32405812	55.264249	0.078931453	-101.03171	
17.91	0.14181647	-109.80318	0.32242778	52.722018	0.32209387	52.752318	0.067552281	-88.961278	
18.01	0.13012447	-103.91049	0.32179992	50.470265	0.32142964	50.521464	0.054888074	-78.616491	
18.11	0.1231205	-102.33629	0.32304515	48.195668	0.3226363	48.20337	0.049077351	-63.704935	
18.21	0.11141964	-104.75134	0.32498215	45.467813	0.32457085	45.481612	0.041298222	-43.547119	
18.31	0.093524308	-108.74439	0.32561437	42.481407	0.32505255	42.525505	0.041839958	-20.863389	
18.41	0.070541346	-115.77849	0.3252457	39.333636	0.32483407	39.370736	0.044434881	9.6595023	
18.51	0.048064881	-126.33094	0.32413472	36.525191	0.32379903	36.567191	0.048694396	26.070789	
18.61	0.032979227	-153.25339	0.32367898	33.688835	0.32330655	33.707835	0.062819333	38.883803	
18.71	0.034498829	165.17057	0.32362098	30.655655	0.32324861	30.661955	0.076400677	48.358146	
18.81	0.055231022	130.2726	0.32248564	27.141446	0.32196628	27.132246	0.098892007	57.054415	
18.91	0.086539059	116.93258	0.32032227	23.691433	0.31995369	23.669435	0.116118	65.125218	
19.01	0.11616549	108.68904	0.3158961	20.434987	0.31553262	20.445188	0.13649865	68.266541	
19.11	0.14313881	102.22879	0.31104887	17.460897	0.31069097	17.479997	0.15669115	72.269866	
19.21	0.16855039	101.0953	0.30848928	14.646517	0.30795699	14.699517	0.17670868	74.614472	
19.31	0.1944781	101.88215	0.3069086	11.601727	0.30648488	11.609627	0.19892211	77.849868	
