!
! Hittite Microwave Corporation
! 2 Elizabeth Drive
! Chelmsford, MA 01824
! http://www.hittite.com
! Tel: 978-250-3343
! Fax: 978-250-3373
! 
! Device:      HMC424LP3
! Description: 0.5 dB GaAs MMIC 6-Bit Digital Attenuator
! Frequency:    DC -  13.00 GHz
! Package:     LP3  - 3x3 mm Quad Flatpack No-Lead (QFN) Plastic Package: 16 pin
! Ports:       2 RF, 7 DC
!              Pad  1  = Ground
!              Pad  2  = RF IN   = Port 1
!              Pad  3  = Ground
!              Pad  4  = V6
!              Pad  5  = V5
!              Pad  6  = V4
!              Pad  7  = V3
!              Pad  8  = V2
!              Pad  9  = V1
!              Pad 10  = Ground
!              Pad 11  = RF OUT  = Port 2
!              Pad 12  = Ground
!              Pad 15  = VEE
!
! Control:     -5 Volt control voltage
! State:        1 
! Attenuation:  0.5 dB
! Voltages:    Vdd = -5.00 Volts  Idd =  -2.314 mA
!              V1  = -5.00 Volts  I1  =  -1.0 uA
!              V2  = 0.00 Volts  I2  =  29.0 uA
!              V3  = 0.00 Volts  I3  =  29.0 uA
!              V4  = 0.00 Volts  I4  =  30.0 uA
!              V5  = 0.00 Volts  I5  =  29.0 uA
!              V6  = 0.00 Volts  I6  =  30.0 uA
!
! Data:    The device was measured on evaluation board 105354-1. 
!          Data was collected using a calibrated network analyzer.
!          The evaluation circuit board was modeled and simulated.  This was use
!          to removed the evaluation board circuit from the measured data.
!          The reference plane is the edge of the package pin.
!
! Misc:    Lot xxxx, Unit 1
!          Application 20120001, Data collected in Application 20090083
!
! Date Measured:  2009-09-15
! Date:           2012-05-14  MJV
! Note: 
!   Hittite supplies this data as a sample of measured data at the package pin
!   for this product.  Your particular data for this product may vary.
!   Data was taken at 25 degrees C.
!   Hittite reserves the right to change this data at anytime.
!
# GHz S MA R 50

0.01	0.18994908	1.1605945	0.71714119	-1.2746273	0.71491543	-1.2166273	0.2050667	1.7054561	
0.11	0.18235611	-3.382479	0.71166397	-2.4966845	0.71117253	-2.4941845	0.20153543	-2.1650307	
0.21	0.18218373	-6.137498	0.71070544	-4.3036372	0.70996942	-4.2739372	0.20062414	-5.832994	
0.31	0.18451942	-8.6646679	0.70970085	-6.1154229	0.70896587	-6.1130229	0.20570395	-8.2781405	
0.41	0.18496659	-11.702403	0.70887542	-7.8779151	0.70863062	-7.8971151	0.20652875	-10.204663	
0.51	0.18605104	-14.611419	0.70719358	-9.7529273	0.70662388	-9.7812273	0.20471042	-12.728175	
0.61	0.18654355	-17.116954	0.70620675	-11.516611	0.70571908	-11.527611	0.20528132	-16.077784	
0.71	0.1898174	-19.654418	0.7055028	-13.333737	0.7046099	-13.323937	0.21121399	-18.393468	
0.81	0.19099058	-22.518953	0.70440467	-15.129971	0.70383721	-15.088771	0.21073584	-19.849937	
0.91	0.19191511	-24.784344	0.70272223	-16.924256	0.70215613	-16.909056	0.21046168	-22.878333	
1.01	0.19374212	-26.543019	0.70183269	-18.638397	0.70110586	-18.660297	0.21315326	-25.420474	
1.11	0.19635581	-28.904435	0.70084207	-20.420165	0.70035811	-20.398765	0.2190378	-26.822892	
1.21	0.19707844	-31.218023	0.69951572	-22.176663	0.6986304	-22.183163	0.21608146	-27.877668	
1.31	0.19768611	-33.028749	0.69816021	-23.923239	0.69743718	-23.893439	0.21778032	-30.868069	
1.41	0.20005583	-34.459158	0.69744216	-25.615854	0.69680009	-25.602354	0.2217554	-32.385715	
1.51	0.20184861	-36.633267	0.69674715	-27.395057	0.69586533	-27.398557	0.22477662	-33.309376	
1.61	0.20211097	-38.542795	0.69485314	-29.111375	0.69445327	-29.127075	0.22099333	-34.385547	
1.71	0.20110199	-39.91722	0.69383418	-30.822563	0.69295605	-30.761363	0.22219713	-37.06521	
1.81	0.20310026	-41.446161	0.69311387	-32.493976	0.69223665	-32.508876	0.22551334	-38.259196	
1.91	0.20306385	-43.400026	0.69237303	-34.271211	0.69125796	-34.238611	0.22538251	-39.226597	
2.01	0.20100547	-45.111507	0.69067112	-35.953622	0.69019419	-35.948622	0.22161866	-40.702981	
2.11	0.20020037	-46.354041	0.68965789	-37.62557	0.68902298	-37.62527	0.22312331	-43.503976	
2.21	0.20148644	-48.093305	0.68909293	-39.345023	0.68837929	-39.377423	0.2265219	-44.547616	
2.31	0.20092166	-50.090803	0.6886837	-41.07516	0.68733713	-41.03816	0.22531695	-45.619306	
2.41	0.19882472	-51.748111	0.68705439	-42.722835	0.68634286	-42.714535	0.22261249	-47.624943	
2.51	0.19880513	-53.194146	0.68687769	-44.444138	0.68537681	-44.382238	0.22555906	-50.301949	
2.61	0.19939217	-55.382696	0.68603125	-46.102949	0.68524188	-46.120049	0.22860049	-51.048915	
2.71	0.19815598	-57.693015	0.68471908	-47.882227	0.68408872	-47.862927	0.2256275	-52.709012	
2.81	0.19596243	-59.493348	0.68347559	-49.501204	0.68331824	-49.541404	0.22463928	-55.124355	
2.91	0.19750987	-61.472263	0.68334063	-51.232661	0.68271153	-51.252561	0.22793184	-57.534312	
3.01	0.19745123	-64.171461	0.68240077	-53.010624	0.68153711	-52.978524	0.23052812	-58.337612	
3.11	0.19543952	-66.548739	0.68067544	-54.674411	0.68020541	-54.682311	0.22572774	-60.349083	
3.21	0.19447564	-68.615254	0.67982916	-56.394813	0.67928151	-56.378613	0.22576313	-63.097823	
3.31	0.19498236	-70.988462	0.67912473	-58.116236	0.67826522	-58.041936	0.22901641	-65.083032	
3.41	0.19497334	-73.951959	0.67755549	-59.851639	0.67669796	-59.839539	0.22907676	-66.197937	
3.51	0.19342223	-76.17531	0.67594009	-61.478784	0.6750846	-61.475484	0.22507383	-68.546321	
3.61	0.19378107	-78.394556	0.67502822	-63.176674	0.67432914	-63.181774	0.22707505	-71.639402	
3.71	0.19551436	-80.871092	0.67411325	-64.879242	0.67326007	-64.878842	0.23019763	-73.359782	
3.81	0.19553517	-83.466033	0.6724412	-66.589203	0.67159014	-66.582703	0.22885264	-74.576806	
3.91	0.19450472	-85.472526	0.67050617	-68.204716	0.66988889	-68.196616	0.22530027	-77.392614	
4.01	0.20435899	-85.511611	0.67090671	-69.819283	0.67028907	-69.825583	0.23889291	-78.450327	
4.11	0.20574169	-87.627704	0.66954296	-71.544949	0.66892657	-71.522149	0.24123323	-79.457138	
4.21	0.206569	-89.541282	0.66806435	-73.198656	0.66767989	-73.153556	0.24024112	-80.645524	
4.31	0.20713604	-90.578165	0.66661938	-74.776233	0.66569905	-74.837433	0.23878728	-83.027312	
4.41	0.20944064	-91.831172	0.66580221	-76.489484	0.66488301	-76.494184	0.24488227	-84.498624	
4.51	0.2100764	-93.428462	0.66397511	-78.166537	0.66321112	-78.169837	0.24538285	-84.641506	
4.61	0.20981857	-94.577168	0.66239709	-79.792848	0.66186348	-79.751948	0.24340243	-85.499266	
4.71	0.21072124	-95.159212	0.66168131	-81.373422	0.66084387	-81.384322	0.24235505	-87.209987	
4.81	0.21203101	-95.994844	0.66040154	-83.024133	0.65971761	-83.010433	0.24771288	-87.955096	
4.91	0.211701	-96.953551	0.6580473	-84.690152	0.65729013	-84.662152	0.24558447	-87.610287	
5.01	0.21100646	-97.165567	0.65733381	-86.238262	0.65650187	-86.229262	0.24265311	-88.37873	
5.11	0.21159474	-97.099447	0.6562006	-87.794796	0.65574747	-87.807796	0.24223724	-89.585929	
5.21	0.21206579	-97.567622	0.6554922	-89.420733	0.65481336	-89.424933	0.24643173	-89.913571	
5.31	0.21113468	-97.830923	0.65352458	-91.01902	0.65337412	-91.05952	0.24358079	-89.038607	
5.41	0.21032953	-97.279858	0.65341297	-92.58342	0.65251087	-92.58742	0.24085316	-89.96454	
5.51	0.21124924	-96.997105	0.6529052	-94.141211	0.65207887	-94.153211	0.24236513	-90.481629	
5.61	0.21123146	-96.82376	0.65202081	-95.73621	0.65164559	-95.74101	0.24608148	-90.298218	
5.71	0.20919524	-96.601567	0.65142108	-97.359688	0.65059663	-97.330388	0.2435775	-89.260747	
5.81	0.20942324	-95.643391	0.65146433	-98.899002	0.65071473	-98.905302	0.24131113	-90.145486	
5.91	0.20886636	-95.584727	0.65115962	-100.50017	0.65063506	-100.49267	0.24508977	-90.308856	
6.01	0.2079936	-95.179408	0.65107361	-102.08443	0.65039934	-102.09483	0.2479361	-89.612376	
6.11	0.2059982	-94.642733	0.65036763	-103.71501	0.6498437	-103.69081	0.24488888	-88.568717	
6.21	0.2050614	-93.7391	0.65125365	-105.30306	0.65005511	-105.26776	0.24264294	-89.418366	
6.31	0.20400515	-93.861026	0.65160838	-106.92527	0.65078369	-106.91017	0.24683293	-89.399855	
6.41	0.20066789	-93.240384	0.65107802	-108.53536	0.65032887	-108.53846	0.2465033	-88.616272	
6.51	0.19748889	-92.683591	0.65132187	-110.19848	0.65057244	-110.16088	0.24308757	-88.052813	
6.61	0.19543444	-92.421846	0.65275589	-111.84081	0.65192975	-111.83061	0.23966374	-89.337623	
6.71	0.19180897	-92.887583	0.65350463	-113.52851	0.65230194	-113.51301	0.24197734	-89.731822	
6.81	0.18745843	-92.88778	0.65356513	-115.21411	0.65266282	-115.19471	0.23867388	-89.607563	
6.91	0.18329822	-93.108604	0.65461092	-116.9134	0.65355666	-116.9031	0.23369329	-90.311243	
7.01	0.1794965	-94.060431	0.65622863	-118.66765	0.6552472	-118.66895	0.22867983	-92.407508	
7.11	0.17303351	-95.532913	0.65703428	-120.45455	0.65673177	-120.43405	0.2302522	-93.733454	
7.21	0.16664422	-96.769692	0.65768909	-122.20837	0.65708361	-122.20047	0.22361417	-94.575178	
7.31	0.16037778	-98.658805	0.65954142	-124.04477	0.65870669	-124.04837	0.21761749	-97.209258	
7.41	0.15357888	-101.32538	0.66133761	-125.91405	0.66057666	-125.91655	0.21383914	-100.47507	
7.51	0.14516155	-104.53384	0.6626212	-127.82073	0.66163021	-127.79693	0.21285116	-102.9018	
7.61	0.1374889	-108.10993	0.66296115	-129.73334	0.66189344	-129.68464	0.20460389	-104.98634	
7.71	0.1307261	-112.49505	0.66426686	-131.66663	0.66334978	-131.62463	0.19815635	-109.35465	
7.81	0.12389026	-118.52492	0.66526671	-133.68462	0.66457774	-133.65442	0.19437695	-113.73946	
7.91	0.11658492	-124.73454	0.66569034	-135.66589	0.66469476	-135.66009	0.19202078	-117.47736	
8.01	0.11093721	-131.82535	0.66511103	-137.68873	0.66426925	-137.66943	0.18312859	-121.56707	
8.11	0.10878446	-140.12034	0.66569621	-139.746	0.66493024	-139.7203	0.17933736	-127.91486	
8.21	0.10728671	-149.27757	0.66522876	-141.82778	0.66423387	-141.80318	0.17807089	-133.37884	
8.31	0.10799149	-158.13787	0.66462114	-143.85822	0.6638564	-143.83882	0.17691849	-138.22941	
8.41	0.11127432	-166.6	0.66310948	-145.92773	0.66265158	-145.90823	0.17148126	-144.36282	
8.51	0.11811753	-174.62128	0.66293284	-148.05755	0.66163661	-148.03055	0.1747242	-151.67882	
8.61	0.12488822	177.81855	0.66096005	-150.18144	0.66004753	-150.16684	0.17948652	-157.10146	
8.71	0.13333905	171.49816	0.65891032	-152.2275	0.65800063	-152.1992	0.18188991	-161.98439	
8.81	0.14329075	166.40033	0.65661184	-154.29466	0.65547889	-154.28166	0.18375932	-168.13763	
8.91	0.15407447	162.08722	0.65480071	-156.38876	0.65404728	-156.39666	0.19440633	-173.37198	
9.01	0.16269355	158.33132	0.65201466	-158.4161	0.65088964	-158.4155	0.20084955	-176.59717	
9.11	0.17158048	154.95104	0.64884577	-160.39899	0.64817381	-160.38229	0.20728652	-179.84694	
9.21	0.18119972	153.04709	0.64617064	-162.3549	0.64527854	-162.3311	0.21126174	176.60001	
9.31	0.18975906	150.51843	0.64331877	-164.39178	0.64243061	-164.35458	0.22293605	173.60284	
9.41	0.19731611	149.02249	0.63993441	-166.27393	0.63927168	-166.25943	0.22723729	172.80431	
9.51	0.2034926	147.95432	0.63647318	-168.0912	0.63544813	-168.0696	0.22986674	170.52827	
9.61	0.20980295	147.18425	0.6336158	-169.95375	0.63281388	-169.95315	0.23657206	168.70543	
9.71	0.21464479	146.96533	0.63133038	-171.80576	0.63031361	-171.77916	0.24231095	167.84258	
9.81	0.21791472	146.64832	0.62836964	-173.62423	0.62757437	-173.59133	0.24479129	167.57897	
9.91	0.22024872	146.75747	0.62508733	-175.31867	0.62429621	-175.30127	0.24563695	166.56732	
10.01	0.22275257	146.81739	0.62269949	-177.12949	0.62191139	-177.10219	0.25123987	165.92293	
10.11	0.22429076	147.33741	0.62016658	-178.88656	0.61931038	-178.86786	0.25522342	166.08277	
10.21	0.22453858	147.92606	0.61766779	179.43633	0.61674403	179.43283	0.2555476	166.89701	
10.31	0.22476692	149.10521	0.61492267	177.74545	0.61421512	177.77745	0.25522516	166.58806	
10.41	0.22451194	149.74125	0.61279107	176.04201	0.61187461	176.08081	0.26089165	167.10707	
10.51	0.22394841	150.97043	0.61035045	174.3602	0.60971835	174.4172	0.26423074	168.05569	
10.61	0.22314557	152.53483	0.60867614	172.76113	0.60811579	172.79273	0.26435166	169.22387	
10.71	0.22233721	154.08555	0.60689771	171.10281	0.6059203	171.13771	0.26532353	169.32093	
10.81	0.22189725	155.50412	0.60503826	169.41505	0.60469007	169.46775	0.27044752	170.24233	
10.91	0.2203846	157.26077	0.60341877	167.77962	0.60293266	167.80112	0.27195828	171.67888	
11.01	0.22050699	158.98305	0.60201111	166.17729	0.60111077	166.19259	0.27158717	172.77672	
11.11	0.2200589	160.83634	0.60036146	164.5711	0.59939457	164.5566	0.27189533	173.20278	
11.21	0.21953428	162.31138	0.59910705	162.90184	0.59821105	162.93884	0.27650654	174.07409	
11.31	0.21920741	163.86756	0.5974531	161.2679	0.59676565	161.2938	0.27690455	175.31418	
11.41	0.22025915	165.41853	0.59640123	159.69112	0.59550928	159.70992	0.27612343	176.27753	
11.51	0.22064792	166.7299	0.59505458	158.0619	0.59423305	158.0902	0.27619614	176.24091	
11.61	0.2205848	167.84672	0.59362793	156.3758	0.59260366	156.4158	0.28115051	176.67541	
11.71	0.22097363	169.13422	0.59214563	154.73371	0.59173673	154.75141	0.28074375	177.49813	
11.81	0.22219987	170.16619	0.59098975	153.12831	0.59037771	153.13841	0.28101061	177.53069	
11.91	0.22268238	171.11626	0.58973507	151.44868	0.58871751	151.48028	0.28213794	177.47133	
12.01	0.22348386	171.95217	0.58829974	149.74099	0.58762282	149.77079	0.28656112	177.5268	
12.11	0.22458171	172.81635	0.58708538	148.06574	0.58674752	148.10564	0.28632013	178.04872	
12.21	0.2265468	173.45869	0.58552406	146.44591	0.58498502	146.43851	0.2873047	177.59531	
12.31	0.22797358	174.03557	0.5838662	144.70914	0.5835302	144.72694	0.29087588	177.42836	
12.41	0.23025475	174.53495	0.58135692	142.97569	0.58095547	142.99389	0.29630564	177.41254	
12.51	0.23209813	174.64645	0.58012087	141.35187	0.57898657	141.38557	0.29739067	177.68685	
12.61	0.23356201	174.98716	0.57820243	139.79128	0.57747065	139.80438	0.29880819	176.65519	
12.71	0.23536175	175.73257	0.57734621	138.12104	0.57648275	138.15424	0.30359505	176.44035	
12.81	0.23801884	176.31979	0.57597695	136.4566	0.57518175	136.4664	0.3074987	176.39415	
12.91	0.24165827	176.80202	0.57545083	134.73341	0.5745902	134.77341	0.30915792	176.69303	
13.01	0.24464702	177.19128	0.57406289	133.06803	0.57320434	133.09343	0.31191405	175.99434	
13.11	0.24917504	177.70164	0.57213385	131.3341	0.57147553	131.3777	0.31786138	175.90486	
13.21	0.25377788	178.22578	0.57037756	129.63651	0.56978687	129.66281	0.32236152	175.92138	
13.31	0.25837352	178.51294	0.56879105	127.96309	0.56794039	127.97199	0.3262299	175.94349	
13.41	0.26377257	178.83062	0.566901	126.29175	0.56605317	126.32035	0.33034856	175.44716	
13.51	0.2693694	179.36358	0.56504187	124.62134	0.56426178	124.66304	0.3382328	175.42303	
13.61	0.27589693	179.66273	0.5629303	122.94069	0.56241206	122.97509	0.34369631	175.58369	
13.71	0.2829395	-179.93478	0.56109807	121.31115	0.56032342	121.32215	0.34788658	175.69123	
13.81	0.28942125	-179.36038	0.55932913	119.67667	0.55849262	119.71697	0.35401477	175.25617	
13.91	0.2961877	-179.0831	0.55690954	118.05007	0.55601264	118.05647	0.36287531	175.55199	
14.01	0.30423315	-178.77575	0.55494909	116.4293	0.55437437	116.439	0.36734844	175.84747	
14.11	0.31063031	-178.30378	0.55304334	114.82711	0.55227981	114.81801	0.37337066	175.93197	
14.21	0.31677261	-177.93707	0.55129897	113.217	0.5504111	113.2722	0.3786332	175.861	
14.31	0.32397379	-177.56933	0.54901665	111.67335	0.54825868	111.72845	0.38654937	176.27967	
14.41	0.33041035	-177.13144	0.5474566	110.13396	0.54670078	110.16016	0.38885235	176.53206	
14.51	0.33601616	-176.68462	0.54589401	108.59307	0.54507759	108.60747	0.39342065	176.56322	
14.61	0.3411642	-176.1822	0.54473354	107.06541	0.54373103	107.08191	0.39621985	176.68375	
14.71	0.3452992	-175.67102	0.54277611	105.55256	0.54227643	105.58896	0.40120047	177.06517	
14.81	0.34924502	-175.30506	0.54202134	104.03333	0.54114841	104.07193	0.40015489	177.57282	
14.91	0.35185621	-174.59473	0.54101229	102.54933	0.54020317	102.56503	0.40085935	177.45692	
15.01	0.35281977	-174.08272	0.54023429	101.03158	0.53973694	101.05128	0.39996883	177.70116	
15.11	0.35293663	-173.60066	0.53979176	99.579202	0.53935691	99.606402	0.39973543	177.899	
15.21	0.35214105	-173.01831	0.53972856	98.093609	0.53910754	98.105709	0.39378039	178.49623	
15.31	0.3500176	-172.35769	0.5400805	96.576995	0.53958329	96.587195	0.38948692	178.33185	
15.41	0.34675513	-171.73803	0.54050606	95.056711	0.54000846	95.092711	0.38379101	178.83238	
15.51	0.34219275	-171.03438	0.54109195	93.549447	0.54046935	93.560847	0.37654478	179.10859	
15.61	0.33392701	-170.2718	0.5417975	91.935718	0.54111179	91.957018	0.36402052	179.65745	
15.71	0.32473642	-169.43934	0.54319013	90.399422	0.54287753	90.409322	0.35277866	179.33978	
15.81	0.31558906	-168.20541	0.54488209	88.854223	0.54419248	88.861723	0.34151124	-179.86017	
15.91	0.30496807	-166.87569	0.54668384	87.098181	0.54624345	87.153981	0.32592813	-179.3006	
16.01	0.292206	-165.51114	0.54825802	85.353054	0.54775329	85.366654	0.30766888	-178.78419	
16.11	0.2778098	-163.80477	0.54981477	83.623716	0.54918214	83.653616	0.2897603	-178.70246	
16.21	0.26276361	-161.47585	0.55165429	81.944732	0.55095611	81.965932	0.2723769	-177.44515	
16.31	0.24893284	-158.41101	0.5545335	80.086779	0.55364042	80.104279	0.2486091	-176.1476	
16.41	0.23518732	-154.94355	0.55714561	78.052052	0.55618429	78.099852	0.22585069	-174.91823	
16.51	0.22142214	-151.48698	0.55946486	75.963553	0.55901416	75.998753	0.20241819	-173.71903	
16.61	0.20898045	-147.73796	0.56087389	73.872279	0.56055112	73.916779	0.18177152	-171.45064	
16.71	0.19679782	-143.28076	0.56161746	71.690726	0.56116504	71.726226	0.15806862	-167.84971	
16.81	0.18425707	-138.297	0.56207427	69.470346	0.56175081	69.505246	0.13441335	-163.68568	
16.91	0.17489434	-132.6429	0.56270588	67.257896	0.56212313	67.269796	0.11352338	-158.27788	
17.01	0.1661383	-126.53965	0.56301763	64.923076	0.5623698	64.936876	0.096182876	-150.27079	
17.11	0.15988434	-120.79431	0.5619264	62.556944	0.56134445	62.560144	0.080117659	-138.20707	
17.21	0.1538184	-114.96059	0.56064164	60.113226	0.5601255	60.118327	0.068419873	-122.71488	
17.31	0.14894336	-109.31349	0.558196	57.61679	0.55768212	57.64819	0.062137839	-105.03306	
17.41	0.14196811	-103.40903	0.55492631	55.163448	0.55416017	55.222746	0.064255504	-87.303125	
17.51	0.13561999	-96.997604	0.55003147	52.802659	0.54952509	52.80266	0.069469462	-70.178451	
17.61	0.13177537	-89.003698	0.54610101	50.603175	0.54566108	50.662875	0.078040039	-58.634205	
17.71	0.13287207	-81.922554	0.5445789	48.448451	0.54388967	48.469151	0.087413467	-51.000716	
17.81	0.12903636	-77.251692	0.54321057	45.987089	0.54246061	46.013389	0.094718924	-46.433266	
17.91	0.12569545	-71.409611	0.53792398	43.611505	0.53742877	43.630605	0.10349795	-38.897612	
18.01	0.1275966	-64.75518	0.53597127	41.557351	0.5354162	41.61675	0.10695607	-34.224062	
18.11	0.12769852	-62.760817	0.53791642	39.390657	0.53735934	39.429657	0.11055801	-31.606728	
18.21	0.11950528	-62.946172	0.54100221	36.73471	0.54037973	36.76251	0.10679402	-26.597766	
18.31	0.10484686	-61.796994	0.54147075	33.839717	0.54084772	33.858017	0.10465262	-20.538662	
18.41	0.08407249	-57.969902	0.54076257	30.753714	0.54026474	30.775314	0.09853183	-9.3621674	
18.51	0.065128442	-49.07502	0.53875218	28.007433	0.53813227	28.022033	0.092708764	-1.7943856	
18.61	0.046625963	-36.069284	0.53805964	25.209789	0.53737866	25.251089	0.0934063	8.9030926	
18.71	0.030829667	-9.691284	0.53812174	22.251468	0.53762634	22.274568	0.09450729	20.660394	
18.81	0.03585009	48.151116	0.53631857	18.8052	0.53576314	18.796902	0.10712797	35.549254	
18.91	0.064240833	75.088961	0.53330123	15.357146	0.53268758	15.388446	0.11934083	47.678894	
19.01	0.097272188	80.784065	0.52602246	12.152324	0.52535671	12.172424	0.13969683	53.86749	
19.11	0.12968404	80.790208	0.51800631	9.2657595	0.51735071	9.2748605	0.15821446	59.529659	
19.21	0.1557893	83.148178	0.51391235	6.5751258	0.51338013	6.5804258	0.17704075	63.615096	
19.31	0.18171949	86.269302	0.51212458	3.5388866	0.51165312	3.5817866	0.19900525	68.432784	
19.41	0.2107131	88.44162	0.50870018	0.40252303	0.50811485	0.40992303	0.22086884	71.425861	
