! Device:      ADRF5700					
! Description: 2 dB LSB, 5-Bit, Silicon Digital Attenuator, 100 MHz to 22 GHz			
! Frequency:   10MHz -  30.00 GHz						
! Ports:       										
!        RF1 = Port 1
!        RF2 = Port 2
!						
! VDD  =  +3.30 Volts
! VSS  =  -3.30 Volts
!				
! State:        2.00 dB attenuation 	
! Data:  Data was collected using an calibrated 4 port network analyzer 						
!             The reference plane is the edge of the device.
! Notes: Analog Devices supplies this data as a sample of measured data						
!             for this product.  Your particular data for this product may vary.						
!             Data was taken at 25 degrees C.						
!             Analog Devices reserves the right to change this data at anytime.	
!
# GHz S  dB   R 50
0.0100 -23.4394 -8.8916 -3.1779 -0.0664 -3.1779 0.0491 -22.6083 -5.2864
0.0475 -23.8447 -1.7330 -3.2194 -0.6175 -3.1944 -0.5943 -23.0090 1.3093
0.0850 -23.5745 -1.8611 -3.2097 -1.1458 -3.1895 -1.1691 -22.7552 0.9511
0.1225 -23.6213 -2.5013 -3.2114 -1.6668 -3.1892 -1.6365 -22.7913 0.4354
0.1600 -23.6689 -3.1818 -3.2219 -2.1527 -3.1936 -2.1628 -22.8554 -0.0307
0.1974 -23.5180 -4.1913 -3.2256 -2.6415 -3.1986 -2.6520 -22.8057 -1.0467
0.2349 -23.4122 -4.9259 -3.2264 -3.0907 -3.2015 -3.1399 -22.7478 -1.8253
0.2724 -23.4422 -5.4510 -3.2295 -3.6267 -3.2087 -3.6270 -22.7334 -2.7075
0.3099 -23.4758 -6.1889 -3.2289 -4.1554 -3.2131 -4.0718 -22.7453 -3.2116
0.3474 -23.4119 -7.9255 -3.2359 -4.5916 -3.2109 -4.5476 -22.6849 -4.7640
0.3849 -23.2972 -8.7850 -3.2355 -5.0011 -3.2157 -5.0388 -22.6134 -5.7043
0.4224 -23.2296 -8.7305 -3.2366 -5.5074 -3.2171 -5.4982 -22.5830 -5.6412
0.4599 -23.2058 -8.5394 -3.2417 -5.9912 -3.2172 -5.9711 -22.6027 -5.5038
0.4973 -23.2367 -9.3867 -3.2465 -6.4690 -3.2200 -6.4396 -22.6810 -6.0529
0.5348 -23.1838 -10.8306 -3.2492 -6.9876 -3.2225 -6.9139 -22.7045 -7.6988
0.5723 -23.0743 -11.6774 -3.2515 -7.4003 -3.2270 -7.3931 -22.6856 -8.5373
0.6098 -23.0429 -12.1725 -3.2541 -7.8427 -3.2304 -7.8464 -22.6380 -9.4657
0.6473 -23.0775 -12.7065 -3.2543 -8.3737 -3.2300 -8.3122 -22.6417 -9.7725
0.6848 -23.0488 -13.6157 -3.2575 -8.8178 -3.2321 -8.7842 -22.6442 -10.4435
0.7223 -22.9559 -14.4985 -3.2596 -9.3053 -3.2367 -9.2562 -22.6311 -11.2898
0.7598 -22.8988 -15.0347 -3.2599 -9.7874 -3.2386 -9.7166 -22.6616 -11.9778
0.7972 -22.8838 -15.5968 -3.2649 -10.2060 -3.2397 -10.1895 -22.6862 -12.6925
0.8347 -22.8636 -16.1667 -3.2679 -10.6656 -3.2437 -10.6594 -22.7532 -13.1920
0.8722 -22.8112 -17.2107 -3.2671 -11.1622 -3.2456 -11.1185 -22.7048 -14.5677
0.9097 -22.7971 -18.0924 -3.2722 -11.6193 -3.2477 -11.5970 -22.7175 -15.6818
0.9472 -22.7916 -18.8672 -3.2727 -12.0217 -3.2517 -12.0568 -22.6660 -16.4332
0.9847 -22.7506 -19.7452 -3.2796 -12.5148 -3.2536 -12.5198 -22.6705 -17.1963
1.0222 -22.6954 -20.1810 -3.2805 -13.0219 -3.2545 -12.9738 -22.6834 -17.5359
1.0596 -22.6291 -20.7380 -3.2797 -13.5048 -3.2568 -13.4521 -22.6754 -18.3681
1.0971 -22.6168 -21.2226 -3.2855 -13.9305 -3.2604 -13.9136 -22.7256 -18.9205
1.1346 -22.6156 -22.2044 -3.2899 -14.3848 -3.2630 -14.3669 -22.7110 -20.0774
1.1721 -22.5646 -23.2704 -3.2916 -14.8607 -3.2655 -14.8451 -22.7271 -21.0394
1.2096 -22.5051 -23.7792 -3.2935 -15.3232 -3.2696 -15.2919 -22.7132 -21.7610
1.2471 -22.4542 -24.1014 -3.2946 -15.8120 -3.2709 -15.7484 -22.6838 -22.2436
1.2846 -22.4905 -24.8201 -3.3005 -16.3106 -3.2731 -16.2192 -22.6910 -23.0403
1.3221 -22.4489 -25.6963 -3.3039 -16.7337 -3.2760 -16.6816 -22.7208 -23.8638
1.3596 -22.3495 -26.4252 -3.3062 -17.1472 -3.2784 -17.1331 -22.7428 -24.4724
1.3970 -22.2639 -26.6274 -3.3050 -17.6888 -3.2796 -17.6016 -22.8028 -25.2130
1.4345 -22.2534 -26.9663 -3.3086 -18.1180 -3.2827 -18.0707 -22.8384 -25.7690
1.4720 -22.2866 -27.7497 -3.3126 -18.5604 -3.2843 -18.5210 -22.8343 -26.9798
1.5095 -22.2413 -29.0427 -3.3170 -19.0358 -3.2868 -18.9941 -22.8414 -28.1582
1.5470 -22.1628 -29.6772 -3.3174 -19.4798 -3.2910 -19.4568 -22.8120 -29.1717
1.5845 -22.1415 -29.9664 -3.3192 -19.9259 -3.2932 -19.9103 -22.8084 -29.6932
1.6220 -22.1317 -30.2655 -3.3216 -20.3932 -3.2955 -20.3623 -22.8430 -30.2625
1.6595 -22.1195 -31.2923 -3.3237 -20.8614 -3.2980 -20.8324 -22.8067 -31.1895
1.6969 -22.0669 -32.0367 -3.3258 -21.3312 -3.3013 -21.2888 -22.8637 -32.3688
1.7344 -21.9840 -32.4797 -3.3272 -21.8092 -3.3032 -21.7427 -22.8770 -33.0257
1.7719 -21.9848 -32.7015 -3.3310 -22.2406 -3.3051 -22.1899 -22.8945 -33.7704
1.8094 -22.0052 -33.4780 -3.3359 -22.6551 -3.3084 -22.6367 -22.8586 -34.6366
1.8469 -21.9942 -34.3503 -3.3344 -23.1389 -3.3088 -23.0934 -22.8242 -35.8731
1.8844 -21.9693 -35.0250 -3.3375 -23.5843 -3.3112 -23.5533 -22.8129 -36.5179
1.9219 -21.9459 -35.4875 -3.3389 -24.0832 -3.3128 -24.0109 -22.8408 -37.2678
1.9594 -21.9250 -35.9328 -3.3396 -24.5661 -3.3135 -24.4622 -22.8142 -37.8176
1.9968 -21.9066 -36.4480 -3.3431 -24.9724 -3.3166 -24.9381 -22.8150 -38.6682
2.0343 -21.9006 -37.0313 -3.3453 -25.4368 -3.3200 -25.3941 -22.8418 -39.4266
2.0718 -21.8920 -37.6122 -3.3523 -25.8974 -3.3215 -25.8467 -22.8633 -40.2667
2.1093 -21.8814 -38.1019 -3.3546 -26.3201 -3.3242 -26.2941 -22.8737 -40.9966
2.1468 -21.8671 -38.9063 -3.3575 -26.8120 -3.3259 -26.7546 -22.8315 -41.9178
2.1843 -21.8501 -39.4163 -3.3579 -27.2263 -3.3286 -27.1935 -22.8104 -42.9656
2.2218 -21.8668 -40.1379 -3.3610 -27.6805 -3.3299 -27.6439 -22.8053 -43.4927
2.2593 -21.8525 -40.6172 -3.3593 -28.2114 -3.3302 -28.0853 -22.8557 -44.3791
2.2967 -21.8311 -41.2472 -3.3649 -28.6606 -3.3315 -28.5412 -22.8708 -45.0261
2.3342 -21.7977 -41.7004 -3.3681 -29.0947 -3.3338 -28.9966 -22.8417 -46.0048
2.3717 -21.8303 -42.1158 -3.3703 -29.4943 -3.3356 -29.4464 -22.8665 -46.5984
2.4092 -21.8578 -42.5397 -3.3691 -29.9574 -3.3358 -29.9010 -22.9188 -47.2708
2.4467 -21.8575 -43.4631 -3.3706 -30.5078 -3.3380 -30.3415 -22.9569 -48.1243
2.4842 -21.8072 -44.0807 -3.3734 -30.9277 -3.3385 -30.7941 -22.9181 -49.3444
2.5217 -21.7865 -44.5340 -3.3780 -31.3472 -3.3410 -31.2513 -22.9059 -50.2819
2.5592 -21.8542 -44.9374 -3.3833 -31.8026 -3.3449 -31.6881 -22.9110 -50.9020
2.5966 -21.8904 -45.8231 -3.3814 -32.2669 -3.3454 -32.1238 -22.9133 -51.5117
2.6341 -21.8291 -46.6612 -3.3826 -32.7116 -3.3448 -32.5898 -22.9207 -52.5781
2.6716 -21.7663 -46.9756 -3.3833 -33.1324 -3.3489 -33.0305 -22.9107 -53.3776
2.7091 -21.7975 -47.1407 -3.3799 -33.5959 -3.3483 -33.4708 -22.9137 -54.2060
2.7466 -21.8777 -47.7969 -3.3760 -34.0731 -3.3480 -33.9239 -22.9221 -54.7246
2.7841 -21.8827 -48.8033 -3.3820 -34.5304 -3.3480 -34.3750 -22.9801 -55.8246
2.8216 -21.8280 -49.5606 -3.3878 -34.9751 -3.3488 -34.8296 -22.9545 -56.8225
2.8591 -21.7918 -49.8731 -3.3853 -35.4184 -3.3492 -35.2907 -22.9040 -58.0394
2.8965 -21.8968 -50.2751 -3.3901 -35.8511 -3.3513 -35.7524 -22.9209 -58.4403
2.9340 -21.9842 -51.1682 -3.3925 -36.2939 -3.3535 -36.1924 -22.9046 -59.3956
2.9715 -21.9233 -52.2764 -3.3939 -36.7586 -3.3523 -36.6570 -22.9550 -60.2977
3.0090 -21.8745 -52.6986 -3.3957 -37.2101 -3.3562 -37.1215 -22.9031 -61.1185
3.0465 -21.8843 -52.6791 -3.3963 -37.6916 -3.3575 -37.5555 -22.9151 -62.0840
3.0840 -22.0076 -53.3070 -3.3944 -38.1173 -3.3572 -38.0137 -22.9333 -62.5403
3.1215 -22.0276 -54.4934 -3.3957 -38.5401 -3.3602 -38.4734 -22.9120 -63.5995
3.1590 -21.9732 -55.3704 -3.3975 -39.0088 -3.3600 -38.9195 -22.9051 -64.5053
3.1964 -21.9130 -55.5011 -3.3965 -39.4491 -3.3586 -39.3710 -22.8954 -65.3810
3.2339 -22.0220 -55.9186 -3.3966 -39.9120 -3.3602 -39.8435 -22.8678 -66.1404
3.2714 -22.1143 -57.0833 -3.3968 -40.3593 -3.3644 -40.2847 -22.8030 -67.0148
3.3089 -22.0604 -58.5534 -3.3986 -40.8197 -3.3619 -40.7415 -22.8391 -68.0514
3.3464 -21.9541 -58.7345 -3.4008 -41.2625 -3.3636 -41.2072 -22.7808 -68.7884
3.3839 -21.9836 -58.8043 -3.4004 -41.7361 -3.3646 -41.6643 -22.8102 -69.1284
3.4214 -22.0778 -59.2491 -3.4012 -42.1916 -3.3663 -42.1026 -22.8333 -70.1940
3.4589 -22.1222 -60.7461 -3.4007 -42.6177 -3.3651 -42.5592 -22.8073 -71.3393
3.4963 -22.0328 -61.7991 -3.4036 -43.0651 -3.3683 -43.0121 -22.7344 -72.5720
3.5338 -21.9925 -62.1585 -3.4013 -43.5667 -3.3692 -43.4650 -22.6865 -73.2628
3.5713 -22.0650 -62.4605 -3.3992 -44.0302 -3.3670 -43.9270 -22.6675 -73.9383
3.6088 -22.1404 -63.9393 -3.4012 -44.4310 -3.3693 -44.3779 -22.6099 -74.9919
3.6463 -22.0964 -65.4341 -3.4024 -44.8991 -3.3705 -44.8377 -22.5370 -76.2883
3.6838 -21.9838 -66.1520 -3.4013 -45.3795 -3.3713 -45.2896 -22.5296 -77.2465
3.7213 -21.9982 -66.1423 -3.4034 -45.8380 -3.3717 -45.7420 -22.5214 -77.7925
3.7588 -22.0692 -66.9400 -3.4061 -46.2653 -3.3723 -46.1914 -22.4792 -78.6730
3.7962 -22.1077 -68.5802 -3.4054 -46.7066 -3.3728 -46.6505 -22.4189 -80.0418
3.8337 -22.0039 -70.0784 -3.4027 -47.1806 -3.3713 -47.1095 -22.3913 -81.6835
3.8712 -21.9657 -70.2025 -3.4064 -47.6667 -3.3738 -47.5729 -22.2951 -81.9042
3.9087 -22.0284 -70.5979 -3.4061 -48.1096 -3.3743 -48.0209 -22.2810 -82.7668
3.9462 -22.1176 -71.9874 -3.4089 -48.5644 -3.3738 -48.4879 -22.2202 -83.6692
3.9837 -22.0826 -73.5856 -3.4071 -49.0227 -3.3773 -48.9513 -22.1457 -85.2178
4.0212 -22.0037 -74.4069 -3.4083 -49.4883 -3.3790 -49.3949 -22.1234 -85.6670
4.0587 -22.0049 -74.6518 -3.4104 -49.9638 -3.3784 -49.8688 -22.0715 -86.3123
4.0961 -22.0543 -75.3486 -3.4070 -50.3955 -3.3788 -50.3061 -22.0516 -87.3289
4.1336 -22.0603 -76.8304 -3.4109 -50.8627 -3.3781 -50.7522 -21.9753 -88.4170
4.1711 -22.0201 -78.0960 -3.4152 -51.3305 -3.3809 -51.2374 -21.9038 -89.6651
4.2086 -21.9487 -78.7558 -3.4114 -51.7735 -3.3828 -51.6895 -21.8253 -90.4903
4.2461 -21.9787 -79.3110 -3.4147 -52.2430 -3.3815 -52.1433 -21.7464 -90.8126
4.2836 -22.0050 -80.2945 -3.4140 -52.7150 -3.3825 -52.6160 -21.7143 -91.8181
4.3211 -21.9791 -81.9043 -3.4117 -53.1474 -3.3820 -53.0598 -21.6294 -93.0184
4.3586 -21.8917 -82.7819 -3.4173 -53.5781 -3.3849 -53.5171 -21.5089 -93.9055
4.3960 -21.8620 -83.4041 -3.4169 -54.0632 -3.3861 -53.9810 -21.4886 -94.3826
4.4335 -21.8596 -84.0575 -3.4199 -54.5398 -3.3862 -54.4667 -21.4048 -95.1009
4.4710 -21.8373 -85.3273 -3.4206 -54.9700 -3.3884 -54.9101 -21.3350 -96.2039
4.5085 -21.7902 -86.3543 -3.4196 -55.4413 -3.3875 -55.3597 -21.2341 -97.0990
4.5460 -21.7700 -87.2001 -3.4207 -55.9139 -3.3901 -55.8317 -21.1962 -97.6327
4.5835 -21.7463 -87.9542 -3.4227 -56.3574 -3.3911 -56.2896 -21.0700 -98.3853
4.6210 -21.7059 -88.9208 -3.4217 -56.7996 -3.3897 -56.7320 -21.0342 -99.1017
4.6585 -21.7009 -89.6379 -3.4249 -57.3004 -3.3917 -57.2203 -20.9774 -99.7613
4.6959 -21.6794 -90.6390 -3.4259 -57.7380 -3.3933 -57.6765 -20.8661 -100.7618
4.7334 -21.6649 -91.7065 -3.4263 -58.1753 -3.3929 -58.1333 -20.7994 -101.4631
4.7709 -21.5875 -92.6962 -3.4279 -58.6665 -3.3939 -58.5902 -20.7215 -101.9034
4.8084 -21.5520 -93.3607 -3.4318 -59.1071 -3.3980 -59.0712 -20.6447 -102.7980
4.8459 -21.5368 -94.3692 -3.4298 -59.5396 -3.3993 -59.5087 -20.5283 -103.5698
4.8834 -21.5442 -95.1021 -3.4334 -60.0292 -3.4007 -59.9808 -20.4773 -103.6630
4.9209 -21.4956 -96.2330 -3.4339 -60.4756 -3.4011 -60.4290 -20.4103 -104.5965
4.9584 -21.4380 -96.8675 -3.4361 -60.9824 -3.4019 -60.9172 -20.3641 -104.9732
4.9958 -21.3917 -97.5399 -3.4373 -61.3833 -3.4044 -61.3294 -20.2459 -105.6874
5.0333 -21.4190 -98.1323 -3.4343 -61.8463 -3.4036 -61.7918 -20.2289 -106.1228
5.0708 -21.3898 -99.3278 -3.4388 -62.3105 -3.4062 -62.2773 -20.1348 -106.7746
5.1083 -21.3142 -100.3190 -3.4399 -62.7841 -3.4085 -62.7421 -20.0663 -107.3788
5.1458 -21.2059 -100.9038 -3.4404 -63.2294 -3.4098 -63.1841 -19.9675 -107.9228
5.1833 -21.2395 -101.2813 -3.4413 -63.6905 -3.4094 -63.6467 -19.9452 -108.3932
5.2208 -21.2505 -102.1816 -3.4428 -64.1603 -3.4096 -64.1070 -19.8462 -108.7608
5.2583 -21.2170 -103.4388 -3.4459 -64.6219 -3.4101 -64.5708 -19.7954 -109.1910
5.2957 -21.0732 -104.1072 -3.4522 -65.0631 -3.4173 -65.0276 -19.7335 -109.8713
5.3332 -21.0480 -104.2060 -3.4473 -65.5142 -3.4150 -65.4823 -19.7191 -110.2450
5.3707 -21.0783 -104.7925 -3.4506 -65.9807 -3.4138 -65.9579 -19.5894 -110.7251
5.4082 -21.0640 -105.9976 -3.4506 -66.4209 -3.4192 -66.4085 -19.5695 -111.2699
5.4457 -20.9655 -107.0221 -3.4501 -66.8974 -3.4181 -66.8731 -19.4653 -111.8771
5.4832 -20.8830 -107.4174 -3.4528 -67.3569 -3.4226 -67.3354 -19.3870 -112.0616
5.5207 -20.8916 -107.5254 -3.4519 -67.7855 -3.4239 -67.7677 -19.3461 -112.3389
5.5582 -20.9276 -108.3403 -3.4512 -68.2661 -3.4246 -68.2340 -19.3240 -112.7349
5.5956 -20.8716 -109.4105 -3.4558 -68.7370 -3.4235 -68.7216 -19.2380 -113.2794
5.6331 -20.7843 -110.2437 -3.4602 -69.1961 -3.4273 -69.1699 -19.1981 -113.8749
5.6706 -20.7259 -110.1287 -3.4635 -69.6375 -3.4316 -69.6175 -19.1669 -113.9657
5.7081 -20.7846 -110.6229 -3.4623 -70.0942 -3.4312 -70.0642 -19.1335 -114.4736
5.7456 -20.7784 -111.5441 -3.4648 -70.5737 -3.4332 -70.5426 -19.0839 -114.8728
5.7831 -20.7194 -112.7421 -3.4657 -71.0189 -3.4343 -70.9847 -19.0190 -115.3131
5.8206 -20.6054 -112.9932 -3.4715 -71.4603 -3.4372 -71.4415 -18.9528 -115.7867
5.8581 -20.6391 -112.9519 -3.4676 -71.9583 -3.4326 -71.9177 -18.9551 -115.7566
5.8955 -20.6689 -113.7537 -3.4716 -72.4133 -3.4387 -72.3691 -18.9019 -116.2190
5.9330 -20.6134 -114.7304 -3.4692 -72.8650 -3.4414 -72.8256 -18.8888 -116.8937
5.9705 -20.5145 -115.4651 -3.4735 -73.3039 -3.4444 -73.2674 -18.8159 -117.4245
6.0080 -20.4887 -115.3738 -3.4719 -73.8029 -3.4432 -73.7498 -18.7910 -117.3867
6.0455 -20.5466 -115.6657 -3.4793 -74.2479 -3.4491 -74.2012 -18.7827 -117.5609
6.0830 -20.5417 -116.5619 -3.4791 -74.6851 -3.4478 -74.6470 -18.7512 -118.1667
6.1205 -20.4740 -117.3261 -3.4786 -75.1490 -3.4478 -75.1037 -18.7438 -118.8320
6.1580 -20.4186 -117.6025 -3.4833 -75.6340 -3.4510 -75.5662 -18.6753 -118.8609
6.1954 -20.4471 -117.5979 -3.4864 -76.0902 -3.4525 -76.0243 -18.6570 -118.9875
6.2329 -20.4830 -118.3224 -3.4872 -76.5396 -3.4550 -76.4801 -18.6649 -119.3943
6.2704 -20.4432 -119.0629 -3.4831 -77.0019 -3.4546 -76.9359 -18.7005 -119.8625
6.3079 -20.3649 -119.5465 -3.4868 -77.4595 -3.4582 -77.3864 -18.6315 -120.3820
6.3454 -20.3527 -119.5980 -3.4865 -77.9001 -3.4583 -77.8357 -18.5884 -120.5904
6.3829 -20.4054 -119.9647 -3.4876 -78.3470 -3.4605 -78.2791 -18.6277 -120.7334
6.4204 -20.4112 -120.7626 -3.4907 -78.8158 -3.4625 -78.7484 -18.6387 -121.0599
6.4579 -20.3214 -121.2529 -3.4954 -79.2711 -3.4649 -79.2092 -18.5976 -121.7380
6.4953 -20.3014 -121.4332 -3.4968 -79.7157 -3.4686 -79.6439 -18.5719 -122.1456
6.5328 -20.3310 -121.5011 -3.4956 -80.1827 -3.4631 -80.0854 -18.5852 -121.9706
6.5703 -20.3581 -122.0567 -3.5016 -80.6782 -3.4654 -80.5846 -18.5858 -122.2454
6.6078 -20.3387 -122.7083 -3.5049 -81.0976 -3.4702 -81.0184 -18.6478 -122.8183
6.6453 -20.2940 -123.0916 -3.5045 -81.5469 -3.4705 -81.4616 -18.6225 -123.4786
6.6828 -20.2677 -123.3372 -3.5037 -82.0185 -3.4713 -81.9374 -18.5950 -123.6267
6.7203 -20.2870 -123.7166 -3.5067 -82.4976 -3.4745 -82.4083 -18.5741 -123.7572
6.7578 -20.2829 -124.0831 -3.5076 -82.9173 -3.4742 -82.8487 -18.6481 -124.0911
6.7952 -20.2599 -124.5345 -3.5121 -83.3703 -3.4776 -83.2876 -18.6734 -124.7085
6.8327 -20.2246 -124.6122 -3.5092 -83.8376 -3.4760 -83.7675 -18.6606 -125.0808
6.8702 -20.2504 -125.0034 -3.5122 -84.2716 -3.4816 -84.2055 -18.6254 -125.2330
6.9077 -20.2511 -125.5465 -3.5121 -84.7352 -3.4800 -84.6481 -18.6827 -125.6415
6.9452 -20.2087 -126.0210 -3.5137 -85.2171 -3.4814 -85.1299 -18.7121 -125.8696
6.9827 -20.1884 -125.9412 -3.5170 -85.6755 -3.4834 -85.5994 -18.7351 -126.4361
7.0202 -20.2257 -126.1651 -3.5207 -86.0970 -3.4866 -86.0275 -18.7539 -126.8126
7.0577 -20.2344 -126.6191 -3.5201 -86.5593 -3.4874 -86.4657 -18.7587 -127.0205
7.0951 -20.1844 -127.1175 -3.5205 -87.0388 -3.4868 -86.9527 -18.7815 -127.3295
7.1326 -20.1599 -127.1071 -3.5252 -87.4939 -3.4904 -87.4151 -18.8691 -127.8563
7.1701 -20.2034 -127.0368 -3.5294 -87.9393 -3.4930 -87.8525 -18.8823 -128.2568
7.2076 -20.2302 -127.5682 -3.5283 -88.3788 -3.4961 -88.2949 -18.8937 -128.3101
7.2451 -20.1722 -128.1581 -3.5238 -88.8588 -3.4915 -88.7761 -18.9041 -128.8302
7.2826 -20.1272 -128.3793 -3.5280 -89.3172 -3.4977 -89.2285 -18.9797 -129.3354
7.3201 -20.1424 -128.2560 -3.5328 -89.7484 -3.4988 -89.6454 -19.0285 -129.5987
7.3576 -20.1745 -128.3952 -3.5332 -90.2312 -3.4958 -90.1441 -19.0465 -129.8836
7.3950 -20.2011 -129.0927 -3.5372 -90.6728 -3.5036 -90.5947 -19.0534 -130.3176
7.4325 -20.1522 -129.5125 -3.5354 -91.1267 -3.5009 -91.0115 -19.1292 -130.9758
7.4700 -20.0975 -129.6707 -3.5348 -91.5898 -3.5008 -91.4980 -19.1810 -130.8987
7.5075 -20.1272 -129.3581 -3.5392 -92.0782 -3.5042 -91.9748 -19.2244 -131.7487
7.5450 -20.1700 -129.7290 -3.5430 -92.4921 -3.5101 -92.3921 -19.2789 -132.1240
7.5825 -20.1418 -130.2541 -3.5378 -92.9349 -3.5069 -92.8413 -19.3123 -132.4144
7.6200 -20.0817 -130.6173 -3.5405 -93.4183 -3.5092 -93.3313 -19.3409 -132.8101
7.6575 -20.0942 -130.3879 -3.5482 -93.8767 -3.5132 -93.7755 -19.4184 -133.3852
7.6949 -20.1594 -130.5061 -3.5507 -94.3280 -3.5129 -94.2217 -19.4783 -133.8189
7.7324 -20.1626 -131.3012 -3.5501 -94.7589 -3.5145 -94.6882 -19.5436 -134.0161
7.7699 -20.0743 -131.7278 -3.5480 -95.2463 -3.5125 -95.1364 -19.5281 -134.8188
7.8074 -20.0490 -131.6745 -3.5564 -95.7026 -3.5186 -95.5921 -19.6224 -135.4770
7.8449 -20.0510 -131.4230 -3.5560 -96.1383 -3.5153 -96.0426 -19.7322 -135.8442
7.8824 -20.1085 -131.9551 -3.5567 -96.6111 -3.5218 -96.5301 -19.7312 -136.2312
7.9199 -20.0605 -132.4548 -3.5615 -97.0837 -3.5221 -96.9840 -19.7945 -137.0782
7.9574 -20.0337 -132.5768 -3.5630 -97.5211 -3.5264 -97.4272 -19.8047 -137.1956
7.9948 -20.0349 -132.3779 -3.5649 -97.9749 -3.5273 -97.8730 -19.9181 -137.6605
8.0323 -20.0708 -132.6073 -3.5644 -98.4375 -3.5266 -98.3344 -20.0068 -138.0775
8.0698 -20.0789 -133.1959 -3.5667 -98.9173 -3.5324 -98.8080 -20.0490 -139.0038
8.1073 -20.0246 -133.5392 -3.5708 -99.3446 -3.5335 -99.2165 -20.1478 -139.7890
8.1448 -19.9537 -133.7071 -3.5694 -99.8081 -3.5306 -99.7111 -20.1492 -140.1213
8.1823 -19.9584 -133.6487 -3.5725 -100.2638 -3.5386 -100.1659 -20.2323 -140.7192
8.2198 -19.9649 -133.8840 -3.5751 -100.7045 -3.5419 -100.5876 -20.3354 -141.6899
8.2573 -19.9144 -134.1335 -3.5706 -101.1465 -3.5362 -101.0325 -20.4007 -141.9789
8.2947 -19.9160 -134.2299 -3.5741 -101.6491 -3.5426 -101.5145 -20.3949 -142.6243
8.3322 -19.9172 -134.2367 -3.5769 -102.0717 -3.5431 -101.9251 -20.5051 -142.9868
8.3697 -19.8865 -134.6893 -3.5770 -102.5531 -3.5424 -102.4080 -20.6093 -143.7687
8.4072 -19.8234 -134.9074 -3.5760 -102.9893 -3.5431 -102.8462 -20.7072 -144.4589
8.4447 -19.7912 -134.9898 -3.5805 -103.4740 -3.5461 -103.3237 -20.7096 -145.4515
8.4822 -19.7960 -134.8124 -3.5827 -103.9102 -3.5480 -103.7490 -20.7433 -145.8443
8.5197 -19.8384 -135.2468 -3.5831 -104.3514 -3.5480 -104.1955 -20.8310 -146.1083
8.5572 -19.7720 -135.9833 -3.5795 -104.8343 -3.5459 -104.6771 -20.9024 -147.0462
8.5946 -19.7243 -136.1328 -3.5889 -105.2851 -3.5511 -105.1355 -21.0416 -148.0134
8.6321 -19.6835 -136.0598 -3.5853 -105.7402 -3.5487 -105.5907 -21.0329 -148.5714
8.6696 -19.7287 -136.1528 -3.5856 -106.1938 -3.5510 -106.0401 -21.0949 -149.2022
8.7071 -19.7073 -136.9459 -3.5861 -106.6503 -3.5533 -106.5067 -21.1805 -149.8396
8.7446 -19.6209 -137.2836 -3.5927 -107.1168 -3.5565 -106.9556 -21.3055 -151.3004
8.7821 -19.5614 -137.2470 -3.5892 -107.5697 -3.5555 -107.4149 -21.3393 -152.0185
8.8196 -19.5670 -137.0168 -3.5905 -108.0278 -3.5565 -107.8696 -21.3606 -152.8161
8.8571 -19.6503 -137.5691 -3.5916 -108.5111 -3.5609 -108.3361 -21.4093 -153.1882
8.8945 -19.5554 -138.1682 -3.5911 -108.9282 -3.5583 -108.7460 -21.5221 -154.2258
8.9320 -19.4682 -138.3501 -3.5917 -109.4058 -3.5569 -109.2346 -21.6270 -155.2566
8.9695 -19.4812 -138.1148 -3.5956 -109.8957 -3.5613 -109.7113 -21.6119 -156.2081
9.0070 -19.5513 -138.1590 -3.6031 -110.3448 -3.5667 -110.1329 -21.6415 -157.0419
9.0445 -19.5515 -139.1241 -3.5987 -110.7752 -3.5617 -110.5957 -21.7158 -157.4220
9.0820 -19.4533 -139.8002 -3.5970 -111.2500 -3.5643 -111.0762 -21.7935 -158.7111
9.1195 -19.3881 -139.6823 -3.5994 -111.7060 -3.5677 -111.5167 -21.8404 -159.9059
9.1570 -19.3834 -139.4716 -3.6012 -112.1435 -3.5679 -111.9547 -21.8565 -160.9113
9.1944 -19.4589 -140.0183 -3.6028 -112.6033 -3.5680 -112.4366 -21.9017 -161.4548
