!Created: 10-02-2013 at 12:38:38
!Mini-Circuits
!S2P DATA File Format
!Type: LOW PASS FILTER
!MODEL: LFCN-2000+
!S/N: Unit 1
!PIN OUT: PORT 1 - PIN 1, PORT 2 - PIN 3, GROUND - PIN 2,4
!TEST CONDITIONS: Z:50 OHM SYSTEM, INPUT POWER = -10dBm
!PROD RUN: MCPMM80 DATE CODE: 1128
!REMARK: UNITS MOUNTED ON TB-270 RUN#MN43590 D/C 1330. PORT EXTENSION HAS BEEN DONE.
!TESTED ON: NETWORK ANALYZER MODEL AG N5242A S/N 71932 CAL DUE DATE 3/15/14
# MHZ S DB R 50
!Frequency        S11 dB  S11 DEG   S21 dB  S21 DEG   S12 dB  S12 DEG   S22 dB  S22 DEG
  10.0000     -4.867628E+001 -1.257332E+002 -7.388156E-002 -8.878959E-001 -4.301410E-005 -4.274638E-001 -4.461950E+001 -1.369431E+002
  11.0000     -3.403151E+001 -7.778278E+001 -8.725334E-002 -1.573468E-002 -8.678177E-002  1.270783E-002 -3.478179E+001 -7.993728E+001
  12.0000     -3.211322E+001 -7.942975E+001 -8.597974E-002  1.919557E-001 -8.798198E-002  2.372233E-001 -3.273436E+001 -8.365663E+001
  13.0000     -3.169563E+001 -8.092939E+001 -8.448431E-002  2.003022E-001 -8.128873E-002  2.010491E-001 -3.256913E+001 -8.538690E+001
  14.0000     -3.203035E+001 -8.138526E+001 -7.864698E-002  5.697504E-002 -7.720394E-002  3.792561E-002 -3.305937E+001 -8.685516E+001
  15.0000     -3.359649E+001 -8.677850E+001 -6.361500E-002 -1.230586E-001 -7.167409E-002 -2.287799E-001 -3.310708E+001 -8.672155E+001
  16.0000     -3.488265E+001 -8.269869E+001 -7.000688E-002 -4.896735E-001 -6.901617E-002 -5.114608E-001 -3.586084E+001 -8.986635E+001
  17.0000     -3.728579E+001 -8.118465E+001 -7.095885E-002 -8.100014E-001 -6.816459E-002 -8.402765E-001 -3.832083E+001 -8.913413E+001
  18.0000     -4.093151E+001 -7.547591E+001 -7.375236E-002 -1.138467E+000 -7.108143E-002 -1.190677E+000 -4.173339E+001 -8.587528E+001
  19.0000     -4.441025E+001 -6.167524E+001 -7.885213E-002 -1.433403E+000 -7.713855E-002 -1.479794E+000 -4.620200E+001 -6.893515E+001
  20.0000     -4.758918E+001 -3.349856E+001 -9.303315E-002 -1.717049E+000 -9.139649E-002 -1.782657E+000 -4.821945E+001 -3.793190E+000
  21.0000     -4.812446E+001  3.950949E+000 -9.095682E-002 -1.925991E+000 -9.070545E-002 -1.999171E+000 -4.808104E+001  3.827744E+000
  22.0000     -4.657415E+001  1.940353E+001 -9.940697E-002 -2.095351E+000 -9.712470E-002 -2.162361E+000 -4.517904E+001  1.674835E+001
  23.0000     -4.583041E+001  2.452322E+001 -1.039067E-001 -2.244269E+000 -9.993509E-002 -2.283287E+000 -4.391722E+001  2.150036E+001
  24.0000     -4.523729E+001  2.408885E+001 -1.048483E-001 -2.338534E+000 -1.015086E-001 -2.402808E+000 -4.347877E+001  2.421942E+001
  25.0000     -4.559660E+001  2.260145E+001 -1.055738E-001 -2.428779E+000 -1.028558E-001 -2.484382E+000 -4.348484E+001  2.298458E+001
  26.0000     -4.570828E+001  1.430889E+001 -1.059740E-001 -2.484584E+000 -1.022975E-001 -2.532128E+000 -4.384233E+001  1.996157E+001
  27.0000     -4.659307E+001  9.045960E+000 -1.028725E-001 -2.535770E+000 -1.004882E-001 -2.569845E+000 -4.473461E+001  1.190898E+001
  28.0000     -4.702745E+001 -6.047065E+000 -1.003073E-001 -2.581231E+000 -9.924964E-002 -2.604555E+000 -4.545337E+001  7.179234E+000
  29.0000     -4.731081E+001 -1.835698E+001 -9.713922E-002 -2.618833E+000 -9.424562E-002 -2.638789E+000 -4.639249E+001 -5.390163E-001
  30.0000     -4.778797E+001 -2.303744E+001 -9.357343E-002 -2.659556E+000 -9.060846E-002 -2.679005E+000 -4.679582E+001 -1.247215E+001
  31.0000     -4.711742E+001 -3.629742E+001 -9.278965E-002 -2.739741E+000 -9.058203E-002 -2.738263E+000 -4.757505E+001 -1.678109E+001
  32.0000     -4.706626E+001 -3.784850E+001 -9.002712E-002 -2.815791E+000 -9.058215E-002 -2.795579E+000 -4.779058E+001 -2.269001E+001
  33.0000     -4.699710E+001 -3.967010E+001 -8.995871E-002 -2.893435E+000 -8.975695E-002 -2.876515E+000 -4.776438E+001 -2.429546E+001
  34.0000     -4.716688E+001 -3.970337E+001 -8.982484E-002 -2.984730E+000 -8.982476E-002 -2.954836E+000 -4.773923E+001 -2.593631E+001
  35.0000     -4.718235E+001 -3.672940E+001 -9.001684E-002 -3.102264E+000 -9.001661E-002 -3.059986E+000 -4.837528E+001 -1.459627E+001
  36.0000     -4.672837E+001 -3.376959E+001 -9.186771E-002 -3.179703E+000 -9.269182E-002 -3.145191E+000 -4.694708E+001 -1.806056E+001
  37.0000     -4.700465E+001 -3.080812E+001 -9.420192E-002 -3.289665E+000 -9.330818E-002 -3.250570E+000 -4.686328E+001 -1.608830E+001
  38.0000     -4.689894E+001 -2.747668E+001 -9.621582E-002 -3.397295E+000 -9.556372E-002 -3.351807E+000 -4.655359E+001 -1.442381E+001
  39.0000     -4.664950E+001 -2.462497E+001 -9.745392E-002 -3.497755E+000 -9.656386E-002 -3.460479E+000 -4.645541E+001 -1.054093E+001
  40.0000     -4.681316E+001 -1.794488E+001 -1.007383E-001 -3.603241E+000 -9.697061E-002 -3.570220E+000 -4.565944E+001 -9.446783E+000
  41.0000     -4.618971E+001 -1.945877E+001 -9.907945E-002 -3.697438E+000 -9.925631E-002 -3.668882E+000 -4.602461E+001 -7.267573E+000
  42.0000     -4.615526E+001 -1.840011E+001 -1.007280E-001 -3.794306E+000 -9.974121E-002 -3.766904E+000 -4.615314E+001 -5.700384E+000
  43.0000     -4.601466E+001 -1.855518E+001 -1.020453E-001 -3.897171E+000 -1.006181E-001 -3.861440E+000 -4.562942E+001 -5.063880E+000
  44.0000     -4.598913E+001 -1.800289E+001 -1.021934E-001 -3.983809E+000 -1.005387E-001 -3.949769E+000 -4.542437E+001 -7.060530E+000
  45.0000     -4.582065E+001 -1.888517E+001 -1.005390E-001 -4.071642E+000 -9.991963E-002 -4.039093E+000 -4.566123E+001 -7.181541E+000
  46.0000     -4.581960E+001 -1.796005E+001 -1.012383E-001 -4.162949E+000 -1.007613E-001 -4.129315E+000 -4.562227E+001 -8.472870E+000
  47.0000     -4.568124E+001 -1.851035E+001 -1.011940E-001 -4.249547E+000 -1.012976E-001 -4.217849E+000 -4.566246E+001 -1.071981E+001
  48.0000     -4.560516E+001 -2.065863E+001 -1.010650E-001 -4.332737E+000 -1.005694E-001 -4.305646E+000 -4.558913E+001 -1.200684E+001
  49.0000     -4.562640E+001 -2.163453E+001 -1.011520E-001 -4.412872E+000 -1.009475E-001 -4.386715E+000 -4.570392E+001 -1.410696E+001
  50.0000     -4.352961E+001 -3.947131E+001 -9.008169E-002 -4.601984E+000 -1.110486E-001 -4.495324E+000 -4.502637E+001  8.884583E+001
  51.0000     -4.533739E+001 -2.264168E+001 -1.014547E-001 -4.589240E+000 -1.008669E-001 -4.552024E+000 -4.579418E+001 -1.680257E+001
  52.0000     -4.540667E+001 -2.561991E+001 -1.011939E-001 -4.671259E+000 -1.016572E-001 -4.641906E+000 -4.577305E+001 -1.681994E+001
  53.0000     -4.537513E+001 -2.554821E+001 -1.019284E-001 -4.756795E+000 -1.016687E-001 -4.721583E+000 -4.563296E+001 -1.730821E+001
  54.0000     -4.370949E+001 -3.389788E+001 -1.085979E-001 -4.755607E+000 -1.057362E-001 -4.772384E+000 -4.444724E+001 -3.799005E+001
  55.0000     -4.397523E+001 -3.340578E+001 -1.079389E-001 -4.843953E+000 -1.056173E-001 -4.853263E+000 -4.395848E+001 -3.901228E+001
  56.0000     -4.353469E+001 -3.367830E+001 -1.091366E-001 -4.918834E+000 -1.061041E-001 -4.942279E+000 -4.395576E+001 -3.859966E+001
  57.0000     -4.347311E+001 -3.366571E+001 -1.095466E-001 -5.009985E+000 -1.072464E-001 -5.032150E+000 -4.384763E+001 -3.883781E+001
  58.0000     -4.334243E+001 -3.363329E+001 -1.094289E-001 -5.102075E+000 -1.085016E-001 -5.115773E+000 -4.374890E+001 -3.868769E+001
  59.0000     -4.314901E+001 -3.372449E+001 -1.092003E-001 -5.191602E+000 -1.076399E-001 -5.202722E+000 -4.360297E+001 -3.876438E+001
  60.0000     -4.404436E+001 -1.357579E+001 -1.096099E-001 -5.297946E+000 -1.015142E-001 -5.261838E+000 -4.041496E+001 -6.713464E+001
  61.0000     -4.290144E+001 -3.360559E+001 -1.101950E-001 -5.367720E+000 -1.087340E-001 -5.380914E+000 -4.371391E+001 -3.956192E+001
  62.0000     -4.298800E+001 -3.396281E+001 -1.105135E-001 -5.457890E+000 -1.089623E-001 -5.472063E+000 -4.347752E+001 -3.931373E+001
  63.0000     -4.281890E+001 -3.441884E+001 -1.115051E-001 -5.544726E+000 -1.085743E-001 -5.555083E+000 -4.328967E+001 -4.028891E+001
  64.0000     -4.266707E+001 -3.450584E+001 -1.116516E-001 -5.635671E+000 -1.095514E-001 -5.647737E+000 -4.333439E+001 -4.107977E+001
  65.0000     -4.212720E+001 -3.434113E+001 -1.099599E-001 -5.735536E+000 -1.082256E-001 -5.716318E+000 -4.364742E+001 -4.423351E+001
  66.0000     -4.252903E+001 -3.501207E+001 -1.117292E-001 -5.811491E+000 -1.110295E-001 -5.819836E+000 -4.320768E+001 -3.974527E+001
  67.0000     -4.222921E+001 -3.416362E+001 -1.123902E-001 -5.897238E+000 -1.108349E-001 -5.906321E+000 -4.330965E+001 -4.082769E+001
  68.0000     -4.232896E+001 -3.551047E+001 -1.133630E-001 -5.987210E+000 -1.108090E-001 -5.992063E+000 -4.303584E+001 -4.045257E+001
  69.0000     -4.233295E+001 -3.603680E+001 -1.132248E-001 -6.076541E+000 -1.118565E-001 -6.080663E+000 -4.281316E+001 -4.016264E+001
  70.0000     -4.206259E+001 -3.517378E+001 -1.143840E-001 -6.153800E+000 -1.139322E-001 -6.166355E+000 -4.249785E+001 -4.231415E+001
  71.0000     -4.195097E+001 -3.733627E+001 -1.139277E-001 -6.246100E+000 -1.126295E-001 -6.252720E+000 -4.277900E+001 -4.093351E+001
  72.0000     -4.193027E+001 -3.710219E+001 -1.145169E-001 -6.333668E+000 -1.133617E-001 -6.334726E+000 -4.266537E+001 -4.105909E+001
  73.0000     -4.167814E+001 -3.836544E+001 -1.150315E-001 -6.417658E+000 -1.137701E-001 -6.416867E+000 -4.256198E+001 -4.090454E+001
  74.0000     -4.170257E+001 -3.759283E+001 -1.150068E-001 -6.505352E+000 -1.128509E-001 -6.506194E+000 -4.257071E+001 -4.154912E+001
  75.0000     -4.162323E+001 -3.892186E+001 -1.141483E-001 -6.595169E+000 -1.172992E-001 -6.593396E+000 -4.239624E+001 -4.210117E+001
  76.0000     -4.152259E+001 -3.885431E+001 -1.159842E-001 -6.678318E+000 -1.148027E-001 -6.673790E+000 -4.237251E+001 -4.056415E+001
  77.0000     -4.143591E+001 -3.856010E+001 -1.164781E-001 -6.767404E+000 -1.151719E-001 -6.767470E+000 -4.233111E+001 -4.135170E+001
  78.0000     -4.158361E+001 -4.017357E+001 -1.161183E-001 -6.850833E+000 -1.151928E-001 -6.849627E+000 -4.211854E+001 -4.081697E+001
  79.0000     -4.147960E+001 -3.984292E+001 -1.167061E-001 -6.943579E+000 -1.158820E-001 -6.935047E+000 -4.205278E+001 -4.036345E+001
  80.0000     -4.137456E+001 -4.065657E+001 -1.174933E-001 -7.025753E+000 -1.174838E-001 -7.035907E+000 -4.206944E+001 -3.874323E+001
  81.0000     -4.131294E+001 -3.983103E+001 -1.176232E-001 -7.114806E+000 -1.169098E-001 -7.111897E+000 -4.201121E+001 -4.007370E+001
  82.0000     -4.130222E+001 -4.063514E+001 -1.179654E-001 -7.195098E+000 -1.168660E-001 -7.199534E+000 -4.190030E+001 -4.097435E+001
  83.0000     -4.137049E+001 -4.043512E+001 -1.183811E-001 -7.288723E+000 -1.172043E-001 -7.288789E+000 -4.184101E+001 -4.009269E+001
  84.0000     -4.132066E+001 -4.057579E+001 -1.182893E-001 -7.370038E+000 -1.173244E-001 -7.379464E+000 -4.184020E+001 -4.022134E+001
  85.0000     -4.127521E+001 -4.107190E+001 -1.180137E-001 -7.460722E+000 -1.174092E-001 -7.463368E+000 -4.165216E+001 -4.092777E+001
  86.0000     -4.132874E+001 -4.081269E+001 -1.181799E-001 -7.549749E+000 -1.172761E-001 -7.556790E+000 -4.166716E+001 -4.048704E+001
  87.0000     -4.129958E+001 -4.113105E+001 -1.184451E-001 -7.634988E+000 -1.176661E-001 -7.643613E+000 -4.164673E+001 -4.039422E+001
  88.0000     -4.126831E+001 -4.102806E+001 -1.190060E-001 -7.721633E+000 -1.175551E-001 -7.726850E+000 -4.158725E+001 -4.140475E+001
  89.0000     -4.118156E+001 -4.101640E+001 -1.190872E-001 -7.807932E+000 -1.174268E-001 -7.819786E+000 -4.169603E+001 -4.194212E+001
  90.0000     -4.134146E+001 -4.134759E+001 -1.192092E-001 -7.895465E+000 -1.167336E-001 -7.930377E+000 -4.195925E+001 -4.137171E+001
  91.0000     -4.121752E+001 -4.290516E+001 -1.196212E-001 -7.983542E+000 -1.182581E-001 -7.997434E+000 -4.137723E+001 -4.090709E+001
  92.0000     -4.113184E+001 -4.296473E+001 -1.195035E-001 -8.071409E+000 -1.176416E-001 -8.083766E+000 -4.134345E+001 -4.128771E+001
  93.0000     -4.108475E+001 -4.295967E+001 -1.200338E-001 -8.150749E+000 -1.173483E-001 -8.172644E+000 -4.122665E+001 -4.281188E+001
  94.0000     -4.095320E+001 -4.348194E+001 -1.202098E-001 -8.240457E+000 -1.184809E-001 -8.255703E+000 -4.109554E+001 -4.232791E+001
  95.0000     -4.092920E+001 -4.398033E+001 -1.201880E-001 -8.326694E+000 -1.185291E-001 -8.345015E+000 -4.100990E+001 -4.316945E+001
  96.0000     -4.086311E+001 -4.459248E+001 -1.206725E-001 -8.409657E+000 -1.192421E-001 -8.429583E+000 -4.087234E+001 -4.390771E+001
  97.0000     -4.069049E+001 -4.498433E+001 -1.215724E-001 -8.497324E+000 -1.197821E-001 -8.513874E+000 -4.079384E+001 -4.430484E+001
  98.0000     -4.073888E+001 -4.543655E+001 -1.219275E-001 -8.583382E+000 -1.195313E-001 -8.601423E+000 -4.064030E+001 -4.494213E+001
  99.0000     -4.056927E+001 -4.572973E+001 -1.219725E-001 -8.669951E+000 -1.197444E-001 -8.690434E+000 -4.054875E+001 -4.546906E+001
 100.0000     -4.054234E+001 -4.529693E+001 -1.229168E-001 -8.767369E+000 -1.211634E-001 -8.781636E+000 -4.044057E+001 -4.453827E+001
 101.0000     -4.038221E+001 -4.686457E+001 -1.226761E-001 -8.838053E+000 -1.209236E-001 -8.861311E+000 -4.038034E+001 -4.645379E+001
 102.0000     -4.028109E+001 -4.699263E+001 -1.229443E-001 -8.926471E+000 -1.208066E-001 -8.952791E+000 -4.038540E+001 -4.646405E+001
 103.0000     -4.015896E+001 -4.745087E+001 -1.236541E-001 -9.012450E+000 -1.214601E-001 -9.035827E+000 -4.032613E+001 -4.706234E+001
 104.0000     -4.005360E+001 -4.816150E+001 -1.234592E-001 -9.098886E+000 -1.212550E-001 -9.119368E+000 -4.025243E+001 -4.789699E+001
 105.0000     -4.008883E+001 -4.881663E+001 -1.242776E-001 -9.190488E+000 -1.212211E-001 -9.206739E+000 -4.011216E+001 -4.788292E+001
 106.0000     -4.007203E+001 -4.959482E+001 -1.242555E-001 -9.266817E+000 -1.223426E-001 -9.282616E+000 -3.987968E+001 -4.939285E+001
 107.0000     -4.001437E+001 -4.977620E+001 -1.243898E-001 -9.355817E+000 -1.221770E-001 -9.368886E+000 -3.978065E+001 -4.983315E+001
 108.0000     -3.988331E+001 -4.966632E+001 -1.255293E-001 -9.439151E+000 -1.226123E-001 -9.454035E+000 -3.961787E+001 -4.959505E+001
 109.0000     -3.989061E+001 -5.055460E+001 -1.255735E-001 -9.525800E+000 -1.233387E-001 -9.541790E+000 -3.956694E+001 -5.067871E+001
 110.0000     -3.994654E+001 -4.996896E+001 -1.260203E-001 -9.609629E+000 -1.211093E-001 -9.616505E+000 -3.935663E+001 -5.311366E+001
 111.0000     -3.972481E+001 -5.086818E+001 -1.258634E-001 -9.698032E+000 -1.234378E-001 -9.711704E+000 -3.950348E+001 -5.165440E+001
 112.0000     -3.970267E+001 -5.187149E+001 -1.256753E-001 -9.783226E+000 -1.240435E-001 -9.797727E+000 -3.946600E+001 -5.217995E+001
 113.0000     -3.956964E+001 -5.220536E+001 -1.270285E-001 -9.869654E+000 -1.239991E-001 -9.885023E+000 -3.934402E+001 -5.208389E+001
 114.0000     -3.957905E+001 -5.265848E+001 -1.266965E-001 -9.956945E+000 -1.242543E-001 -9.972510E+000 -3.928473E+001 -5.213549E+001
 115.0000     -3.945903E+001 -5.277749E+001 -1.268729E-001 -1.004632E+001 -1.252338E-001 -1.005524E+001 -3.921070E+001 -5.286825E+001
 116.0000     -3.941827E+001 -5.364773E+001 -1.271800E-001 -1.012856E+001 -1.256366E-001 -1.014205E+001 -3.921624E+001 -5.318251E+001
 117.0000     -3.939574E+001 -5.347049E+001 -1.280838E-001 -1.021146E+001 -1.259787E-001 -1.022940E+001 -3.910414E+001 -5.383122E+001
 118.0000     -3.929454E+001 -5.395449E+001 -1.285328E-001 -1.030162E+001 -1.262451E-001 -1.031789E+001 -3.906657E+001 -5.386790E+001
 119.0000     -3.932540E+001 -5.513654E+001 -1.285079E-001 -1.038428E+001 -1.266040E-001 -1.039710E+001 -3.895564E+001 -5.383139E+001
 120.0000     -3.915842E+001 -5.425262E+001 -1.282524E-001 -1.047364E+001 -1.252814E-001 -1.046732E+001 -3.899909E+001 -5.549383E+001
 121.0000     -3.921422E+001 -5.579242E+001 -1.294544E-001 -1.055602E+001 -1.265914E-001 -1.056904E+001 -3.880188E+001 -5.506779E+001
 122.0000     -3.914732E+001 -5.614982E+001 -1.295392E-001 -1.064339E+001 -1.265101E-001 -1.065050E+001 -3.873260E+001 -5.522263E+001
 123.0000     -3.910718E+001 -5.616419E+001 -1.297552E-001 -1.072852E+001 -1.267101E-001 -1.073997E+001 -3.871995E+001 -5.583424E+001
 124.0000     -3.901442E+001 -5.681011E+001 -1.296820E-001 -1.081440E+001 -1.272284E-001 -1.082364E+001 -3.868251E+001 -5.598203E+001
 125.0000     -3.910683E+001 -5.696132E+001 -1.299786E-001 -1.090274E+001 -1.287327E-001 -1.089665E+001 -3.847992E+001 -5.569030E+001
 126.0000     -3.895562E+001 -5.738512E+001 -1.307776E-001 -1.098100E+001 -1.270161E-001 -1.099659E+001 -3.854021E+001 -5.686877E+001
 127.0000     -3.884048E+001 -5.806996E+001 -1.304407E-001 -1.106841E+001 -1.275346E-001 -1.107697E+001 -3.862167E+001 -5.709507E+001
 128.0000     -3.885133E+001 -5.827052E+001 -1.314298E-001 -1.115894E+001 -1.286053E-001 -1.116538E+001 -3.840882E+001 -5.596477E+001
 129.0000     -3.877592E+001 -5.840042E+001 -1.313834E-001 -1.123798E+001 -1.281178E-001 -1.125345E+001 -3.844740E+001 -5.755254E+001
 130.0000     -3.874571E+001 -5.893442E+001 -1.312606E-001 -1.132767E+001 -1.281597E-001 -1.133176E+001 -3.843697E+001 -5.799751E+001
 131.0000     -3.867820E+001 -5.970053E+001 -1.322856E-001 -1.140691E+001 -1.280787E-001 -1.141449E+001 -3.835230E+001 -5.782133E+001
 132.0000     -3.863155E+001 -5.959336E+001 -1.326828E-001 -1.149307E+001 -1.292253E-001 -1.150396E+001 -3.821679E+001 -5.804803E+001
 133.0000     -3.860450E+001 -6.038553E+001 -1.319344E-001 -1.158268E+001 -1.293733E-001 -1.158665E+001 -3.824576E+001 -5.834858E+001
 134.0000     -3.849788E+001 -6.027555E+001 -1.327088E-001 -1.166225E+001 -1.290436E-001 -1.167600E+001 -3.807726E+001 -5.854136E+001
 135.0000     -3.844302E+001 -6.065607E+001 -1.333574E-001 -1.174988E+001 -1.299477E-001 -1.176311E+001 -3.821994E+001 -5.868036E+001
 136.0000     -3.847379E+001 -6.066603E+001 -1.328373E-001 -1.183370E+001 -1.296849E-001 -1.184620E+001 -3.804095E+001 -5.941071E+001
 137.0000     -3.833197E+001 -6.128880E+001 -1.330504E-001 -1.191677E+001 -1.301077E-001 -1.193218E+001 -3.798308E+001 -5.928190E+001
 138.0000     -3.833070E+001 -6.167434E+001 -1.324975E-001 -1.200366E+001 -1.305061E-001 -1.202145E+001 -3.794211E+001 -5.968595E+001
 139.0000     -3.827453E+001 -6.188265E+001 -1.338764E-001 -1.208509E+001 -1.301414E-001 -1.210410E+001 -3.792560E+001 -5.981106E+001
 140.0000     -3.816947E+001 -6.195180E+001 -1.343998E-001 -1.216996E+001 -1.313767E-001 -1.218423E+001 -3.778477E+001 -6.033403E+001
 141.0000     -3.815609E+001 -6.239778E+001 -1.337899E-001 -1.225674E+001 -1.311608E-001 -1.227041E+001 -3.783931E+001 -6.017983E+001
 142.0000     -3.807925E+001 -6.240714E+001 -1.341729E-001 -1.234289E+001 -1.310081E-001 -1.235338E+001 -3.773287E+001 -6.056441E+001
 143.0000     -3.799352E+001 -6.267619E+001 -1.351400E-001 -1.242708E+001 -1.314448E-001 -1.243694E+001 -3.770141E+001 -6.085488E+001
 144.0000     -3.795638E+001 -6.254856E+001 -1.339085E-001 -1.250993E+001 -1.313169E-001 -1.252575E+001 -3.765310E+001 -6.181705E+001
 145.0000     -3.788507E+001 -6.272766E+001 -1.346285E-001 -1.259609E+001 -1.316091E-001 -1.260728E+001 -3.758371E+001 -6.171838E+001
 146.0000     -3.786108E+001 -6.308799E+001 -1.345679E-001 -1.268095E+001 -1.314593E-001 -1.269506E+001 -3.758036E+001 -6.193754E+001
 147.0000     -3.798389E+001 -6.329001E+001 -1.346672E-001 -1.276359E+001 -1.327352E-001 -1.277394E+001 -3.743160E+001 -6.171268E+001
 148.0000     -3.798081E+001 -6.319222E+001 -1.349313E-001 -1.285078E+001 -1.331232E-001 -1.285668E+001 -3.731107E+001 -6.185609E+001
 149.0000     -3.778948E+001 -6.372029E+001 -1.353066E-001 -1.292901E+001 -1.328598E-001 -1.293861E+001 -3.732689E+001 -6.203794E+001
 150.0000     -3.840195E+001 -6.453460E+001 -1.386945E-001 -1.300697E+001 -1.316742E-001 -1.305498E+001 -3.653841E+001 -6.086004E+001
 151.0000     -3.784025E+001 -6.364656E+001 -1.361288E-001 -1.309919E+001 -1.331766E-001 -1.311081E+001 -3.717400E+001 -6.251762E+001
 152.0000     -3.779314E+001 -6.379159E+001 -1.360926E-001 -1.318399E+001 -1.341205E-001 -1.319773E+001 -3.715187E+001 -6.245531E+001
 153.0000     -3.767859E+001 -6.420968E+001 -1.364708E-001 -1.327460E+001 -1.345938E-001 -1.327520E+001 -3.708900E+001 -6.330225E+001
 154.0000     -3.756392E+001 -6.456364E+001 -1.362831E-001 -1.335596E+001 -1.357159E-001 -1.336207E+001 -3.699786E+001 -6.368552E+001
