!
! Hittite Microwave Corporation
! 2 Elizabeth Drive
! Chelmsford, MA 01824
! http://www.hittite.com
! Tel: 978-250-3343
! Fax: 978-250-3373
! 
! Device:      HMC424LP3
! Description: 0.5 dB GaAs MMIC 6-Bit Digital Attenuator
! Frequency:    DC -  13.00 GHz
! Package:     LP3  - 3x3 mm Quad Flatpack No-Lead (QFN) Plastic Package: 16 pin
! Ports:       2 RF, 7 DC
!              Pad  1  = Ground
!              Pad  2  = RF IN   = Port 1
!              Pad  3  = Ground
!              Pad  4  = V6
!              Pad  5  = V5
!              Pad  6  = V4
!              Pad  7  = V3
!              Pad  8  = V2
!              Pad  9  = V1
!              Pad 10  = Ground
!              Pad 11  = RF OUT  = Port 2
!              Pad 12  = Ground
!              Pad 15  = VEE
!
! Control:     -5 Volt control voltage
! State:        26 
! Attenuation:  13.0 dB
! Voltages:    Vdd = -5.00 Volts  Idd =  -2.555 mA
!              V1  = 0.00 Volts  I1  =  29.0 uA
!              V2  = -5.00 Volts  I2  =  -1.0 uA
!              V3  = 0.00 Volts  I3  =  30.0 uA
!              V4  = -5.00 Volts  I4  =  -1.0 uA
!              V5  = -5.00 Volts  I5  =  -1.0 uA
!              V6  = 0.00 Volts  I6  =  30.0 uA
!
! Data:    The device was measured on evaluation board 105354-1. 
!          Data was collected using a calibrated network analyzer.
!          The evaluation circuit board was modeled and simulated.  This was use
!          to removed the evaluation board circuit from the measured data.
!          The reference plane is the edge of the package pin.
!
! Misc:    Lot xxxx, Unit 1
!          Application 20120001, Data collected in Application 20090083
!
! Date Measured:  2009-09-15
! Date:           2012-05-14  MJV
! Note: 
!   Hittite supplies this data as a sample of measured data at the package pin
!   for this product.  Your particular data for this product may vary.
!   Data was taken at 25 degrees C.
!   Hittite reserves the right to change this data at anytime.
!
# GHz S MA R 50

0.01	0.0099071642	134.79312	0.16969241	-1.340645	0.16860188	-1.189045	0.088136433	3.2778058	
0.11	0.0086932989	-173.22396	0.16832751	-2.3957927	0.1679597	-2.3007927	0.083308633	-1.4275015	
0.21	0.008159356	-165.23823	0.16790666	-3.9408609	0.1677714	-3.9420609	0.082705012	-6.8146579	
0.31	0.0070503592	-152.80225	0.16776938	-5.5740849	0.16746062	-5.5750849	0.08779494	-9.3633014	
0.41	0.0072551196	-140.8701	0.16752568	-7.1427152	0.16737146	-7.2071152	0.088442777	-10.944961	
0.51	0.007423184	-124.4704	0.16725798	-8.830108	0.16708476	-8.904008	0.087493311	-13.261998	
0.61	0.0086403667	-113.54476	0.16709988	-10.423953	0.16694605	-10.420553	0.088890937	-17.849953	
0.71	0.0098571076	-97.633717	0.16697438	-12.06495	0.16668628	-12.06335	0.09526723	-20.004703	
0.81	0.011169642	-89.513614	0.16691163	-13.646267	0.16654692	-13.658667	0.095310035	-20.47331	
0.91	0.013086732	-79.204868	0.16663072	-15.233689	0.16636236	-15.251489	0.096495295	-24.281248	
1.01	0.014192875	-73.104288	0.16642439	-16.820678	0.16615636	-16.837778	0.10006643	-27.21608	
1.11	0.016349774	-68.561921	0.1662708	-18.429639	0.1660986	-18.432739	0.10663927	-27.793816	
1.21	0.017721921	-64.15364	0.16601406	-20.020069	0.16584213	-20.021769	0.10529722	-27.89836	
1.31	0.019662977	-60.955564	0.16588087	-21.617641	0.16570907	-21.648841	0.1077977	-31.679238	
1.41	0.021218625	-56.532523	0.16585942	-23.159912	0.16557324	-23.187212	0.11248839	-32.77369	
1.51	0.022757645	-55.208514	0.165686	-24.743885	0.16549536	-24.777085	0.11641669	-32.717634	
1.61	0.02460973	-52.140586	0.16548415	-26.35795	0.16521764	-26.31795	0.11418105	-32.974387	
1.71	0.025630439	-50.498827	0.16533265	-27.915666	0.16518044	-27.887466	0.11627437	-36.589939	
1.81	0.027223466	-48.272392	0.16519473	-29.438183	0.16496666	-29.449183	0.12041789	-37.036842	
1.91	0.027856149	-47.080863	0.16500762	-31.035071	0.16479878	-31.060871	0.12136752	-37.434597	
2.01	0.028568309	-46.322179	0.16482847	-32.633962	0.16469569	-32.609562	0.11880097	-38.503509	
2.11	0.029096939	-45.840138	0.16469896	-34.150408	0.16449051	-34.158408	0.12124868	-42.12185	
2.21	0.029845314	-46.277969	0.16465718	-35.735894	0.1642974	-35.719594	0.12545434	-42.434271	
2.31	0.030390091	-46.424842	0.1646277	-37.314986	0.16406008	-37.254386	0.12434596	-43.153049	
2.41	0.03051532	-47.643742	0.1642058	-38.824524	0.16401686	-38.813224	0.1225901	-45.275862	
2.51	0.030889123	-48.451833	0.1642107	-40.362139	0.16381417	-40.377139	0.12578527	-48.693115	
2.61	0.030942394	-50.218456	0.16401647	-41.947161	0.16380889	-41.974461	0.12955422	-48.732517	
2.71	0.031430857	-52.229511	0.16381823	-43.500044	0.16364857	-43.535944	0.12715331	-50.131246	
2.81	0.03081118	-54.547253	0.16363916	-45.066459	0.16356381	-45.070059	0.12680587	-52.82591	
2.91	0.031846366	-57.347798	0.16356177	-46.632575	0.16335477	-46.645975	0.13037407	-55.711831	
3.01	0.032009692	-60.581515	0.16342119	-48.235526	0.16321436	-48.233426	0.13331912	-55.743766	
3.11	0.03263005	-64.121987	0.16324022	-49.771264	0.16297732	-49.771464	0.12976993	-57.585927	
3.21	0.032742729	-67.260623	0.16295846	-51.317353	0.16288343	-51.298453	0.13088769	-60.805234	
3.31	0.03373649	-71.373629	0.16288757	-52.87814	0.16266269	-52.84624	0.13448071	-62.994526	
3.41	0.034730021	-75.466262	0.16286776	-54.438513	0.16262418	-54.439713	0.1361319	-63.373571	
3.51	0.036264361	-79.203179	0.16252473	-55.961387	0.16226298	-55.958687	0.13278309	-65.938054	
3.61	0.037743012	-83.183191	0.16228192	-57.514254	0.16207653	-57.547654	0.13599483	-69.553087	
3.71	0.040261666	-86.507839	0.16219272	-59.088447	0.1619315	-59.079147	0.13999088	-71.236839	
3.81	0.042525696	-89.207702	0.16197327	-60.630467	0.16167517	-60.673567	0.14060197	-72.043872	
3.91	0.044958228	-91.899065	0.16167577	-62.195272	0.16148974	-62.199172	0.13868655	-75.41775	
4.01	0.052818522	-88.773229	0.16169185	-63.6766	0.16148721	-63.68	0.15128421	-76.608445	
4.11	0.055217384	-89.977992	0.16142693	-65.232683	0.16118551	-65.226483	0.15515699	-77.258128	
4.21	0.058057379	-91.086274	0.16127996	-66.777878	0.16109438	-66.775978	0.15584132	-78.083676	
4.31	0.061266644	-91.169779	0.16106707	-68.278055	0.1608447	-68.326555	0.15617359	-80.747488	
4.41	0.063782397	-91.034702	0.16082388	-69.824798	0.16060184	-69.831498	0.16340381	-82.208824	
4.51	0.066261632	-91.087402	0.16063902	-71.419427	0.16038031	-71.392827	0.16563365	-81.949217	
4.61	0.068762417	-90.973266	0.16034101	-72.931089	0.16015652	-72.916189	0.16554131	-82.640522	
4.71	0.071618572	-90.288391	0.16021528	-74.433841	0.15990202	-74.440441	0.1660364	-84.466314	
4.81	0.073861529	-89.733942	0.16002133	-75.97311	0.15972683	-75.96481	0.17279271	-85.232151	
4.91	0.076527896	-88.916747	0.15965097	-77.538082	0.1594122	-77.498282	0.1729495	-84.358771	
5.01	0.078613765	-88.074785	0.15944772	-79.018021	0.15919093	-78.993821	0.17161029	-85.30837	
5.11	0.081343078	-86.49799	0.15929448	-80.482558	0.15907456	-80.483958	0.17239115	-86.612031	
5.21	0.083180966	-85.498684	0.15914092	-82.029641	0.15892121	-82.021941	0.17766185	-87.114448	
5.31	0.085512072	-84.027388	0.15882309	-83.518775	0.1585308	-83.581175	0.17646428	-85.876265	
5.41	0.08727677	-82.294619	0.15863732	-85.052649	0.15840007	-85.029949	0.17458007	-87.094935	
5.51	0.089409827	-80.65904	0.15859773	-86.523385	0.15828762	-86.545585	0.17654895	-87.883905	
5.61	0.091238673	-78.548499	0.15830084	-88.032555	0.15810049	-88.040955	0.18021044	-87.884542	
5.71	0.092302466	-76.792456	0.15811053	-89.580866	0.15774689	-89.575466	0.17784624	-86.485436	
5.81	0.094034493	-74.405621	0.1580102	-91.034377	0.15773756	-91.073577	0.17495223	-87.639316	
5.91	0.094886846	-72.467948	0.15787998	-92.559556	0.15766201	-92.558356	0.17789321	-87.940832	
6.01	0.096261303	-70.198442	0.15777648	-94.073082	0.1575768	-94.102682	0.1795438	-87.051762	
6.11	0.097215947	-67.873102	0.15756699	-95.610577	0.15729512	-95.606677	0.17555148	-85.539681	
6.21	0.098161362	-64.856826	0.15750356	-97.138632	0.1572137	-97.119732	0.17126301	-86.563689	
6.31	0.098518683	-62.703839	0.15744474	-98.666315	0.15720927	-98.624415	0.17311379	-86.219685	
6.41	0.099259057	-59.619309	0.1572679	-100.1659	0.15692426	-100.1569	0.17111072	-84.883412	
6.51	0.099116394	-56.655087	0.15706834	-101.75907	0.15685149	-101.68867	0.16551972	-83.373794	
6.61	0.098908171	-53.486323	0.15722853	-103.31471	0.1569211	-103.27711	0.15909855	-84.189619	
6.71	0.09842674	-50.734251	0.15715143	-104.8771	0.15684415	-104.8596	0.15887827	-83.866819	
6.81	0.09823296	-47.706766	0.15704908	-106.43776	0.15672396	-106.43916	0.15349293	-82.460264	
6.91	0.097375149	-44.416339	0.15699565	-108.02389	0.15670672	-108.04529	0.14632337	-81.756797	
7.01	0.096154963	-41.477308	0.15709178	-109.67145	0.15678463	-109.64365	0.13852455	-82.810447	
7.11	0.094932044	-38.254299	0.15700643	-111.29686	0.15678967	-111.28016	0.13739925	-83.070953	
7.21	0.093051211	-34.883927	0.15681755	-112.88874	0.15654697	-112.87904	0.1293718	-81.506921	
7.31	0.091486669	-31.190552	0.1569675	-114.54044	0.15664255	-114.53404	0.12096379	-82.572379	
7.41	0.089335123	-27.868091	0.15710926	-116.19998	0.15672987	-116.19328	0.11410148	-84.509192	
7.51	0.087251256	-23.896084	0.15710621	-117.85587	0.15687125	-117.85787	0.11149974	-85.416471	
7.61	0.0847449	-20.386849	0.15705277	-119.53652	0.1567096	-119.53612	0.10293732	-84.473439	
7.71	0.082222389	-16.357814	0.15713934	-121.25965	0.15683209	-121.22375	0.093678173	-87.269437	
7.81	0.078894804	-12.435255	0.15705312	-122.96949	0.15689048	-122.99939	0.08722986	-90.626987	
7.91	0.076152814	-8.0926112	0.15711431	-124.744	0.15678906	-124.7296	0.083290554	-92.926017	
8.01	0.073094157	-3.3803302	0.15692423	-126.47646	0.15665347	-126.46896	0.07359923	-94.244311	
8.11	0.069402461	1.4742982	0.15690912	-128.23137	0.15672858	-128.25357	0.065704943	-101.69243	
8.21	0.065828881	6.7267557	0.15687671	-130.04614	0.15651591	-130.01774	0.061456084	-108.87559	
8.31	0.062625682	12.739796	0.15682805	-131.81316	0.15655745	-131.79796	0.058201701	-114.96859	
8.41	0.05927809	19.248322	0.15665672	-133.53725	0.15644044	-133.55425	0.050908216	-123.41596	
8.51	0.055900648	26.571616	0.15668013	-135.38044	0.15640978	-135.40324	0.051063085	-139.06492	
8.61	0.053212466	34.363301	0.15653326	-137.2238	0.15633515	-137.2222	0.055388158	-148.97212	
8.71	0.051020655	43.532278	0.15644993	-139.05148	0.15614402	-139.02128	0.058359888	-156.79159	
8.81	0.049072492	53.440293	0.15623193	-140.87764	0.15594441	-140.87834	0.061574848	-167.6258	
8.91	0.047739374	63.921697	0.15621806	-142.72098	0.15591261	-142.75338	0.073458118	-175.06736	
9.01	0.047508526	73.747347	0.15602342	-144.57848	0.15573627	-144.58598	0.082030182	-177.45139	
9.11	0.049601648	84.084859	0.15576519	-146.38176	0.15551433	-146.37396	0.090713328	179.86886	
9.21	0.051197221	95.10851	0.15547273	-148.18151	0.15527596	-148.19511	0.09751291	176.35354	
9.31	0.055016961	103.58191	0.15529694	-150.13616	0.15501113	-150.10576	0.11178959	173.95591	
9.41	0.05966294	113.07976	0.15495077	-151.95967	0.15471903	-151.93967	0.11964263	175.24494	
9.51	0.06448488	119.96363	0.15426829	-153.70019	0.15401984	-153.69039	0.12598324	173.4084	
9.61	0.069667229	126.58007	0.1539235	-155.45432	0.15364022	-155.44632	0.13641832	172.53228	
9.71	0.074600397	132.92327	0.15364483	-157.21842	0.15329146	-157.18022	0.14652253	172.51796	
9.81	0.07975938	138.46265	0.15320539	-158.9618	0.15292344	-158.9716	0.15370409	173.27531	
9.91	0.085156296	143.14278	0.15271235	-160.6153	0.15237866	-160.563	0.15940128	172.54334	
10.01	0.090617588	147.37434	0.15241773	-162.33358	0.15204967	-162.35568	0.16909192	172.2495	
10.11	0.096747293	151.57153	0.15188461	-164.06162	0.15169239	-164.06592	0.17818158	172.8248	
10.21	0.10211173	155.30279	0.15140024	-165.71883	0.151139	-165.73623	0.18377843	174.0899	
10.31	0.10808168	159.20368	0.15093076	-167.35622	0.15056629	-167.37442	0.18774241	173.65345	
10.41	0.11303746	161.90722	0.1504358	-169.01806	0.15010709	-168.97626	0.19688864	174.00067	
10.51	0.1193967	164.91668	0.15000482	-170.58604	0.14974599	-170.55914	0.20433673	174.98216	
10.61	0.1246895	167.98686	0.14967982	-172.1582	0.14952481	-172.1269	0.2084687	176.09592	
10.71	0.12989637	170.65922	0.14938434	-173.77378	0.14904076	-173.71968	0.21229985	175.82748	
10.81	0.13517982	173.01307	0.14903174	-175.41391	0.14880885	-175.39111	0.2202815	176.40689	
10.91	0.1397406	175.42203	0.14870178	-176.97406	0.1484452	-176.97836	0.2243235	177.64091	
11.01	0.14506633	177.33481	0.14828666	-178.55003	0.14804784	-178.55943	0.22597066	178.42322	
11.11	0.14930642	179.6326	0.1478689	179.87608	0.14764776	179.87728	0.22789586	178.43811	
11.21	0.15323181	-178.7105	0.14754786	178.29024	0.1473272	178.28924	0.2331313	178.93284	
11.31	0.15711812	-177.15942	0.1472368	176.67839	0.14696583	176.74009	0.23453811	179.9175	
11.41	0.16154985	-175.78951	0.14686073	175.1848	0.14660733	175.2114	0.23422251	-179.45771	
11.51	0.16494434	-174.30875	0.14654638	173.63311	0.14625984	173.66191	0.23403297	-179.82077	
11.61	0.16827923	-173.32163	0.14606118	172.03187	0.14596032	172.04437	0.23858822	-179.77468	
11.71	0.17154676	-172.2105	0.14583311	170.47058	0.14564854	170.50798	0.23790762	-179.03884	
11.81	0.17469517	-171.31178	0.14550741	168.92449	0.14530652	168.92689	0.23752156	-179.31235	
11.91	0.17769298	-170.57942	0.14517314	167.34325	0.14482258	167.34385	0.23775671	-179.61355	
12.01	0.18087576	-169.90004	0.1448049	165.71819	0.14460498	165.72829	0.24103239	-179.74463	
12.11	0.18388157	-169.39489	0.14437756	164.13674	0.14427787	164.17654	0.23997509	-179.28922	
12.21	0.1871346	-168.99195	0.14414093	162.58356	0.14390879	162.57116	0.23958851	-179.94422	
12.31	0.19041234	-168.73742	0.14366381	160.87885	0.14349851	160.88685	0.24143995	179.68043	
12.41	0.19357417	-168.8142	0.14304702	159.17592	0.14276732	159.18812	0.24491123	179.5328	
12.51	0.1957262	-168.99503	0.14236896	157.62677	0.14204152	157.62117	0.24371944	-179.96155	
12.61	0.19756759	-168.8412	0.14165051	156.22592	0.1414061	156.23722	0.24416892	179.00977	
12.71	0.20086704	-168.10851	0.14145574	154.76649	0.14116291	154.77539	0.24755441	178.87527	
12.81	0.20427707	-167.80879	0.14120089	153.25061	0.14094103	153.24551	0.2502234	178.83236	
12.91	0.20869495	-167.48657	0.14111071	151.66137	0.1409159	151.65747	0.2505896	179.26377	
13.01	0.21269789	-167.34627	0.14085186	150.08342	0.14056027	150.08102	0.25173328	178.52039	
13.11	0.21797173	-167.27952	0.14043661	148.42635	0.14016202	148.47315	0.25563973	178.48916	
13.21	0.22269385	-167.07697	0.13998007	146.80573	0.13978682	146.83083	0.2578515	178.61305	
13.31	0.22724556	-167.00906	0.13956772	145.16991	0.13931087	145.19221	0.25968651	178.89741	
13.41	0.23256509	-166.89822	0.13910811	143.6482	0.13880415	143.6662	0.26167158	178.54207	
13.51	0.23818819	-166.59984	0.13855302	142.12122	0.13829803	142.10832	0.26709286	178.71522	
13.61	0.24410146	-166.48895	0.13809604	140.51986	0.13792127	140.54206	0.2703547	179.26141	
13.71	0.25105104	-166.21004	0.13772174	138.962	0.13754744	138.9396	0.2726262	179.747	
13.81	0.25756412	-165.69075	0.13730098	137.38799	0.13706407	137.40719	0.27604051	179.73442	
13.91	0.26397526	-165.40216	0.13668013	135.84011	0.13649143	135.83271	0.28254284	-179.45741	
14.01	0.27162984	-165.00906	0.13627597	134.29275	0.13597819	134.28335	0.28472417	-178.50405	
14.11	0.27855866	-164.34832	0.13568781	132.71416	0.13543809	132.68766	0.2886522	-177.70435	
14.21	0.28504052	-163.77758	0.13511581	131.15367	0.13488267	131.19727	0.29203617	-177.1118	
14.31	0.29281665	-163.16493	0.1346079	129.68201	0.13431377	129.67991	0.29851004	-175.81902	
14.41	0.29992507	-162.40012	0.13403199	128.13874	0.13380073	128.16254	0.29973169	-174.51142	
14.51	0.3075256	-161.56458	0.13353515	126.66811	0.13332009	126.66691	0.30376524	-173.56328	
14.61	0.31471462	-160.66286	0.1330227	125.18561	0.13273204	125.15731	0.30633228	-172.35644	
14.71	0.32155255	-159.69304	0.13240936	123.68354	0.13216568	123.72454	0.31222277	-170.91107	
14.81	0.32833103	-158.87138	0.13188642	122.17845	0.13170434	122.21275	0.31290249	-169.05004	
14.91	0.33527596	-157.66993	0.1313455	120.74819	0.13111887	120.73979	0.31540344	-167.96588	
15.01	0.34056348	-156.63474	0.13075985	119.29226	0.13053423	119.27766	0.3178977	-166.35654	
15.11	0.34591715	-155.5852	0.13009608	117.88325	0.12993143	117.90615	0.32161879	-164.86755	
15.21	0.35094775	-154.46335	0.12959177	116.55275	0.12945756	116.53135	0.32200585	-162.67549	
15.31	0.35591927	-153.26514	0.12931742	115.19949	0.12919837	115.20619	0.32302859	-161.4657	
15.41	0.3598752	-152.18727	0.12902541	113.77665	0.12878795	113.82515	0.32521179	-159.49523	
15.51	0.36330673	-150.99302	0.12858545	112.4498	0.12849665	112.4365	0.3261848	-157.7063	
15.61	0.36453527	-149.70222	0.12827747	110.96953	0.12805613	110.97723	0.32511922	-155.43922	
15.71	0.36474152	-148.40124	0.12783331	109.62264	0.12775975	109.62854	0.32365986	-154.11782	
15.81	0.36687135	-146.85464	0.1276865	108.35477	0.12742217	108.38337	0.32540042	-152.07304	
15.91	0.36840947	-145.50435	0.12751799	106.94204	0.12741526	106.97474	0.32348652	-149.93202	
16.01	0.36732961	-144.17253	0.12740872	105.51559	0.12710105	105.48599	0.3205636	-147.80508	
16.11	0.36439255	-142.70188	0.12714545	104.05213	0.12694068	104.07143	0.31712724	-146.22805	
16.21	0.36243235	-140.825	0.12663435	102.76954	0.12653233	102.81784	0.31700436	-144.12424	
16.31	0.36278855	-138.91492	0.12672786	101.53814	0.12648007	101.53924	0.31210116	-141.76384	
16.41	0.36221397	-137.26035	0.12700179	100.17347	0.12676806	100.20847	0.30670554	-139.8269	
16.51	0.35998334	-135.97334	0.12738908	98.708663	0.1272132	98.714363	0.30016757	-138.028	
16.61	0.35656632	-134.88923	0.12770385	97.24469	0.12761567	97.30619	0.29601543	-136.2897	
16.71	0.35211887	-133.78296	0.12807173	95.712383	0.12782131	95.700283	0.28971887	-133.96511	
16.81	0.34465557	-132.72607	0.12862928	94.128165	0.12842212	94.158765	0.28175574	-131.94072	
16.91	0.33747888	-131.6597	0.12927279	92.42247	0.12909431	92.41207	0.27332712	-130.18398	
17.01	0.32764396	-130.80363	0.12982735	90.570376	0.1295735	90.582076	0.26615373	-128.4197	
17.11	0.31708797	-130.15294	0.13009171	88.73893	0.12997194	88.71153	0.25671255	-126.26589	
17.21	0.30358889	-129.89122	0.13058008	86.815275	0.1303998	86.819275	0.2461015	-124.30573	
17.31	0.28804734	-129.50981	0.13101028	84.795064	0.13076917	84.802863	0.23418316	-122.65908	
17.41	0.26800575	-129.24003	0.13128568	82.717434	0.13104406	82.744033	0.22363737	-120.91712	
17.51	0.24603332	-128.42484	0.13129762	80.57793	0.13114654	80.57853	0.20938098	-119.04513	
17.61	0.22459541	-126.64238	0.13151201	78.576832	0.1314212	78.600532	0.19544824	-117.84983	
17.71	0.20695879	-124.71638	0.13232861	76.466303	0.13206987	76.504803	0.18074772	-116.46047	
17.81	0.18648039	-124.79698	0.13310999	73.933531	0.13280385	73.949131	0.1673986	-115.17205	
17.91	0.16407679	-123.25294	0.13248888	71.318215	0.13230597	71.325315	0.14940454	-112.95441	
18.01	0.14636068	-119.37659	0.13207287	69.019622	0.13184499	69.056021	0.13021051	-113.415	
18.11	0.13642935	-119.04718	0.1323109	66.896933	0.13196101	66.888535	0.11350924	-112.1507	
18.21	0.12404635	-122.98541	0.13305713	64.361071	0.13284284	64.367972	0.092082729	-113.17425	
18.31	0.10632764	-129.63449	0.1334325	61.619637	0.13324828	61.595836	0.072458365	-112.63365	
18.41	0.085754214	-140.86385	0.13337127	58.637904	0.13323315	58.683304	0.047217984	-120.70427	
18.51	0.068013444	-156.32473	0.13322266	56.067029	0.13291626	56.102329	0.034064586	-135.79838	
18.61	0.061034486	-178.41488	0.13359352	53.372395	0.13336302	53.392595	0.019860052	-174.47891	
18.71	0.066759987	159.67076	0.13400055	50.390154	0.13383095	50.376454	0.02584205	133.70995	
18.81	0.084640602	137.25551	0.13363037	46.875175	0.13344588	46.832075	0.049498278	107.27334	
18.91	0.11230543	124.20086	0.13298318	43.417967	0.13275372	43.429265	0.073883611	106.05677	
19.01	0.13855222	115.06366	0.1313151	40.254157	0.13101308	40.295856	0.096627343	101.72625	
19.11	0.16216537	108.01667	0.12939991	37.388318	0.1292659	37.384722	0.12164011	101.41206	
19.21	0.18595744	106.00346	0.1285201	34.63119	0.12828357	34.63739	0.1450707	100.15592	
