!
! Hittite Microwave Corporation
! 2 Elizabeth Drive
! Chelmsford, MA 01824
! http://www.hittite.com
! Tel: 978-250-3343
! Fax: 978-250-3373
! 
! Device:      HMC424LP3
! Description: 0.5 dB GaAs MMIC 6-Bit Digital Attenuator
! Frequency:    DC -  13.00 GHz
! Package:     LP3  - 3x3 mm Quad Flatpack No-Lead (QFN) Plastic Package: 16 pin
! Ports:       2 RF, 7 DC
!              Pad  1  = Ground
!              Pad  2  = RF IN   = Port 1
!              Pad  3  = Ground
!              Pad  4  = V6
!              Pad  5  = V5
!              Pad  6  = V4
!              Pad  7  = V3
!              Pad  8  = V2
!              Pad  9  = V1
!              Pad 10  = Ground
!              Pad 11  = RF OUT  = Port 2
!              Pad 12  = Ground
!              Pad 15  = VEE
!
! Control:     -5 Volt control voltage
! State:        0 
! Attenuation:  0.0 dB
! Voltages:    Vdd = -5.00 Volts  Idd =  -2.191 mA
!              V1  = 0.00 Volts  I1  =  30.0 uA
!              V2  = 0.00 Volts  I2  =  29.0 uA
!              V3  = 0.00 Volts  I3  =  30.0 uA
!              V4  = 0.00 Volts  I4  =  30.0 uA
!              V5  = 0.00 Volts  I5  =  29.0 uA
!              V6  = 0.00 Volts  I6  =  30.0 uA
!
! Data:    The device was measured on evaluation board 105354-1. 
!          Data was collected using a calibrated network analyzer.
!          The evaluation circuit board was modeled and simulated.  This was use
!          to removed the evaluation board circuit from the measured data.
!          The reference plane is the edge of the package pin.
!
! Misc:    Lot xxxx, Unit 1
!          Application 20120001, Data collected in Application 20090083
!
! Date Measured:  2009-09-15
! Date:           2012-05-14  MJV
! Note: 
!   Hittite supplies this data as a sample of measured data at the package pin
!   for this product.  Your particular data for this product may vary.
!   Data was taken at 25 degrees C.
!   Hittite reserves the right to change this data at anytime.
!
# GHz S MA R 50

0.01	0.2187527	1.0755717	0.77741662	-1.2912482	0.77562861	-1.3067482	0.215199	1.7310395	
0.11	0.21225846	-3.2661583	0.77429873	-2.4830606	0.7734078	-2.4687606	0.21019929	-2.3439701	
0.21	0.21217774	-6.0487767	0.7727097	-4.324107	0.77226502	-4.284807	0.20963622	-6.0289013	
0.31	0.21456756	-8.5447905	0.77142587	-6.085835	0.77080443	-6.096535	0.21454157	-8.527822	
0.41	0.21492194	-11.558654	0.77077569	-7.9020346	0.77086444	-7.9121346	0.21539328	-10.671149	
0.51	0.21592015	-14.449968	0.76919034	-9.7856139	0.7688362	-9.8263139	0.21362495	-13.353064	
0.61	0.2161937	-16.939061	0.76818252	-11.558782	0.76756369	-11.553482	0.21406217	-16.741975	
0.71	0.21961941	-19.444481	0.76730185	-13.354361	0.76650721	-13.372861	0.22001519	-19.174939	
0.81	0.22049654	-22.348843	0.76616886	-15.178914	0.76528728	-15.167314	0.21930207	-20.805852	
0.91	0.22120852	-24.611953	0.7641375	-16.964466	0.76334614	-16.978666	0.21894119	-23.912504	
1.01	0.22294079	-26.394566	0.76296969	-18.691431	0.76244283	-18.686631	0.22158088	-26.482055	
1.11	0.22543391	-28.775323	0.76178022	-20.472671	0.76142949	-20.512071	0.22726833	-28.047838	
1.21	0.22591713	-31.159076	0.76023029	-22.242145	0.75944298	-22.196645	0.22398094	-29.184764	
1.31	0.22611008	-33.015428	0.75873827	-23.99988	0.75821433	-23.96948	0.2257836	-32.279022	
1.41	0.2285237	-34.508921	0.75794043	-25.692217	0.75741704	-25.679017	0.22961499	-33.85692	
1.51	0.23027604	-36.753614	0.75682326	-27.473573	0.75621358	-27.431273	0.23238089	-34.879179	
1.61	0.23014356	-38.736836	0.75510891	-29.199461	0.75441374	-29.214361	0.22816842	-36.135053	
1.71	0.2287512	-40.163821	0.75364928	-30.906995	0.75321557	-30.880595	0.22963729	-38.873225	
1.81	0.23084118	-41.725504	0.75277784	-32.575637	0.75251788	-32.574737	0.23262797	-40.083204	
1.91	0.23064132	-43.789284	0.75206132	-34.336815	0.7511095	-34.322215	0.2323925	-41.159644	
2.01	0.22814661	-45.556337	0.74987846	-36.024281	0.74927438	-36.025981	0.22817383	-42.770899	
2.11	0.22715895	-46.802587	0.74895701	-37.673956	0.748526	-37.686956	0.22980559	-45.604005	
2.21	0.22858528	-48.645386	0.74826725	-39.426341	0.74740627	-39.436941	0.2328775	-46.709096	
2.31	0.22794729	-50.73687	0.74766098	-41.175301	0.74662876	-41.079701	0.23178222	-47.869693	
2.41	0.22517636	-52.392036	0.74548447	-42.807813	0.74488392	-42.782913	0.22875716	-50.018668	
2.51	0.22522716	-53.827568	0.74547626	-44.504136	0.74418998	-44.454336	0.23171897	-52.732733	
2.61	0.2260595	-56.103011	0.74448415	-46.237999	0.74397005	-46.197699	0.23467213	-53.545543	
2.71	0.22448608	-58.431267	0.74316399	-47.966513	0.74239435	-47.930213	0.23155362	-55.322781	
2.81	0.22224221	-60.209627	0.74199791	-49.575838	0.74148553	-49.607538	0.23048348	-57.811215	
2.91	0.22388058	-62.196022	0.74152111	-51.328145	0.74092375	-51.325245	0.23387043	-60.279342	
3.01	0.22383565	-64.897438	0.74051124	-53.097653	0.73965919	-53.074353	0.23633974	-61.122073	
3.11	0.22144599	-67.302432	0.73848458	-54.780004	0.73797463	-54.758904	0.23129676	-63.297361	
3.21	0.22030215	-69.325842	0.737148	-56.470537	0.73689344	-56.444637	0.23152995	-66.134082	
3.31	0.22077808	-71.665801	0.73647248	-58.167852	0.73562507	-58.113152	0.23462841	-68.128498	
3.41	0.22070904	-74.631576	0.73477744	-59.928589	0.73418552	-59.913789	0.23432468	-69.35526	
3.51	0.21870952	-76.835708	0.73311262	-61.565499	0.73226908	-61.557499	0.23047046	-71.86143	
3.61	0.21894007	-79.014405	0.73170209	-63.234694	0.73119682	-63.252194	0.23255957	-75.003261	
3.71	0.22061211	-81.464535	0.73037117	-64.944437	0.72969878	-64.929037	0.23552576	-76.725984	
3.81	0.22045785	-84.091257	0.72848029	-66.662357	0.72772586	-66.654157	0.23379324	-78.09616	
3.91	0.21877871	-86.038234	0.72638528	-68.25284	0.72605084	-68.25554	0.23031162	-81.026426	
4.01	0.22907994	-86.119885	0.72738112	-69.874273	0.72679516	-69.864173	0.244043	-81.868358	
4.11	0.23025664	-88.268104	0.72532552	-71.577467	0.72499157	-71.588967	0.24586024	-82.970737	
4.21	0.2307885	-90.222394	0.72365158	-73.233181	0.72323513	-73.225781	0.24438448	-84.269179	
4.31	0.23101211	-91.34159	0.72226063	-74.829752	0.72118045	-74.840252	0.24294887	-86.679606	
4.41	0.23328541	-92.636987	0.72088947	-76.521127	0.72055756	-76.512327	0.24889788	-88.154375	
4.51	0.23372735	-94.305069	0.71893955	-78.177649	0.71811232	-78.187049	0.24843433	-88.336543	
4.61	0.23297103	-95.511704	0.71693705	-79.789953	0.71660697	-79.788653	0.24597368	-89.312017	
4.71	0.23365375	-96.186908	0.71619752	-81.388573	0.71529108	-81.384973	0.2447599	-91.071505	
4.81	0.23489313	-97.038678	0.7149388	-83.005856	0.71419839	-83.014756	0.2494486	-91.794	
4.91	0.23413048	-98.17854	0.71253784	-84.664737	0.71179991	-84.639637	0.24670411	-91.492798	
5.01	0.2328672	-98.467248	0.71109749	-86.209013	0.71077009	-86.203713	0.24318359	-92.330375	
5.11	0.23322365	-98.50524	0.71043277	-87.765847	0.70977873	-87.771647	0.24250108	-93.547055	
5.21	0.23351577	-99.102325	0.70934522	-89.385697	0.708937	-89.372297	0.24621305	-93.786038	
5.31	0.23221521	-99.451581	0.70739843	-90.968073	0.70707273	-90.988873	0.24221602	-92.937535	
5.41	0.2308802	-99.02866	0.70705467	-92.534613	0.70648508	-92.505913	0.23927861	-93.89976	
5.51	0.23194795	-98.783379	0.70669273	-94.06102	0.70604214	-94.07932	0.24009919	-94.405936	
5.61	0.23167513	-98.758837	0.70577424	-95.676735	0.70520569	-95.642235	0.24329459	-94.079018	
5.71	0.22935769	-98.619491	0.70491995	-97.259645	0.70435208	-97.227545	0.23998984	-93.004133	
5.81	0.22932376	-97.865849	0.70503406	-98.794868	0.7044661	-98.803368	0.23763652	-93.931094	
5.91	0.22879653	-97.909033	0.70476346	-100.37526	0.70435789	-100.38846	0.2411494	-93.987455	
6.01	0.22775449	-97.671923	0.70441292	-101.97887	0.70441292	-101.99557	0.24348599	-93.143097	
6.11	0.22572104	-97.254168	0.70404563	-103.57899	0.7038025	-103.59579	0.23975574	-92.106847	
6.21	0.22469872	-96.574857	0.70508112	-105.16631	0.70418876	-105.14741	0.23769556	-92.936407	
6.31	0.22376415	-96.842904	0.7053981	-106.80025	0.70458645	-106.78745	0.24143767	-92.826077	
6.41	0.22018833	-96.487437	0.7051673	-108.41471	0.70427482	-108.40711	0.24096665	-92.009438	
6.51	0.2169142	-96.145023	0.70542585	-110.07028	0.70469529	-110.01568	0.23726746	-91.418434	
6.61	0.21520896	-96.059901	0.70699413	-111.71009	0.70634327	-111.70419	0.23419858	-92.824563	
6.71	0.21174916	-96.796492	0.70792642	-113.40141	0.70703045	-113.39751	0.23653753	-93.207841	
6.81	0.20733477	-97.070317	0.70816647	-115.0806	0.70751452	-115.067	0.23315865	-93.133365	
6.91	0.20346039	-97.552171	0.70924933	-116.78385	0.70867798	-116.79155	0.22839669	-94.035226	
7.01	0.2001374	-98.765621	0.71135171	-118.55484	0.71053321	-118.54034	0.22389087	-96.300995	
7.11	0.19414345	-100.61397	0.71234991	-120.33714	0.71210391	-120.31394	0.2256553	-97.70823	
7.21	0.18791923	-102.17823	0.71297614	-122.11062	0.71256584	-122.09662	0.21913839	-98.785489	
7.31	0.18244521	-104.39222	0.71501651	-123.95089	0.71460503	-123.93949	0.21370867	-101.77192	
7.41	0.17659811	-107.43325	0.71740845	-125.8394	0.71658298	-125.8394	0.21072016	-105.35022	
7.51	0.16880429	-111.03311	0.71861663	-127.77834	0.71762451	-127.74934	0.21013909	-108.0152	
7.61	0.16174134	-114.7729	0.71880986	-129.68434	0.71781747	-129.65014	0.20209337	-110.53257	
7.71	0.15644261	-119.29933	0.72050147	-131.65814	0.71950674	-131.60494	0.19670108	-115.35262	
7.81	0.15088269	-125.26088	0.72114419	-133.66497	0.72056325	-133.65947	0.19391009	-120.1429	
7.91	0.14483601	-131.22466	0.72134228	-135.69768	0.72084417	-135.68208	0.19241862	-124.22878	
8.01	0.14052474	-137.76411	0.72090673	-137.71891	0.72007723	-137.69631	0.1845396	-128.86934	
8.11	0.14007793	-145.00658	0.72147735	-139.78412	0.72097915	-139.77862	0.18273792	-135.59879	
8.21	0.13961836	-153.00736	0.72060665	-141.90142	0.71961178	-141.89902	0.18270322	-141.34739	
8.31	0.14122433	-160.50006	0.71965044	-143.95927	0.7191535	-143.92987	0.18285056	-146.41455	
8.41	0.14510864	-167.61192	0.71797704	-146.01616	0.71706835	-146.00326	0.17900461	-152.85405	
8.51	0.15249713	-174.55995	0.71726328	-148.19785	0.71627303	-148.18105	0.18486373	-160.12122	
8.61	0.15897122	178.80351	0.71453672	-150.30382	0.7139611	-150.28952	0.19078804	-165.32365	
8.71	0.16727435	173.14112	0.71216748	-152.34004	0.71142994	-152.34104	0.19444475	-170.14968	
8.81	0.17710869	168.27441	0.70920044	-154.41889	0.70813979	-154.42419	0.19781728	-176.17457	
8.91	0.18767886	164.0526	0.70649254	-156.5293	0.70592341	-156.5271	0.20952101	178.97577	
9.01	0.19600325	160.14115	0.70297947	-158.55767	0.70192812	-158.54167	0.21609852	175.86217	
9.11	0.20454301	156.7885	0.69929417	-160.51824	0.69865039	-160.49644	0.22279572	172.73503	
9.21	0.21381535	154.63285	0.69563568	-162.45029	0.69523536	-162.42499	0.22714173	169.25593	
9.31	0.22220922	152.00296	0.69245792	-164.46909	0.69150191	-164.43509	0.238759	166.5228	
9.41	0.22955342	150.25086	0.68855154	-166.33202	0.68799685	-166.30232	0.24202945	165.65599	
9.51	0.2351469	148.96124	0.68452486	-168.11649	0.68373723	-168.08209	0.2444652	163.36804	
9.61	0.24133233	147.87155	0.68112917	-169.97345	0.68018881	-169.93235	0.25031856	161.61868	
9.71	0.24585319	147.34181	0.67846799	-171.76416	0.67729733	-171.71976	0.25493626	160.73621	
9.81	0.24847972	146.785	0.6749212	-173.50812	0.67414462	-173.49542	0.25588277	160.40092	
9.91	0.25017454	146.62932	0.67130562	-175.19494	0.67053319	-175.19214	0.25597389	159.2942	
10.01	0.25238475	146.40632	0.66842435	-176.96436	0.66780899	-176.94136	0.26007617	158.70722	
10.11	0.25327308	146.63081	0.66578812	-178.67406	0.66532837	-178.65386	0.26247998	158.91409	
10.21	0.25286224	146.92409	0.66320547	179.66711	0.66228985	179.67151	0.26074966	159.65525	
10.31	0.2522435	147.82456	0.66040278	178.01877	0.65926329	178.06107	0.25897134	159.28072	
10.41	0.2515512	148.16561	0.65811738	176.34888	0.65713313	176.38348	0.26286573	159.94271	
10.51	0.2500373	149.11226	0.65555483	174.71539	0.65495132	174.76229	0.26414879	160.9702	
10.61	0.2483284	150.39778	0.65392357	173.13875	0.65317115	173.16065	0.26220284	162.15022	
10.71	0.24647867	151.66883	0.65199289	171.51588	0.65094285	171.54878	0.2615285	162.35208	
10.81	0.24538192	152.8167	0.65019007	169.84624	0.64966629	169.88214	0.2648044	163.49448	
10.91	0.24270807	154.33554	0.64872677	168.25794	0.64812954	168.29334	0.26431561	165.12007	
11.01	0.24202563	155.79851	0.64729118	166.66198	0.64647195	166.70008	0.26202486	166.34391	
11.11	0.24067195	157.46307	0.64578497	165.07899	0.64474493	165.07109	0.26099111	166.90762	
11.21	0.23929276	158.70718	0.64417374	163.42417	0.64343254	163.46227	0.26411765	168.10875	
11.31	0.23798034	160.08745	0.64288941	161.79941	0.64222361	161.84441	0.26276102	169.54397	
11.41	0.2382992	161.51588	0.64197029	160.25801	0.64093639	160.29231	0.26075631	170.71477	
11.51	0.23793413	162.70509	0.64057148	158.63655	0.63990808	158.68035	0.2600964	170.84844	
11.61	0.23706464	163.67793	0.6392281	156.97883	0.63863962	156.99933	0.26403646	171.58067	
11.71	0.23671566	164.83722	0.6379924	155.32724	0.63755184	155.38454	0.26227726	172.62716	
11.81	0.23725409	165.81742	0.63673335	153.7535	0.63629366	153.7491	0.26210276	172.82507	
11.91	0.23711951	166.63065	0.63552111	152.08463	0.63442455	152.12323	0.26256982	172.98295	
12.01	0.23728474	167.37782	0.6342922	150.38239	0.63363531	150.43839	0.26630153	173.33064	
12.11	0.2376762	168.19037	0.63305557	148.71562	0.63254559	148.76542	0.26552735	174.00901	
12.21	0.23908026	168.802	0.6316107	147.11825	0.63095658	147.12295	0.26608795	173.8029	
12.31	0.23999265	169.34688	0.62973687	145.39036	0.62922956	145.41956	0.2692608	173.83515	
12.41	0.24168729	169.86655	0.62735952	143.68497	0.62699849	143.70587	0.27442187	174.10538	
12.51	0.24312032	169.96982	0.6259774	142.08184	0.62518515	142.09114	0.27521856	174.56654	
12.61	0.24424631	170.25388	0.62432376	140.50834	0.62367719	140.53324	0.27656839	173.64545	
12.71	0.24544111	170.96223	0.62351623	138.8609	0.62258372	138.897	0.2809631	173.6418	
12.81	0.24758999	171.53865	0.62203589	137.18778	0.62132015	137.23198	0.28450387	173.80792	
12.91	0.25070954	172.02642	0.6214925	135.4867	0.62063446	135.5374	0.28584362	174.33026	
13.01	0.25318224	172.42423	0.62003389	133.81602	0.61960573	133.87632	0.28871454	173.77284	
13.11	0.25714747	172.97481	0.61813346	132.12205	0.61735114	132.16155	0.2943368	173.9288	
13.21	0.26134165	173.56323	0.61645188	130.43516	0.61581346	130.46046	0.29894092	174.15533	
13.31	0.26550786	173.90952	0.61513395	128.76129	0.61442616	128.77219	0.3027755	174.38687	
13.41	0.27068383	174.30807	0.61339741	127.11772	0.61219804	127.14152	0.30709161	174.03655	
13.51	0.27575243	174.86316	0.61128726	125.45333	0.61037304	125.49323	0.31518512	174.2065	
13.61	0.28195962	175.25325	0.60932486	123.79114	0.60841358	123.81784	0.32079043	174.54259	
13.71	0.28855622	175.71699	0.60736159	122.13423	0.60673259	122.15983	0.32541791	174.78103	
13.81	0.29477467	176.3164	0.60573228	120.50552	0.60475675	120.55522	0.33183874	174.50962	
13.91	0.30138249	176.63073	0.60328907	118.89777	0.60231747	118.91507	0.34116348	174.96424	
14.01	0.30926263	177.02381	0.60138848	117.29102	0.60076566	117.31722	0.34611703	175.37734	
14.11	0.31540538	177.49348	0.59980791	115.67406	0.59870404	115.68196	0.35265313	175.56612	
14.21	0.32114932	177.85389	0.5977688	114.0863	0.5968748	114.1393	0.35844235	175.53291	
14.31	0.32824846	178.23374	0.59549346	112.56014	0.59487675	112.58624	0.36690836	176.0552	
14.41	0.33440509	178.65687	0.59413028	111.00603	0.59337833	111.01923	0.3697339	176.35557	
14.51	0.33956276	179.052	0.59260036	109.46568	0.59185036	109.49978	0.37494089	176.42097	
14.61	0.34426607	179.52172	0.59148585	107.94987	0.59066924	107.95047	0.37838817	176.50141	
14.71	0.3480277	179.93908	0.5897467	106.43118	0.58920377	106.46418	0.38374332	176.92764	
14.81	0.35150236	-179.77282	0.58916662	104.91059	0.58835321	104.94299	0.38313803	177.42472	
14.91	0.3534176	-179.18444	0.58835693	103.43051	0.58767995	103.43721	0.38435164	177.2649	
15.01	0.35352342	-178.83723	0.58775076	101.89584	0.58720967	101.92784	0.38369518	177.46999	
15.11	0.35287547	-178.51416	0.58769018	100.43377	0.58701397	100.46047	0.38359689	177.59644	
15.21	0.35110437	-178.13592	0.58792421	98.92133	0.58711252	98.94163	0.37767124	178.11719	
15.31	0.34776335	-177.65766	0.58881197	97.410124	0.58813446	97.419824	0.37354099	177.88989	
15.41	0.34300107	-177.28735	0.58953605	95.856639	0.58872214	95.880339	0.36744529	178.26607	
15.51	0.33690344	-176.80732	0.59026929	94.327537	0.58965799	94.349537	0.3599848	178.46999	
15.61	0.32688071	-176.34659	0.59136264	92.694878	0.5906822	92.718378	0.34694478	178.90581	
15.71	0.31575579	-175.88985	0.59338568	91.126608	0.59249824	91.146108	0.33459392	178.50032	
15.81	0.30408887	-174.98885	0.59548684	89.529084	0.59473318	89.531684	0.32250402	179.15458	
15.91	0.29075548	-173.96302	0.59757093	87.745137	0.59688335	87.765837	0.3059403	179.67034	
16.01	0.27476876	-173.01577	0.59957498	85.920996	0.59888509	85.951296	0.28634855	-179.89968	
16.11	0.25731433	-171.71986	0.60149832	84.154023	0.60080622	84.177423	0.26722346	-179.92732	
16.21	0.2382677	-169.68732	0.60346141	82.380539	0.60283645	82.433239	0.2479484	-178.59697	
16.31	0.22002925	-166.80759	0.60674927	80.481977	0.60591159	80.513677	0.22276182	-177.17974	
16.41	0.20149527	-163.15663	0.60933329	78.380465	0.60856211	78.440765	0.19829317	-175.64206	
16.51	0.18342763	-159.30301	0.61185485	76.225747	0.61115083	76.261147	0.17307009	-173.94465	
16.61	0.16652001	-154.61289	0.61314606	74.039827	0.61251107	74.092627	0.15118246	-170.78486	
16.71	0.15105541	-148.64594	0.61346832	71.809681	0.6126919	71.856781	0.12665547	-165.42876	
16.81	0.13607079	-141.23118	0.61336186	69.541006	0.61265611	69.571506	0.1032877	-158.27066	
16.91	0.12527353	-132.19667	0.61345382	67.251285	0.61260689	67.273685	0.083815487	-148.02201	
17.01	0.11761741	-121.79757	0.61263164	64.871331	0.61213812	64.890731	0.07113318	-132.853	
17.11	0.11437372	-112.03923	0.610804	62.466488	0.61024169	62.517988	0.064928357	-111.64224	
17.21	0.11330555	-102.29313	0.60851998	60.000454	0.60767986	60.037153	0.066772693	-90.735137	
17.31	0.11513952	-93.561929	0.60493474	57.522942	0.60458661	57.555942	0.074350039	-74.373849	
17.41	0.11593872	-84.900421	0.6003969	55.067741	0.59970606	55.119239	0.087264381	-63.569433	
17.51	0.1176593	-76.707184	0.59459689	52.689962	0.59350261	52.72196	0.10099289	-54.086877	
17.61	0.12321139	-67.953563	0.58927215	50.528099	0.58845861	50.583699	0.11446199	-48.350835	
17.71	0.13229477	-61.564696	0.58660567	48.420417	0.58566093	48.449417	0.12665236	-45.146904	
17.81	0.13498696	-57.111842	0.58395784	46.039134	0.58342024	46.049234	0.13490742	-43.478259	
17.91	0.13805715	-52.216619	0.57778209	43.745578	0.57738311	43.784278	0.1443905	-39.249174	
18.01	0.14564677	-47.346044	0.5752822	41.773707	0.57475258	41.820005	0.1482974	-37.092112	
18.11	0.14873954	-46.119047	0.57682687	39.702235	0.57622948	39.734035	0.15100679	-36.382668	
18.21	0.14273163	-45.884139	0.57996953	37.129353	0.57950232	37.187053	0.14498318	-34.161386	
18.31	0.13104592	-44.085312	0.58067574	34.343883	0.57994084	34.357183	0.13917453	-30.823204	
18.41	0.11460239	-39.257269	0.57985692	31.356244	0.57912305	31.381644	0.12693923	-24.005021	
18.51	0.10078496	-31.519897	0.57792907	28.689673	0.57733055	28.718673	0.11565549	-19.930911	
18.61	0.08701909	-22.363024	0.5773972	25.986811	0.57653367	26.031411	0.1080247	-12.108389	
18.71	0.073374272	-9.9857843	0.57792175	23.125725	0.57719032	23.139725	0.098940669	-2.2127461	
18.81	0.066686534	14.575622	0.57652107	19.773564	0.57585771	19.742167	0.097723345	15.22035	
18.91	0.075043502	42.249886	0.57433486	16.393422	0.5731459	16.416021	0.099795943	31.635849	
19.01	0.09864908	57.390403	0.56693673	13.214003	0.56628439	13.249003	0.11531793	42.644015	
19.11	0.1275079	63.71829	0.55930693	10.368443	0.5587277	10.387643	0.13071162	51.73425	
19.21	0.15020619	69.072094	0.55564576	7.7299071	0.55494252	7.7445071	0.14711202	58.368955	
19.31	0.17225586	74.503323	0.55491339	4.7408573	0.55401969	4.7747573	0.16825859	65.745063	
19.41	0.19856887	78.475921	0.55152452	1.6090529	0.55101678	1.6245529	0.19089078	70.123424	
