!
! Hittite Microwave Corporation
! 2 Elizabeth Drive
! Chelmsford, MA 01824
! http://www.hittite.com
! Tel: 978-250-3343
! Fax: 978-250-3373
! 
! Device:      HMC424LP3
! Description: 0.5 dB GaAs MMIC 6-Bit Digital Attenuator
! Frequency:    DC -  13.00 GHz
! Package:     LP3  - 3x3 mm Quad Flatpack No-Lead (QFN) Plastic Package: 16 pin
! Ports:       2 RF, 7 DC
!              Pad  1  = Ground
!              Pad  2  = RF IN   = Port 1
!              Pad  3  = Ground
!              Pad  4  = V6
!              Pad  5  = V5
!              Pad  6  = V4
!              Pad  7  = V3
!              Pad  8  = V2
!              Pad  9  = V1
!              Pad 10  = Ground
!              Pad 11  = RF OUT  = Port 2
!              Pad 12  = Ground
!              Pad 15  = VEE
!
! Control:     -5 Volt control voltage
! State:        32 
! Attenuation:  16.0 dB
! Voltages:    Vdd = -5.00 Volts  Idd =  -2.146 mA
!              V1  = 0.00 Volts  I1  =  29.0 uA
!              V2  = 0.00 Volts  I2  =  29.0 uA
!              V3  = 0.00 Volts  I3  =  29.0 uA
!              V4  = 0.00 Volts  I4  =  30.0 uA
!              V5  = 0.00 Volts  I5  =  29.0 uA
!              V6  = -5.00 Volts  I6  =  -1.0 uA
!
! Data:    The device was measured on evaluation board 105354-1. 
!          Data was collected using a calibrated network analyzer.
!          The evaluation circuit board was modeled and simulated.  This was use
!          to removed the evaluation board circuit from the measured data.
!          The reference plane is the edge of the package pin.
!
! Misc:    Lot xxxx, Unit 1
!          Application 20120001, Data collected in Application 20090083
!
! Date Measured:  2009-09-15
! Date:           2012-05-14  MJV
! Note: 
!   Hittite supplies this data as a sample of measured data at the package pin
!   for this product.  Your particular data for this product may vary.
!   Data was taken at 25 degrees C.
!   Hittite reserves the right to change this data at anytime.
!
# GHz S MA R 50

0.01	0.18665038	0.16977396	0.12121549	-0.97654985	0.1211039	-1.4432498	0.047159841	7.4252785	
0.11	0.18237745	-3.1371678	0.12021035	-2.295572	0.12014117	-2.158272	0.043439488	0.26301972	
0.21	0.18287655	-5.6084943	0.12016616	-3.7819088	0.11975183	-3.7598088	0.042872495	-7.2648556	
0.31	0.18410765	-7.9512538	0.11983952	-5.3173996	0.11964652	-5.4664996	0.047937197	-9.88995	
0.41	0.18488088	-10.454568	0.11979395	-6.8953615	0.11953219	-6.9231615	0.048666962	-10.63267	
0.51	0.18645164	-12.880478	0.11956403	-8.5168057	0.11938522	-8.5281057	0.04776512	-12.832681	
0.61	0.18766117	-15.397761	0.11946597	-10.07068	0.11919121	-10.02808	0.049160276	-19.165354	
0.71	0.19031856	-17.721131	0.11932163	-11.592623	0.11911575	-11.590023	0.055492806	-20.689541	
0.81	0.19220123	-19.972234	0.11916617	-13.140591	0.11893317	-13.123891	0.055466806	-19.673273	
0.91	0.19507687	-22.081877	0.11904665	-14.702493	0.1187455	-14.710593	0.056635011	-24.453477	
1.01	0.19714745	-23.97256	0.11880194	-16.166129	0.11863792	-16.232929	0.060053228	-27.701889	
1.11	0.19961237	-26.020969	0.11873186	-17.706809	0.11849971	-17.711409	0.06667465	-27.15573	
1.21	0.2014898	-27.856414	0.1184655	-19.272156	0.11831556	-19.229856	0.065389237	-25.755841	
1.31	0.20384018	-29.730383	0.11834265	-20.769779	0.11811126	-20.722979	0.067690986	-30.227398	
1.41	0.20596661	-31.31487	0.1182462	-22.256806	0.11805576	-22.238206	0.072423273	-30.809696	
1.51	0.20760084	-33.121933	0.11811102	-23.751412	0.11790723	-23.786312	0.076438701	-29.515271	
1.61	0.20979306	-34.648208	0.11791609	-25.252019	0.11769908	-25.274919	0.074441672	-28.514542	
1.71	0.21099539	-36.254717	0.11782672	-26.761208	0.11758279	-26.722708	0.076199862	-32.857774	
1.81	0.21250184	-37.844836	0.11757271	-28.210441	0.11742391	-28.230741	0.080684424	-32.51642	
1.91	0.21304429	-39.350755	0.11760995	-29.728402	0.11727193	-29.659802	0.081743458	-31.916563	
2.01	0.21379502	-40.950268	0.11741024	-31.171146	0.11711323	-31.203446	0.079425227	-32.163862	
2.11	0.21417244	-42.56264	0.11731564	-32.698405	0.11695153	-32.700905	0.081371025	-36.548495	
2.21	0.2144651	-44.311828	0.11717723	-34.124631	0.11684045	-34.168731	0.085873208	-36.117635	
2.31	0.21499429	-45.959998	0.11710216	-35.662349	0.11676559	-35.614849	0.0850707	-36.008824	
2.41	0.21481661	-47.776071	0.11680346	-37.159546	0.1166422	-37.046546	0.083237311	-37.822146	
2.51	0.2148742	-49.577558	0.11667475	-38.648979	0.11650026	-38.586979	0.086026858	-41.918116	
2.61	0.21450224	-51.457829	0.11660683	-40.072962	0.11632525	-40.076362	0.089972396	-41.191655	
2.71	0.21491939	-53.349603	0.11645481	-41.588778	0.11626726	-41.584878	0.087626705	-41.923271	
2.81	0.21395971	-55.366222	0.11629004	-43.035632	0.11614286	-43.058632	0.087037589	-44.714114	
2.91	0.21455197	-57.413231	0.11622388	-44.486897	0.11609015	-44.521697	0.090292279	-48.067321	
3.01	0.21442339	-59.539946	0.1161525	-46.092686	0.11580533	-46.040086	0.093565258	-47.339519	
3.11	0.21473953	-61.701306	0.11598399	-47.517625	0.11571724	-47.528425	0.090150403	-48.563226	
3.21	0.21453571	-63.805425	0.11578312	-48.991653	0.11551682	-49.008053	0.090652633	-52.258399	
3.31	0.21503066	-66.124092	0.11566381	-50.537044	0.11539779	-50.455744	0.093994879	-54.634524	
3.41	0.21564491	-68.342293	0.1154854	-52.012132	0.1152596	-51.942532	0.096087767	-54.340409	
3.51	0.21647593	-70.670518	0.11527645	-53.471506	0.11510405	-53.424806	0.092513793	-56.697944	
3.61	0.21739653	-73.004412	0.11510952	-54.926445	0.11492414	-54.917945	0.094890893	-61.009719	
3.71	0.21920801	-75.215747	0.11495678	-56.409808	0.11474522	-56.407708	0.098882555	-62.774389	
3.81	0.22089345	-77.41969	0.11468428	-57.950349	0.11447322	-57.925949	0.09972159	-62.974555	
3.91	0.22283978	-79.605176	0.11453899	-59.347826	0.1143282	-59.354626	0.097316585	-66.591107	
4.01	0.23094337	-80.795987	0.11444318	-60.774292	0.11429834	-60.759992	0.10980625	-68.374677	
4.11	0.23296814	-82.58396	0.11429165	-62.243009	0.11402879	-62.227509	0.11407501	-68.707515	
4.21	0.23555195	-84.36638	0.11405221	-63.733616	0.11388164	-63.675316	0.11493593	-69.050645	
4.31	0.23826688	-85.908281	0.11383199	-65.143764	0.11370101	-65.181464	0.11494801	-71.823627	
4.41	0.24045986	-87.3416	0.11361704	-66.620094	0.11353859	-66.628794	0.12210492	-73.553383	
4.51	0.2426929	-88.698406	0.11340361	-68.078507	0.11323401	-68.078007	0.12505808	-72.607817	
4.61	0.24480832	-90.040858	0.11320332	-69.477396	0.11299499	-69.499996	0.1255328	-72.815512	
4.71	0.24725458	-91.17801	0.11296956	-70.900193	0.11280061	-70.899693	0.12595817	-74.515216	
4.81	0.24875538	-92.291018	0.1127821	-72.35913	0.11260046	-72.30343	0.13299751	-75.356404	
4.91	0.25076119	-93.34863	0.11252558	-73.789529	0.11226678	-73.760229	0.13454955	-73.638633	
5.01	0.25212173	-94.237049	0.11233663	-75.138298	0.11216862	-75.196098	0.13361598	-74.128386	
5.11	0.25379261	-95.012548	0.11221582	-76.572143	0.11198351	-76.520643	0.13464072	-75.230721	
5.21	0.25425475	-95.779812	0.11200695	-77.955189	0.11180082	-77.939589	0.14049607	-75.700139	
5.31	0.25524354	-96.466816	0.11171536	-79.384444	0.11154828	-79.368744	0.14120663	-73.537706	
5.41	0.25514061	-96.984963	0.11156015	-80.780307	0.1113933	-80.734707	0.13962193	-74.344547	
5.51	0.25536183	-97.548302	0.11148914	-82.084811	0.11124552	-82.094711	0.14214345	-74.945627	
5.61	0.25478096	-97.897707	0.1113202	-83.504239	0.11117931	-83.480039	0.14680735	-74.755972	
5.71	0.25352146	-98.38081	0.11118164	-84.909784	0.11105371	-84.882584	0.14684671	-72.502719	
5.81	0.25195303	-98.662768	0.11116735	-86.255609	0.11096276	-86.245109	0.14439301	-73.078609	
5.91	0.24971693	-99.101541	0.11107317	-87.661787	0.11085599	-87.655387	0.14825109	-73.246463	
6.01	0.2471826	-99.376795	0.11095494	-89.016347	0.11084004	-89.079047	0.15184248	-71.944741	
6.11	0.2443416	-99.646927	0.11093505	-90.412883	0.11071814	-90.399283	0.15067729	-69.533768	
6.21	0.24021134	-99.764284	0.11098798	-91.832698	0.11068173	-91.812698	0.14714384	-69.785418	
6.31	0.23620829	-100.16731	0.11099844	-93.221119	0.11071765	-93.232219	0.15056626	-69.282184	
6.41	0.23092998	-100.25145	0.11088214	-94.608207	0.11066533	-94.609807	0.15139135	-67.309268	
6.51	0.22491752	-100.5812	0.11088487	-96.075862	0.11077003	-96.066962	0.14907925	-64.79566	
6.61	0.21832189	-100.93319	0.11101803	-97.538175	0.11086476	-97.546175	0.14396275	-64.505462	
6.71	0.21157792	-101.54758	0.1111572	-99.007797	0.11081221	-99.007497	0.1456728	-63.904154	
6.81	0.20436838	-101.99172	0.11104629	-100.50828	0.11090575	-100.48548	0.14378968	-61.527956	
6.91	0.19618791	-102.74561	0.11116957	-101.98104	0.11093943	-101.99304	0.13971069	-59.574152	
7.01	0.1880484	-103.68057	0.11129288	-103.53281	0.11112643	-103.52481	0.13343761	-59.133887	
7.11	0.17952095	-104.82436	0.11137117	-105.06862	0.11119181	-105.05562	0.13397198	-59.023143	
7.21	0.17050803	-106.1835	0.1113845	-106.63753	0.11116671	-106.57183	0.13015354	-56.112246	
7.31	0.16092979	-107.88097	0.11152625	-108.19041	0.11130819	-108.19331	0.12360449	-55.261455	
7.41	0.15203086	-110.02313	0.11175865	-109.78661	0.11150161	-109.78411	0.11790424	-55.361603	
7.51	0.14238862	-112.49739	0.11182266	-111.43129	0.11157832	-111.38689	0.11681224	-55.530236	
7.61	0.13360523	-115.67616	0.11186998	-113.05222	0.11158699	-113.03172	0.11245951	-52.685004	
7.71	0.12501883	-119.39378	0.11193465	-114.74216	0.11175437	-114.70336	0.10438082	-52.288215	
7.81	0.11763711	-124.14039	0.11201147	-116.41793	0.11185683	-116.38523	0.098351172	-52.764327	
7.91	0.11061367	-129.17537	0.1120536	-118.10701	0.11180875	-118.08571	0.09524796	-53.217615	
8.01	0.10470025	-135.51546	0.11189842	-119.84733	0.11170535	-119.79133	0.088977441	-50.533957	
8.11	0.10127988	-142.43759	0.1119995	-121.58697	0.11178051	-121.56487	0.079254914	-51.412368	
8.21	0.099533028	-149.84244	0.11189569	-123.30771	0.11165119	-123.29831	0.072577564	-53.14074	
8.31	0.099377235	-157.40265	0.11184175	-125.01794	0.11159737	-124.99244	0.067758547	-54.207972	
8.41	0.10187612	-164.87475	0.11163497	-126.77088	0.11159642	-126.70908	0.059683013	-52.307251	
8.51	0.10641573	-171.83365	0.11173965	-128.56698	0.11144416	-128.53508	0.048465635	-56.979668	
8.61	0.11221612	-177.79991	0.11152394	-130.35995	0.11138279	-130.31405	0.042347805	-65.16981	
8.71	0.11983201	176.64984	0.11140071	-132.08025	0.1111445	-132.05955	0.037176319	-71.66724	
8.81	0.12877105	172.29136	0.11121125	-133.88328	0.11089162	-133.86568	0.028744146	-79.649674	
8.91	0.13842409	168.90062	0.11104115	-135.7003	0.11086232	-135.6913	0.025437031	-108.36836	
9.01	0.14764155	166.20903	0.1108739	-137.47256	0.11064437	-137.47036	0.0294751	-125.55333	
9.11	0.157587	163.48594	0.11052956	-139.19062	0.11037696	-139.19482	0.034548582	-138.91749	
9.21	0.16824349	161.87861	0.11030535	-140.9466	0.11010234	-140.8962	0.038529244	-150.13799	
9.31	0.17776282	160.13531	0.10993154	-142.78787	0.10983034	-142.72537	0.050612056	-160.93261	
9.41	0.18893978	159.11337	0.1096649	-144.51281	0.10943787	-144.43581	0.060227459	-159.83599	
9.51	0.1980874	158.27316	0.10905457	-146.13949	0.1087787	-146.12119	0.06591876	-163.94562	
9.61	0.20775467	157.68598	0.10863151	-147.83661	0.108544	-147.74281	0.076589424	-166.81599	
9.71	0.2163308	157.56129	0.10833852	-149.43756	0.10817649	-149.39956	0.087634957	-167.72377	
9.81	0.22414287	157.39128	0.10792594	-151.08372	0.10769011	-151.04412	0.096537306	-166.83383	
9.91	0.23157677	157.3488	0.10745678	-152.56668	0.10725902	-152.53988	0.10296387	-168.06856	
10.01	0.23816434	157.3094	0.107185	-154.15548	0.1069631	-154.12258	0.11366155	-169.05235	
10.11	0.24489801	157.52293	0.1067264	-155.727	0.10657905	-155.7011	0.12440815	-168.87993	
10.21	0.25044258	157.70388	0.1064046	-157.22904	0.10608657	-157.22384	0.13258254	-167.32175	
10.31	0.25576406	158.16376	0.10590744	-158.67993	0.10566386	-158.63693	0.13791318	-167.76011	
10.41	0.25967297	158.31156	0.10558559	-160.10057	0.10539127	-160.07887	0.14865112	-167.88671	
10.51	0.2644898	158.68071	0.10530884	-161.5644	0.10511504	-161.4908	0.15887463	-167.00381	
10.61	0.26771903	159.14782	0.10507535	-162.95448	0.10495445	-162.94298	0.16574073	-165.67123	
10.71	0.27044794	159.56828	0.10480033	-164.39	0.10459542	-164.4025	0.17117502	-165.97766	
10.81	0.27278762	159.93269	0.10458538	-165.91369	0.1044891	-165.81819	0.18135857	-165.65674	
10.91	0.27432827	160.35253	0.10443083	-167.3176	0.10426265	-167.296	0.188823	-164.34823	
11.01	0.2759643	160.73288	0.10416954	-168.72905	0.10392996	-168.67935	0.19329831	-163.38088	
11.11	0.27623478	161.21919	0.10392662	-170.09826	0.10373535	-170.06496	0.19721733	-163.31459	
11.21	0.27631777	161.48066	0.10371782	-171.53952	0.10352694	-171.51732	0.2049835	-162.98072	
11.31	0.2759161	161.71848	0.10357566	-172.92211	0.10340885	-172.91231	0.20959126	-161.89163	
11.41	0.27585479	161.96675	0.10341184	-174.31243	0.1031265	-174.26413	0.21206912	-161.01934	
11.51	0.27475279	162.23673	0.10328176	-175.69356	0.10303236	-175.64436	0.21358976	-161.26911	
11.61	0.2737692	162.31792	0.10305017	-177.13379	0.10286052	-177.10089	0.22023867	-161.38735	
11.71	0.27231266	162.45788	0.10288605	-178.57976	0.10276766	-178.55896	0.22263081	-160.54213	
11.81	0.27075386	162.56839	0.10276585	-179.96913	0.10255311	-179.96753	0.22424624	-160.72747	
11.91	0.26923716	162.58128	0.10258779	178.58607	0.10230472	178.64477	0.22619294	-160.95432	
12.01	0.26764027	162.57793	0.10237989	177.10389	0.10223854	177.10429	0.23141916	-161.28052	
12.11	0.26610532	162.56195	0.10234318	175.60755	0.10214307	175.70825	0.23298297	-160.67282	
12.21	0.26471366	162.49936	0.10213784	174.24968	0.10184428	174.22428	0.2340546	-161.27822	
12.31	0.26343051	162.44497	0.10190555	172.72212	0.10175314	172.70582	0.23748859	-161.76954	
12.41	0.26245247	162.20298	0.1015058	171.09739	0.10134233	171.13169	0.2431987	-162.22496	
12.51	0.2612627	161.91916	0.1011434	169.67104	0.1009224	169.71734	0.24502142	-161.63165	
12.61	0.25951479	161.69474	0.1006685	168.43505	0.10051794	168.47995	0.24605255	-162.62434	
12.71	0.25767948	161.92211	0.10064315	167.13635	0.10042324	167.15505	0.25156374	-163.08604	
12.81	0.25610193	161.98764	0.10062926	165.71824	0.10038626	165.77664	0.25627284	-163.39009	
12.91	0.2553395	162.22244	0.10062599	164.30406	0.10042924	164.32906	0.25951261	-163.03313	
13.01	0.25447533	162.30097	0.10049691	162.83054	0.10038128	162.90644	0.26172132	-163.83618	
13.11	0.25459436	162.58706	0.10035072	161.33183	0.1001891	161.40953	0.26784397	-164.26323	
13.21	0.25412115	162.99699	0.10021569	159.83759	0.099985197	159.86819	0.27237931	-164.4042	
13.31	0.25381906	163.24988	0.0999534	158.34694	0.09983839	158.41514	0.27676127	-164.35375	
13.41	0.25422194	163.68528	0.099717505	156.91593	0.099430907	156.96933	0.28023435	-164.92231	
13.51	0.25417698	164.33521	0.099420613	155.50082	0.099306217	155.58242	0.28786957	-165.19257	
13.61	0.25473325	164.94974	0.099298994	154.07396	0.099127659	154.09686	0.29376604	-165.0643	
13.71	0.25590269	165.8262	0.099160732	152.61909	0.098932669	152.66749	0.2986317	-164.86459	
13.81	0.25641424	166.8929	0.098938779	151.18022	0.098711226	151.20412	0.30393658	-165.23256	
13.91	0.25728373	167.85286	0.098655215	149.73555	0.098473653	149.73925	0.31324991	-164.9829	
14.01	0.25905301	169.04878	0.098412502	148.26333	0.098299265	148.31143	0.31864941	-164.44036	
14.11	0.25979946	170.51045	0.098161435	146.83797	0.098059776	146.91737	0.32529431	-164.07855	
14.21	0.26052356	171.83449	0.097883842	145.42592	0.097726199	145.46202	0.33122439	-163.90286	
14.31	0.2625464	173.40055	0.09767563	144.04169	0.097450983	144.08949	0.34062226	-163.24465	
14.41	0.26381283	175.10884	0.097457794	142.63787	0.097256038	142.68267	0.34496075	-162.35811	
14.51	0.26544561	176.97518	0.097157541	141.2696	0.097068097	141.3018	0.35171236	-161.87129	
14.61	0.26719367	178.88691	0.096960396	139.89102	0.096726257	139.85962	0.35723881	-161.134	
14.71	0.2682858	-179.0443	0.096612036	138.49745	0.096545322	138.53625	0.36597217	-160.3034	
14.81	0.27014937	-177.14472	0.096375749	137.08805	0.096309198	137.14245	0.3699664	-158.96229	
14.91	0.27186478	-174.74617	0.096115534	135.72787	0.095971788	135.73987	0.37499901	-158.32466	
15.01	0.2729503	-172.62526	0.095834531	134.38649	0.095735283	134.40469	0.38036184	-157.26806	
15.11	0.27390794	-170.45695	0.095537332	133.07474	0.095361507	133.12104	0.38669418	-156.32023	
15.21	0.27518637	-168.23833	0.095303121	131.80313	0.095160589	131.85783	0.39027697	-154.7594	
15.31	0.27648845	-165.83244	0.095120067	130.56687	0.095087219	130.58447	0.39339922	-153.99715	
15.41	0.2775825	-163.61986	0.095058844	129.23593	0.094982267	129.29903	0.39853046	-152.63275	
15.51	0.27859541	-161.28733	0.094942872	127.93437	0.094866388	127.97057	0.4018165	-151.43198	
15.61	0.27790142	-158.97889	0.094774817	126.54067	0.094676666	126.53807	0.4033036	-149.80025	
15.71	0.27632146	-156.68216	0.094651012	125.26905	0.094465942	125.29575	0.40373986	-148.97226	
15.81	0.27624714	-154.0494	0.094479732	124.16107	0.094338431	124.12797	0.40772326	-147.621	
15.91	0.2764054	-151.56288	0.094515585	122.80355	0.094341641	122.87795	0.40770797	-146.15788	
16.01	0.27457709	-149.1863	0.094501868	121.40039	0.094393131	121.44649	0.40676562	-144.71727	
16.11	0.27142094	-146.76251	0.094405417	120.04172	0.094231676	120.10712	0.40487042	-143.72465	
16.21	0.2685428	-143.79456	0.09402002	118.90629	0.094009197	118.95979	0.40626609	-142.37588	
16.31	0.26805934	-140.68041	0.094147565	117.8408	0.094050063	117.7893	0.40261068	-140.85291	
16.41	0.2672296	-137.74269	0.09456042	116.55787	0.0943538	116.62627	0.3985858	-139.68689	
16.51	0.2655541	-135.31236	0.094951594	115.19346	0.09484234	115.25396	0.39258595	-138.67178	
16.61	0.26345302	-133.11186	0.095377912	113.86864	0.095191421	113.90354	0.38914415	-137.72513	
16.71	0.26043518	-130.92166	0.09570604	112.43247	0.095551905	112.50967	0.38319677	-136.41742	
16.81	0.25484986	-128.72696	0.096182433	110.97658	0.096127082	111.02928	0.37525793	-135.42049	
16.91	0.24992983	-126.61039	0.096946316	109.35299	0.096790183	109.41329	0.36687288	-134.65778	
17.01	0.24273729	-124.54158	0.09744701	107.6087	0.097301272	107.6255	0.35930541	-133.9284	
17.11	0.23464984	-122.76512	0.09772182	105.85484	0.097609379	105.91044	0.34886725	-133.05065	
17.21	0.22426871	-121.20815	0.098196394	104.11039	0.097993111	104.11379	0.3372033	-132.46727	
17.31	0.21216422	-119.66813	0.098647801	102.16769	0.098477589	102.29079	0.3244626	-132.26581	
17.41	0.19563967	-117.8411	0.099042196	100.22114	0.098882687	100.27845	0.31249826	-132.09402	
17.51	0.17756376	-115.19596	0.099209499	98.236018	0.098992721	98.282518	0.2960549	-132.13185	
17.61	0.16026737	-110.65192	0.099483314	96.352469	0.099391729	96.377769	0.2806888	-132.81324	
17.71	0.14721169	-105.44573	0.10031483	94.310624	0.10017634	94.371124	0.26404919	-133.6893	
17.81	0.13071211	-101.94989	0.1010609	91.88028	0.10093299	91.88708	0.24894305	-134.83827	
17.91	0.11482879	-95.181241	0.10063458	89.174197	0.10051879	89.235797	0.22782792	-136.06375	
18.01	0.10666804	-85.192701	0.10006367	87.09114	0.099971543	87.088643	0.20907275	-139.77019	
18.11	0.10209616	-80.342095	0.10033095	85.269046	0.1001809	85.294447	0.19111569	-142.75131	
18.21	0.091736871	-78.64626	0.10117326	82.950258	0.10094057	82.986156	0.17191129	-148.6	
18.31	0.075590626	-75.414874	0.10148504	80.387346	0.10134493	80.420046	0.15379555	-154.41983	
18.41	0.054652627	-68.032289	0.10175862	77.626591	0.10155965	77.713491	0.13950309	-166.10694	
18.51	0.037471541	-50.279431	0.10195617	75.311405	0.10180368	75.366605	0.13624957	-175.19298	
18.61	0.026040523	-17.702205	0.1026876	72.741147	0.10254583	72.783847	0.13161558	172.77788	
18.71	0.025761774	27.214611	0.10331774	69.815728	0.10308012	69.861828	0.1345515	161.52434	
18.81	0.045503897	61.437244	0.10333527	66.412778	0.1031926	66.426779	0.14513646	147.71824	
18.91	0.072115913	75.595805	0.10304047	63.049313	0.10280348	63.086513	0.16586038	139.71468	
19.01	0.099931815	79.194395	0.10193158	59.997781	0.10176741	60.007383	0.1835927	132.17723	
19.11	0.12652008	79.139444	0.10068999	57.258185	0.10046997	57.305686	0.20779846	126.9345	
19.21	0.14701754	81.90837	0.10020393	54.674842	0.10003103	54.709542	0.23025407	122.31929	
