!
! Hittite Microwave Corporation
! 2 Elizabeth Drive
! Chelmsford, MA 01824
! http://www.hittite.com
! Tel: 978-250-3343
! Fax: 978-250-3373
! 
! Device:      HMC424LP3
! Description: 0.5 dB GaAs MMIC 6-Bit Digital Attenuator
! Frequency:    DC -  13.00 GHz
! Package:     LP3  - 3x3 mm Quad Flatpack No-Lead (QFN) Plastic Package: 16 pin
! Ports:       2 RF, 7 DC
!              Pad  1  = Ground
!              Pad  2  = RF IN   = Port 1
!              Pad  3  = Ground
!              Pad  4  = V6
!              Pad  5  = V5
!              Pad  6  = V4
!              Pad  7  = V3
!              Pad  8  = V2
!              Pad  9  = V1
!              Pad 10  = Ground
!              Pad 11  = RF OUT  = Port 2
!              Pad 12  = Ground
!              Pad 15  = VEE
!
! Control:     -5 Volt control voltage
! State:        28 
! Attenuation:  14.0 dB
! Voltages:    Vdd = -5.00 Volts  Idd =  -2.555 mA
!              V1  = 0.00 Volts  I1  =  30.0 uA
!              V2  = 0.00 Volts  I2  =  29.0 uA
!              V3  = -5.00 Volts  I3  =  -1.0 uA
!              V4  = -5.00 Volts  I4  =  -1.0 uA
!              V5  = -5.00 Volts  I5  =  -1.0 uA
!              V6  = 0.00 Volts  I6  =  30.0 uA
!
! Data:    The device was measured on evaluation board 105354-1. 
!          Data was collected using a calibrated network analyzer.
!          The evaluation circuit board was modeled and simulated.  This was use
!          to removed the evaluation board circuit from the measured data.
!          The reference plane is the edge of the package pin.
!
! Misc:    Lot xxxx, Unit 1
!          Application 20120001, Data collected in Application 20090083
!
! Date Measured:  2009-09-15
! Date:           2012-05-14  MJV
! Note: 
!   Hittite supplies this data as a sample of measured data at the package pin
!   for this product.  Your particular data for this product may vary.
!   Data was taken at 25 degrees C.
!   Hittite reserves the right to change this data at anytime.
!
# GHz S MA R 50

0.01	0.029458751	162.49696	0.15024951	-1.13887	0.15279638	-1.65187	0.085439923	2.6943334	
0.11	0.029623385	179.5856	0.15075251	-2.286228	0.15045775	-2.249428	0.081726924	-1.6333718	
0.21	0.028968265	-179.20519	0.15029031	-3.9602583	0.15029031	-3.8776583	0.080996367	-6.8801046	
0.31	0.027354166	-178.44332	0.15020353	-5.5013162	0.14996163	-5.5831162	0.086106721	-9.3708128	
0.41	0.026489481	-177.05282	0.14998708	-7.1254861	0.14996981	-7.1141861	0.08693128	-10.944355	
0.51	0.025002726	-174.9344	0.14974952	-8.8055159	0.14964612	-8.8451159	0.085811236	-13.368062	
0.61	0.024204963	-172.2264	0.14957597	-10.359799	0.14952432	-10.383999	0.087252173	-17.980339	
0.71	0.021956929	-168.46953	0.14946635	-11.962639	0.14926	-11.980939	0.093579077	-20.017762	
0.81	0.020639423	-165.67456	0.14934428	-13.572237	0.14910376	-13.522437	0.093583937	-20.470783	
0.91	0.018328919	-160.67048	0.14918163	-15.153083	0.14900998	-15.185283	0.094785392	-24.335355	
1.01	0.016593107	-158.37253	0.14899995	-16.72182	0.14889706	-16.72792	0.098343054	-27.256094	
1.11	0.015038536	-151.53464	0.14886512	-18.29826	0.14872807	-18.32196	0.10496599	-27.863867	
1.21	0.013288117	-146.87683	0.14874087	-19.885892	0.14858683	-19.889292	0.10357942	-27.910388	
1.31	0.011937828	-139.03041	0.14859003	-21.488644	0.14843615	-21.461744	0.10615939	-31.676797	
1.41	0.01015078	-130.36517	0.14845359	-23.016047	0.14828278	-23.016547	0.11087799	-32.83721	
1.51	0.0093997301	-121.05136	0.14838601	-24.607485	0.14819821	-24.607785	0.11477674	-32.711662	
1.61	0.0085239951	-105.91276	0.14812157	-26.197638	0.14803633	-26.206138	0.11270027	-33.006516	
1.71	0.008043953	-94.933351	0.14810694	-27.737544	0.14788544	-27.693444	0.11467916	-36.584096	
1.81	0.0080817549	-80.061025	0.14791668	-29.268896	0.14779753	-29.258396	0.11885499	-37.002536	
1.91	0.007861352	-70.311856	0.14781842	-30.874552	0.14766534	-30.829152	0.11977467	-37.381552	
2.01	0.008263872	-61.218548	0.14769219	-32.398564	0.14752225	-32.387064	0.11729378	-38.481402	
2.11	0.0084741191	-53.663891	0.14752563	-33.959176	0.14740679	-33.946476	0.11972704	-42.137711	
2.21	0.0091358911	-50.836728	0.14747129	-35.485537	0.14726769	-35.549637	0.12397881	-42.378179	
2.31	0.0096938241	-46.553236	0.14739363	-37.044864	0.14705463	-37.052864	0.12292836	-43.142922	
2.41	0.00998869	-45.823243	0.14706611	-38.586695	0.1468969	-38.599295	0.12107516	-45.258937	
2.51	0.010391762	-44.681001	0.14706964	-40.139034	0.14683279	-40.094334	0.12443106	-48.668805	
2.61	0.010294917	-46.2448	0.14701421	-41.737315	0.14679434	-41.708515	0.12803607	-48.697373	
2.71	0.010877174	-48.580109	0.14683576	-43.245021	0.14659928	-43.239521	0.12558138	-50.062749	
2.81	0.010267166	-51.212966	0.14652269	-44.808711	0.14643837	-44.828711	0.12526476	-52.792104	
2.91	0.011233815	-55.746776	0.14650331	-46.324821	0.14635159	-46.397521	0.12896735	-55.693179	
3.01	0.011455721	-61.537854	0.14637698	-47.894569	0.14619172	-47.917769	0.13190788	-55.696853	
3.11	0.012107788	-67.437613	0.14619768	-49.484936	0.14606309	-49.456936	0.12834563	-57.478238	
3.21	0.012398334	-72.447007	0.14597915	-51.001863	0.14587834	-51.000663	0.12936623	-60.763836	
3.31	0.013528573	-79.77196	0.14591636	-52.575341	0.1457149	-52.529541	0.13292858	-62.959559	
3.41	0.014749619	-86.169738	0.14578184	-54.128743	0.14558057	-54.101343	0.13464775	-63.356787	
3.51	0.016368482	-91.042835	0.14557663	-55.564929	0.14532545	-55.638829	0.13133257	-65.94609	
3.61	0.018266583	-96.019156	0.14546093	-57.137706	0.14524338	-57.215606	0.13446774	-69.563291	
3.71	0.020737494	-98.722066	0.14526533	-58.706418	0.14511489	-58.755218	0.13857121	-71.202732	
3.81	0.023134606	-100.8479	0.14508758	-60.291492	0.14493732	-60.273492	0.13915533	-71.966901	
3.91	0.025687567	-102.83797	0.14483993	-61.740862	0.14467327	-61.806762	0.13728786	-75.354272	
4.01	0.032898292	-94.503668	0.14485747	-63.319452	0.14472411	-63.321852	0.15007876	-76.625654	
4.11	0.035258398	-94.737867	0.14475611	-64.887702	0.14443981	-64.864302	0.15392004	-77.254658	
4.21	0.038067741	-95.041712	0.14452785	-66.38466	0.14434493	-66.35496	0.15444979	-78.069144	
4.31	0.041154498	-93.949676	0.14427325	-67.84712	0.14419022	-67.92342	0.15489352	-80.705221	
4.41	0.043522445	-92.748676	0.14409211	-69.471048	0.14392632	-69.463548	0.16209001	-82.193639	
4.51	0.046023204	-91.759508	0.14396159	-70.984574	0.14368011	-70.990674	0.16433688	-81.887972	
4.61	0.048576381	-90.850989	0.1436972	-72.520449	0.14356491	-72.534049	0.16428142	-82.619383	
4.71	0.051464844	-89.11093	0.14361888	-74.02205	0.1434206	-74.00545	0.16488819	-84.430424	
4.81	0.053811247	-87.767302	0.14343004	-75.526563	0.14321554	-75.533063	0.17162126	-85.185164	
4.91	0.056766606	-86.00906	0.14303241	-77.095576	0.14283494	-77.075976	0.17165465	-84.29839	
5.01	0.058937341	-84.345719	0.14289934	-78.581298	0.14263635	-78.543698	0.17036599	-85.233106	
5.11	0.062093117	-82.008296	0.14272815	-80.0545	0.14259675	-80.0713	0.17122069	-86.573497	
5.21	0.064287384	-80.16379	0.14260294	-81.564737	0.14245526	-81.585137	0.17652605	-87.041986	
5.31	0.067124403	-78.063671	0.1423147	-83.097601	0.14218368	-83.151501	0.1753501	-85.804237	
5.41	0.069484174	-75.47258	0.14222416	-84.62206	0.14199511	-84.58936	0.17341828	-87.009628	
5.51	0.072375523	-73.243215	0.14205044	-86.093277	0.141887	-86.129277	0.17550385	-87.834514	
5.61	0.074920709	-70.567499	0.14182672	-87.633242	0.14172878	-87.644242	0.17909672	-87.825949	
5.71	0.076879166	-68.175311	0.14164503	-89.133827	0.14138435	-89.118527	0.17680983	-86.416175	
5.81	0.079722189	-65.252663	0.14154415	-90.625822	0.14129992	-90.649022	0.17385984	-87.608178	
5.91	0.081527118	-62.849295	0.14134744	-92.131634	0.14120106	-92.120334	0.17679285	-87.82992	
6.01	0.084016869	-60.102952	0.14123997	-93.62259	0.14112619	-93.66609	0.1783881	-86.94786	
6.11	0.08623097	-57.42957	0.14106917	-95.175847	0.14092308	-95.189647	0.17445697	-85.459356	
6.21	0.088718572	-54.094171	0.14105745	-96.68122	0.14089515	-96.65222	0.17015857	-86.43194	
6.31	0.090420804	-51.626397	0.14101937	-98.226493	0.14077605	-98.206693	0.17193723	-86.162178	
6.41	0.092801958	-48.278593	0.14075603	-99.713109	0.14051316	-99.726609	0.16995655	-84.761289	
6.51	0.094367026	-45.099392	0.14060271	-101.27676	0.14040859	-101.24366	0.16429532	-83.224059	
6.61	0.095822471	-41.868373	0.14066041	-102.81265	0.14048239	-102.83615	0.15797018	-84.077225	
6.71	0.097059854	-39.043318	0.14064647	-104.38986	0.14038763	-104.38216	0.15762829	-83.730907	
6.81	0.098522274	-35.947594	0.14043175	-105.95359	0.14022173	-105.97589	0.1522118	-82.294628	
6.91	0.099575654	-32.811858	0.14034141	-107.56055	0.14021221	-107.55455	0.14523837	-81.5799	
7.01	0.099987706	-29.901064	0.14033424	-109.17005	0.14022119	-109.15845	0.13728574	-82.554128	
7.11	0.10058468	-26.900734	0.1402639	-110.77765	0.1401509	-110.75885	0.13609084	-82.817908	
7.21	0.10044621	-23.734652	0.14019839	-112.37257	0.1399726	-112.35167	0.12804302	-81.212752	
7.31	0.10073439	-20.448287	0.14023901	-113.99286	0.1399648	-113.98276	0.11962772	-82.19027	
7.41	0.10015324	-17.418959	0.14022605	-115.65672	0.14011309	-115.64742	0.11282544	-84.077871	
7.51	0.099918407	-14.057944	0.14027825	-117.27854	0.14011685	-117.26544	0.11013473	-84.973331	
7.61	0.098711786	-11.030457	0.14017671	-118.94025	0.13991873	-118.93105	0.10154725	-83.925649	
7.71	0.097712435	-7.7944599	0.14026296	-120.63869	0.14002094	-120.63799	0.09232218	-86.61244	
7.81	0.095606468	-4.6410512	0.14029713	-122.35666	0.14010344	-122.34206	0.085822353	-89.91822	
7.91	0.094131374	-1.3290035	0.14020365	-124.0872	0.14007458	-124.0553	0.081889566	-92.133571	
8.01	0.092071197	2.2131227	0.14003995	-125.80798	0.13983051	-125.80278	0.07230265	-93.410559	
8.11	0.089166869	5.8158217	0.14007826	-127.56064	0.13994931	-127.57074	0.064169399	-100.82721	
8.21	0.08626628	9.4462405	0.13999149	-129.33296	0.13978212	-129.32686	0.059915037	-107.95733	
8.31	0.083332819	13.53356	0.13995896	-131.05621	0.13976573	-131.07051	0.056500934	-114.01812	
8.41	0.079985877	17.78402	0.13977548	-132.79149	0.13959858	-132.77499	0.049177021	-122.61248	
8.51	0.076264185	22.437269	0.13989254	-134.62689	0.1395708	-134.60689	0.049133617	-138.66145	
8.61	0.072655564	27.322637	0.1397527	-136.45034	0.13952763	-136.42914	0.053402657	-148.83724	
8.71	0.068933519	33.086781	0.13964344	-138.18894	0.13941855	-138.19784	0.056453796	-156.74422	
8.81	0.064874426	39.383489	0.13944352	-140.04036	0.13921895	-140.07436	0.059608107	-167.88706	
8.91	0.060617473	46.050356	0.13947225	-141.87401	0.13939199	-141.88971	0.071759503	-175.30555	
9.01	0.057140631	52.894538	0.13934687	-143.7125	0.13910643	-143.7105	0.080169314	-177.69351	
9.11	0.055078868	61.496631	0.13909429	-145.49668	0.13893424	-145.49068	0.08888211	179.63971	
9.21	0.052010371	71.369435	0.13890693	-147.33212	0.13869918	-147.31052	0.095562647	176.18456	
9.31	0.051426362	80.895382	0.13878444	-149.24521	0.13854497	-149.20151	0.10996691	173.77342	
9.41	0.051440996	92.73608	0.13851012	-151.05176	0.13830297	-151.02976	0.11778604	175.19866	
9.51	0.052675292	102.61046	0.13793507	-152.78112	0.13761783	-152.76772	0.1241722	173.27353	
9.61	0.054940685	112.52409	0.13761997	-154.53391	0.1373667	-154.50841	0.13465734	172.50995	
9.71	0.057298457	122.22222	0.13743251	-156.2893	0.13725857	-156.271	0.14507496	172.53597	
9.81	0.060795018	130.69748	0.13702733	-158.04371	0.13682239	-158.02151	0.15209183	173.3526	
9.91	0.065187703	138.07167	0.13651442	-159.65132	0.13631026	-159.62622	0.15772998	172.5979	
10.01	0.069816725	144.53926	0.13628094	-161.41353	0.13606146	-161.40823	0.16761544	172.36178	
10.11	0.07571416	150.80928	0.13590794	-163.14308	0.13570468	-163.15978	0.17666845	172.9338	
10.21	0.081185275	156.10638	0.13549857	-164.80808	0.1352492	-164.83038	0.18239187	174.20985	
10.31	0.087376191	161.39998	0.13496441	-166.41855	0.13477808	-166.41345	0.18637047	173.8043	
10.41	0.09286244	165.08013	0.13460474	-168.04413	0.13432608	-168.06213	0.19564934	174.10106	
10.51	0.099826585	168.90774	0.13421505	-169.64481	0.13402975	-169.59441	0.20312377	175.14212	
10.61	0.10602631	172.57904	0.13391942	-171.20209	0.13379613	-171.19109	0.20739677	176.19664	
10.71	0.1120661	175.83324	0.13351075	-172.85902	0.13338784	-172.81072	0.21115043	175.97127	
10.81	0.11831822	178.64228	0.13331183	-174.49224	0.13315844	-174.43064	0.21923332	176.57708	
10.91	0.12410473	-178.68189	0.1330265	-176.06106	0.13285814	-176.04926	0.22331478	177.78588	
11.01	0.13022959	-176.50842	0.13264342	-177.62475	0.13246029	-177.62635	0.22509777	178.58507	
11.11	0.13588645	-173.98506	0.13226559	-179.19052	0.1321134	-179.19632	0.22695966	178.57704	
11.21	0.14085254	-172.26198	0.13193975	179.19541	0.13178794	179.21351	0.23225969	179.07369	
11.31	0.14581392	-170.57605	0.13167387	177.63088	0.13143154	177.65358	0.23378458	-179.92681	
11.41	0.15115754	-169.2063	0.13138602	176.11259	0.13112912	176.15219	0.23353033	-179.31303	
11.51	0.15585395	-167.67587	0.13101838	174.54547	0.13089776	174.59357	0.23325695	-179.68267	
11.61	0.16019453	-166.68851	0.13058847	172.93489	0.13045323	172.94739	0.23778188	-179.61508	
11.71	0.16445356	-165.58515	0.13027594	171.35897	0.13027594	171.39687	0.2372088	-178.89777	
11.81	0.16869235	-164.71275	0.130041	169.86014	0.12989137	169.86654	0.23682745	-179.1726	
11.91	0.17264258	-164.04147	0.12973373	168.26225	0.12946516	168.26525	0.23712538	-179.47377	
12.01	0.17654222	-163.45848	0.12933451	166.64933	0.12921544	166.63323	0.24036896	-179.59211	
12.11	0.18063992	-162.9625	0.12900176	165.02691	0.12889783	165.08981	0.23927327	-179.15505	
12.21	0.18476634	-162.65384	0.12864045	163.4628	0.12849243	163.4576	0.23880185	-179.81904	
12.31	0.18881445	-162.51617	0.12822237	161.78755	0.12807484	161.79215	0.24067904	179.79075	
12.41	0.19274673	-162.69998	0.12764856	160.1205	0.12756041	160.0899	0.24437064	179.67283	
12.51	0.19560255	-162.96577	0.12692761	158.52527	0.1267086	158.53767	0.2431924	-179.82514	
12.61	0.19812653	-162.87545	0.12627361	157.18894	0.12612832	157.23084	0.24346037	179.13171	
12.71	0.20252773	-162.30534	0.12611937	155.73437	0.12585828	155.76867	0.24692725	178.9879	
12.81	0.20652558	-162.0908	0.12584284	154.25152	0.12571252	154.24022	0.24963254	178.90958	
12.91	0.21186261	-161.9447	0.12573758	152.62773	0.12557845	152.62423	0.24991977	179.36563	
13.01	0.21656648	-161.99244	0.12556263	151.0538	0.12534598	151.0751	0.25101335	178.60932	
13.11	0.22248394	-162.07931	0.12509191	149.42147	0.12493359	149.45377	0.25493704	178.60328	
13.21	0.22799092	-162.0408	0.12479175	147.83777	0.12453341	147.85027	0.25719601	178.70452	
13.31	0.23322961	-162.13481	0.1243014	146.19925	0.12412979	146.21155	0.25904223	179.01497	
13.41	0.23909808	-162.21369	0.12379623	144.69131	0.1235684	144.70001	0.26095125	178.62716	
13.51	0.24563326	-162.11758	0.12338538	143.12487	0.12314413	143.16567	0.26635444	178.8168	
13.61	0.25208307	-162.15503	0.12292495	141.5719	0.12278351	141.6134	0.26956764	179.36678	
13.71	0.25978516	-162.0767	0.12254552	140.02125	0.12233408	140.01235	0.2718479	179.85227	
13.81	0.26698111	-161.79186	0.12216772	138.44394	0.12191481	138.49484	0.275211	179.81698	
13.91	0.27413993	-161.65667	0.1215673	136.93655	0.12134358	136.91765	0.28179827	-179.36383	
14.01	0.28237605	-161.48186	0.12106678	135.29774	0.12098318	135.33824	0.28390735	-178.39442	
14.11	0.29001687	-160.99412	0.12059686	133.77682	0.1204165	133.75142	0.28784378	-177.58885	
14.21	0.29710156	-160.6206	0.12015705	132.27152	0.11986689	132.30182	0.29116937	-176.98305	
14.31	0.30542776	-160.19088	0.11947315	130.77586	0.11922582	130.81496	0.2976357	-175.70595	
14.41	0.3133011	-159.60649	0.11907186	129.31791	0.118798	129.32371	0.29880552	-174.37961	
14.51	0.32138403	-158.96575	0.11846093	127.82876	0.11824291	127.85496	0.3027731	-173.41395	
14.61	0.32920318	-158.22796	0.11803958	126.33711	0.11771387	126.33531	0.30537812	-172.19911	
14.71	0.33670506	-157.44173	0.11740847	124.89905	0.11724638	124.95005	0.31133412	-170.73754	
14.81	0.34396365	-156.75221	0.1169055	123.40374	0.11666348	123.45874	0.3120007	-168.86498	
14.91	0.35143184	-155.74458	0.11630952	121.99205	0.11614895	122.02155	0.31456057	-167.75368	
15.01	0.35733948	-154.87506	0.11577119	120.57171	0.11563798	120.56261	0.31715231	-166.15203	
15.11	0.36309337	-153.96143	0.11525012	119.20086	0.11503802	119.22386	0.32083597	-164.63718	
15.21	0.3685803	-152.99832	0.11471408	117.89369	0.11454252	117.89109	0.3213105	-162.42128	
15.31	0.37395368	-151.96601	0.11444263	116.59034	0.11424517	116.61024	0.32230811	-161.1965	
15.41	0.37843525	-150.99071	0.11410972	115.25288	0.11391283	115.25918	0.32470532	-159.20259	
15.51	0.38224522	-149.9401	0.11372667	113.9023	0.11356966	113.933	0.32575037	-157.41745	
15.61	0.38388626	-148.79193	0.11341146	112.48424	0.11321577	112.49974	0.32474832	-155.14052	
15.71	0.38439438	-147.64769	0.11305964	111.1813	0.11294256	111.1641	0.32337102	-153.79461	
15.81	0.38674938	-146.25084	0.11278832	109.97123	0.11256779	109.95223	0.32537091	-151.72423	
15.91	0.38859284	-145.05208	0.11263857	108.59443	0.11245717	108.58223	0.32364778	-149.59856	
16.01	0.38777267	-143.88561	0.11253074	107.18186	0.11245304	107.16666	0.32077461	-147.43758	
16.11	0.38521127	-142.56141	0.11225939	105.80163	0.11215604	105.85553	0.31750019	-145.8425	
16.21	0.38320463	-140.89496	0.11191546	104.56995	0.11174809	104.62065	0.31772122	-143.76135	
16.31	0.3836053	-139.18824	0.11200286	103.38101	0.11186111	103.41411	0.31305365	-141.40788	
16.41	0.38307616	-137.70105	0.11224682	102.05116	0.11206605	102.08406	0.30783701	-139.45946	
16.51	0.38078555	-136.5734	0.11261413	100.64421	0.11245866	100.63841	0.30131381	-137.67156	
16.61	0.37738412	-135.67587	0.11291968	99.22643	0.11278975	99.26263	0.29738575	-135.92323	
16.71	0.37289592	-134.71433	0.1132277	97.727703	0.11311044	97.785403	0.29147245	-133.60965	
16.81	0.36531202	-133.89031	0.11380992	96.217374	0.11352203	96.257274	0.28357941	-131.65028	
16.91	0.35820291	-133.04337	0.11439232	94.542272	0.11422123	94.548472	0.27543349	-129.92248	
17.01	0.34823989	-132.39222	0.11482623	92.742144	0.11472052	92.770944	0.26832049	-128.1714	
17.11	0.33753066	-131.98588	0.11513209	90.91982	0.11507908	90.93412	0.25897	-126.0483	
17.21	0.32405038	-131.97034	0.11562496	89.062315	0.11542546	89.118413	0.24842944	-124.14492	
17.31	0.30843919	-131.91286	0.11593491	87.111778	0.11586819	87.10878	0.23666866	-122.52628	
17.41	0.28826127	-132.01054	0.11641772	85.1094	0.11616334	85.141697	0.22621203	-120.87119	
17.51	0.26594533	-131.82166	0.11646558	83.070212	0.1162914	83.013515	0.21177687	-119.01586	
17.61	0.2432617	-130.80162	0.11686196	81.094946	0.11663347	81.118046	0.19791392	-117.86934	
17.71	0.22438969	-129.70271	0.11776248	79.007281	0.11753222	79.026081	0.18309541	-116.6125	
17.81	0.2031192	-130.66031	0.1185652	76.457966	0.11826527	76.458566	0.16966422	-115.40517	
17.91	0.17905488	-130.41902	0.1180069	73.770246	0.11789827	73.839346	0.15166743	-113.20196	
18.01	0.15874015	-128.09198	0.11771414	71.467441	0.11765994	71.51194	0.1323374	-113.78813	
18.11	0.14714267	-128.54061	0.11797335	69.314709	0.11775624	69.293811	0.11544401	-112.62079	
18.21	0.13548345	-133.23449	0.11869572	66.767528	0.11845001	66.826228	0.094002318	-113.82967	
18.31	0.1197659	-140.95015	0.11903482	64.034328	0.11867904	64.022728	0.07423403	-113.42962	
18.41	0.10248165	-153.21686	0.11899773	61.077836	0.11872404	61.084936	0.049015836	-121.70734	
18.51	0.088677503	-168.50961	0.11886486	58.530372	0.11871442	58.602672	0.035915258	-136.83967	
18.61	0.085511164	173.63943	0.11927943	55.817556	0.11907362	55.847256	0.021754834	-172.6834	
18.71	0.092849178	157.43232	0.11967945	52.855226	0.11943169	52.853226	0.02634529	138.03303	
18.81	0.11051495	139.71999	0.1194606	49.332424	0.11910355	49.349223	0.049297842	109.37722	
18.91	0.136982	127.92411	0.1187097	45.863319	0.11843668	45.901319	0.073845746	107.39868	
19.01	0.16235525	119.02422	0.11720942	42.730537	0.11688601	42.738738	0.09627301	102.73842	
19.11	0.18521575	111.88518	0.11551966	39.889574	0.11530705	39.895574	0.12148665	102.24696	
19.21	0.20887372	109.15438	0.11461846	37.155204	0.11446022	37.180304	0.14477124	100.84693	
