!
! Hittite Microwave Corporation
! 2 Elizabeth Drive
! Chelmsford, MA 01824
! http://www.hittite.com
! Tel: 978-250-3343
! Fax: 978-250-3373
! 
! Device:      HMC424LP3
! Description: 0.5 dB GaAs MMIC 6-Bit Digital Attenuator
! Frequency:    DC -  13.00 GHz
! Package:     LP3  - 3x3 mm Quad Flatpack No-Lead (QFN) Plastic Package: 16 pin
! Ports:       2 RF, 7 DC
!              Pad  1  = Ground
!              Pad  2  = RF IN   = Port1
!              Pad  3  = Ground
!              Pad  4  = V6
!              Pad  5  = V5
!              Pad  6  = V4
!              Pad  7  = V3
!              Pad  8  = V2
!              Pad  9  = V1
!              Pad 10  = Ground
!              Pad 11  = RF IN   = Port1
!              Pad 12  = Ground
!              Pad 15  = VEE
!
! Control:     -5 Volt control voltage
! State:        30 
! Attenuation:  15.0 dB
! Voltages:    Vdd = -5.00 Volts  Idd =  -2.680 mA
!              V1  = 0.00 Volts  I1  =  30.0 uA
!              V2  = -5.00 Volts  I2  =  -1.0 uA
!              V3  = -5.00 Volts  I3  =  -1.0 uA
!              V4  = -5.00 Volts  I4  =  -1.0 uA
!              V5  = -5.00 Volts  I5  =  -1.0 uA
!              V6  = 0.00 Volts  I6  =  30.0 uA
!
! Data:    The device was measured on evaluation board 105354-1. 
!          Data was collected using a calibrated network analyzer.
!          The evaluation circuit board was modeled and simulated.  This was use
!          to removed the evaluation board circuit from the measured data.
!          The reference plane is the edge of the package pin.
!
! Misc:    Lot xxxx, Unit 1
!          Application 20120001, Data collected in Application 20090083
!
! Date Measured:  2009-09-15
! Date:           2012-05-14  MJV
! Note: 
!   Hittite supplies this data as a sample of measured data at the package pin
!   for this product.  Your particular data for this product may vary.
!   Data was taken at 25 degrees C.
!   Hittite reserves the right to change this data at anytime.
!
# GHz S MA R 50

0.01	0.093711296	174.4682	0.13717179	-2.0348938	0.13618046	-1.6365938	0.082772688	3.2433064	
0.11	0.095286084	178.33275	0.13570402	-2.3549422	0.13561031	-2.3216422	0.079860734	-1.529721	
0.21	0.09413203	177.66772	0.13521308	-3.9059134	0.1350264	-3.8909134	0.078982626	-6.9676063	
0.31	0.092348369	176.61004	0.13501428	-5.4829871	0.13478132	-5.5563871	0.084234542	-9.3736787	
0.41	0.091449749	175.84721	0.1350107	-7.0880375	0.1348243	-7.1528375	0.084970254	-10.902251	
0.51	0.089589367	175.16041	0.13470902	-8.7724672	0.13460051	-8.7686672	0.08393181	-13.384852	
0.61	0.08838507	174.65384	0.13463647	-10.330155	0.13449704	-10.343655	0.085355953	-18.058887	
0.71	0.085724306	174.00677	0.13451352	-11.948855	0.13426596	-11.933155	0.091716327	-20.096921	
0.81	0.083799524	173.19855	0.13441082	-13.522597	0.13417891	-13.476797	0.091717509	-20.437662	
0.91	0.080877032	172.40934	0.13422552	-15.123978	0.13405564	-15.117378	0.09291766	-24.402645	
1.01	0.078585947	171.01965	0.13416207	-16.647599	0.13397685	-16.676599	0.096563889	-27.340109	
1.11	0.076051013	170.23924	0.13404844	-18.248286	0.1338942	-18.287286	0.10311701	-27.890848	
1.21	0.073724162	168.63799	0.13394422	-19.80761	0.13377469	-19.82261	0.10176357	-27.942847	
1.31	0.071227999	167.46024	0.13381566	-21.429165	0.13370786	-21.368765	0.10438288	-31.691148	
1.41	0.068533426	165.50552	0.1336689	-22.964738	0.13354585	-22.968838	0.10905531	-32.841315	
1.51	0.066594424	163.85814	0.13375299	-24.55227	0.13344537	-24.53097	0.11298032	-32.689063	
1.61	0.063817895	161.85005	0.1334589	-26.076188	0.13335139	-26.120488	0.11081137	-32.947504	
1.71	0.062042635	159.57915	0.13338905	-27.672183	0.13323557	-27.672483	0.11288212	-36.580948	
1.81	0.059887492	157.29113	0.13326769	-29.192514	0.1330837	-29.223614	0.11713264	-37.029606	
1.91	0.058805914	154.70048	0.13329028	-30.758431	0.13301435	-30.843331	0.11805759	-37.374773	
2.01	0.057432786	152.19845	0.13294932	-32.367056	0.13282693	-32.309256	0.11562359	-38.385622	
2.11	0.056727795	149.71205	0.13298552	-33.91132	0.13278664	-33.91602	0.11796706	-42.067457	
2.21	0.055818395	147.6646	0.13295317	-35.408626	0.13269321	-35.457726	0.1222799	-42.3008	
2.31	0.055135084	145.37429	0.13277733	-37.077497	0.13256349	-37.012097	0.12115199	-43.059474	
2.41	0.054631644	143.55038	0.13252772	-38.502478	0.13245145	-38.554478	0.11949428	-45.127539	
2.51	0.054283548	141.6329	0.13260761	-40.137544	0.13240929	-40.088144	0.12268941	-48.564333	
2.61	0.054293789	140.03548	0.13242013	-41.663272	0.13223731	-41.665972	0.12622631	-48.612135	
2.71	0.05371704	138.74962	0.13230451	-43.205602	0.13215228	-43.225302	0.1238776	-49.978851	
2.81	0.054382336	137.32253	0.13215899	-44.729846	0.13203732	-44.778846	0.12355316	-52.733276	
2.91	0.053483982	136.68026	0.13212599	-46.250854	0.13195877	-46.319454	0.12720239	-55.58685	
3.01	0.053595608	135.95321	0.1319516	-47.901965	0.13176943	-47.872865	0.13008964	-55.56957	
3.11	0.053206877	135.5987	0.13185098	-49.447522	0.13166895	-49.380322	0.12668725	-57.401868	
3.21	0.053336917	134.94247	0.13173086	-50.965133	0.13154899	-50.911233	0.12775253	-60.642446	
3.31	0.052987816	135.22519	0.13160063	-52.514034	0.13143407	-52.471634	0.13126595	-62.867147	
3.41	0.052651287	135.56152	0.13151249	-54.0428	0.13128557	-54.0611	0.13295946	-63.237587	
3.51	0.05221892	136.07301	0.13131649	-55.571602	0.13115029	-55.591702	0.12968971	-65.82016	
3.61	0.051875257	136.8401	0.13124741	-57.10611	0.13103603	-57.15201	0.13292567	-69.416817	
3.71	0.050799509	137.87974	0.1311381	-58.656589	0.13080637	-58.667889	0.13688624	-71.075753	
3.81	0.049637904	138.90144	0.13087968	-60.234833	0.13074414	-60.207133	0.13746018	-71.87022	
3.91	0.048576078	140.11575	0.13078492	-61.738815	0.13064948	-61.729215	0.13579675	-75.248591	
4.01	0.040646953	143.46458	0.13073603	-63.264641	0.13057056	-63.232541	0.14838009	-76.51472	
4.11	0.038819718	144.18694	0.13062569	-64.836119	0.13035528	-64.767019	0.15215032	-77.060735	
4.21	0.036703863	145.8088	0.13047662	-66.336855	0.13031148	-66.306755	0.15286658	-77.927927	
4.31	0.033696392	147.30896	0.13036475	-67.822741	0.13010985	-67.903741	0.15330683	-80.566267	
4.41	0.030840802	147.7246	0.13025947	-69.411173	0.12998981	-69.425673	0.16059977	-82.077307	
4.51	0.027734421	148.54727	0.13005014	-70.945301	0.1298108	-70.998201	0.16268337	-81.737008	
4.61	0.024796695	149.7454	0.12989922	-72.486252	0.12966015	-72.496752	0.16277122	-82.413322	
4.71	0.020847479	151.211	0.12973767	-74.006542	0.12955855	-73.989842	0.16336784	-84.276726	
4.81	0.017413211	151.88287	0.12959508	-75.510817	0.12950559	-75.510617	0.17015468	-85.037359	
4.91	0.013324236	153.74725	0.12939745	-77.113193	0.12912957	-77.099893	0.17028053	-84.150516	
5.01	0.0094091097	153.92421	0.1292129	-78.563638	0.12904937	-78.573338	0.16898675	-85.060345	
5.11	0.0042473547	156.83844	0.12912619	-80.050203	0.12896276	-80.095603	0.16981544	-86.36758	
5.21	0.0002120658	66.547116	0.12905014	-81.622451	0.12887197	-81.635151	0.17516099	-86.858396	
5.31	0.0050529899	-22.711724	0.12876352	-83.146976	0.12860055	-83.194276	0.17407395	-85.595095	
5.41	0.010347705	-18.841768	0.12872869	-84.687716	0.12852137	-84.692816	0.17222311	-86.827726	
5.51	0.015736947	-18.939203	0.12854086	-86.180029	0.12834862	-86.191129	0.17426364	-87.620444	
5.61	0.021692798	-17.24058	0.12842108	-87.724005	0.12825855	-87.714705	0.17789744	-87.606622	
5.71	0.026966418	-15.207501	0.12817399	-89.291637	0.12802651	-89.241537	0.17568222	-86.176386	
5.81	0.033450455	-13.823649	0.12807012	-90.739583	0.12796695	-90.809983	0.17276802	-87.372524	
5.91	0.038879958	-12.128537	0.12793455	-92.33086	0.12781678	-92.32046	0.17556574	-87.615617	
6.01	0.045253602	-10.883965	0.1278128	-93.833337	0.12762165	-93.848237	0.17728947	-86.677437	
6.11	0.051379747	-9.4616063	0.12764714	-95.399136	0.12747091	-95.438936	0.17330537	-85.184078	
6.21	0.05853356	-7.6504464	0.12770739	-96.949621	0.12734035	-96.928221	0.16913155	-86.171463	
6.31	0.064096774	-6.2867163	0.1275337	-98.531521	0.12724038	-98.511121	0.17080912	-85.864184	
6.41	0.071307386	-4.5477424	0.12722417	-100.06718	0.12712168	-100.03368	0.16901693	-84.47864	
6.51	0.077715103	-2.5960554	0.12711355	-101.61609	0.12693806	-101.59959	0.16324625	-82.950225	
6.61	0.084153636	-0.57534552	0.12711126	-103.20777	0.12690655	-103.17527	0.15698813	-83.737275	
6.71	0.089787213	0.9921092	0.12697051	-104.74621	0.12682441	-104.79031	0.15669901	-83.396124	
6.81	0.095895202	2.5929604	0.1267737	-106.35174	0.12651125	-106.35874	0.1512348	-81.885421	
6.91	0.10180309	4.3958592	0.12667055	-107.93421	0.12643743	-107.98641	0.14421539	-81.14375	
7.01	0.1067479	6.0953465	0.12661162	-109.59242	0.12640771	-109.58102	0.13632258	-82.128029	
7.11	0.11181578	7.7866562	0.12650614	-111.22514	0.12633149	-111.21884	0.13525158	-82.378478	
7.21	0.11636273	9.6974102	0.12619692	-112.80151	0.1260372	-112.85201	0.12719115	-80.684074	
7.31	0.12123303	11.562159	0.12608299	-114.41103	0.12592342	-114.42773	0.11868701	-81.570444	
7.41	0.12507576	13.340903	0.12622373	-116.06582	0.12596242	-116.04312	0.11186797	-83.432076	
7.51	0.12907929	15.182855	0.12613515	-117.70755	0.12591751	-117.69295	0.10923353	-84.306562	
7.61	0.13199737	16.886995	0.12594592	-119.37365	0.12564179	-119.33655	0.1007182	-83.115941	
7.71	0.13497355	18.683123	0.12598821	-121.05555	0.12572739	-121.04055	0.091476863	-85.763943	
7.81	0.13659815	20.502447	0.12591029	-122.77304	0.12570751	-122.73464	0.084876911	-88.964587	
7.91	0.13879459	22.23685	0.12583504	-124.4703	0.12553117	-124.461	0.081002332	-91.15071	
8.01	0.14012756	24.095212	0.12559642	-126.13496	0.12539414	-126.13316	0.071264512	-92.14236	
8.11	0.14051154	26.042572	0.12560348	-127.86707	0.12537232	-127.87717	0.063121681	-99.498015	
8.21	0.14042499	27.930197	0.1255474	-129.61648	0.12522981	-129.61058	0.058811786	-106.57768	
8.31	0.140318	29.903884	0.12536809	-131.31057	0.12519501	-131.31277	0.055314575	-112.67418	
8.41	0.139347	31.94133	0.12523265	-133.0296	0.12504535	-133.0338	0.047792614	-121.19599	
8.51	0.13774261	34.071637	0.12522895	-134.83839	0.12507046	-134.84539	0.047534447	-137.63981	
8.61	0.1357193	36.153622	0.12521872	-136.64276	0.12501706	-136.60826	0.05168623	-148.09644	
8.71	0.13323312	38.501372	0.12509667	-138.34981	0.1248952	-138.34681	0.054643767	-156.31959	
8.81	0.12984838	40.960331	0.12496049	-140.14648	0.12475924	-140.11748	0.057756932	-167.57305	
8.91	0.12554319	43.353863	0.12499025	-141.92847	0.12478896	-141.97097	0.069643849	-175.11594	
9.01	0.12131829	45.569563	0.12489448	-143.73224	0.12469334	-143.75214	0.078163029	-177.59213	
9.11	0.11752835	48.388201	0.12473303	-145.53023	0.12451781	-145.51683	0.086774326	179.74502	
9.21	0.11149878	51.427408	0.12465103	-147.31169	0.12452194	-147.30999	0.093892691	176.38782	
9.31	0.10700795	54.400753	0.12454863	-149.22453	0.124391	-149.18013	0.10804444	173.96412	
9.41	0.10088977	58.53603	0.12440739	-151.0409	0.12419273	-151.0574	0.1159642	175.36959	
9.51	0.095666039	62.150318	0.12390032	-152.76292	0.12355844	-152.78712	0.12235563	173.44043	
9.61	0.089780921	66.277519	0.12359554	-154.48298	0.12343911	-154.46388	0.13290648	172.65387	
9.71	0.083035495	70.420715	0.12349244	-156.23609	0.12325098	-156.22359	0.14317203	172.69711	
9.81	0.076616522	75.076419	0.12321169	-157.98759	0.12302742	-157.97729	0.15032331	173.6099	
9.91	0.070687897	80.329547	0.12289211	-159.6051	0.12255302	-159.5879	0.15616247	172.84216	
10.01	0.064885955	86.357717	0.12279258	-161.32725	0.12253837	-161.30415	0.16604973	172.63608	
10.11	0.05961929	94.067456	0.12243661	-163.07982	0.1222535	-163.08912	0.17516641	173.19628	
10.21	0.054734057	102.40674	0.12217151	-164.75418	0.12187649	-164.76448	0.18087901	174.44921	
10.31	0.050561328	112.91069	0.12177523	-166.37881	0.12160711	-166.37051	0.18498054	174.1129	
10.41	0.048517728	122.57059	0.12131175	-168.05719	0.12118611	-168.02169	0.19434439	174.44065	
10.51	0.048197167	134.79273	0.12111925	-169.6888	0.12102167	-169.6358	0.20201073	175.44683	
10.61	0.048735385	146.64661	0.1210172	-171.23753	0.12083622	-171.21603	0.20625323	176.55301	
10.71	0.050728263	157.66042	0.12071237	-172.86133	0.12060124	-172.88533	0.21020586	176.27155	
10.81	0.054445583	167.22177	0.12050546	-174.50984	0.12035294	-174.51004	0.21811482	176.89404	
10.91	0.058903978	175.72148	0.12034909	-176.16005	0.12018293	-176.10885	0.22242048	178.10869	
11.01	0.064614165	-177.73333	0.12008527	-177.75499	0.11987807	-177.72639	0.22424598	178.8836	
11.11	0.070516102	-171.24042	0.11979029	-179.32229	0.11956983	-179.33959	0.22628449	178.90248	
11.21	0.076107951	-166.75143	0.11952527	179.05142	0.11936026	179.03172	0.23152627	179.36223	
11.31	0.082037982	-162.92844	0.11932711	177.40683	0.11909379	177.46003	0.2332572	-179.62001	
11.41	0.088580093	-159.98694	0.11904184	175.87727	0.11880908	175.85487	0.23302802	-178.9756	
11.51	0.094734735	-156.86431	0.11876134	174.28245	0.11850183	174.30305	0.23276406	-179.40347	
11.61	0.10048832	-154.96841	0.11838087	172.62074	0.11828551	172.63344	0.23754072	-179.33357	
11.71	0.10648987	-152.79879	0.11826127	171.06226	0.11804362	171.08146	0.23669327	-178.64459	
11.81	0.1121388	-151.30396	0.11786251	169.49184	0.11776757	169.48944	0.23662003	-178.89152	
11.91	0.1179044	-150.06341	0.11760195	167.84067	0.11735849	167.85147	0.2369351	-179.21886	
12.01	0.12327915	-149.02922	0.1173624	166.21809	0.11717338	166.23569	0.24005452	-179.35526	
12.11	0.12908904	-148.30282	0.11703983	164.60158	0.11695901	164.63598	0.23915356	-178.91333	
12.21	0.13474237	-147.83384	0.1168363	163.00826	0.11655417	162.99306	0.23872126	-179.58473	
12.31	0.14028801	-147.66424	0.1164023	161.23773	0.11628175	161.26753	0.24056892	-179.94735	
12.41	0.14539653	-147.95196	0.11584349	159.49952	0.11569687	159.48972	0.24416632	179.90333	
12.51	0.14896049	-148.21537	0.11513423	157.86857	0.11502823	157.87137	0.24300915	-179.60915	
12.61	0.15288248	-147.88955	0.11451066	156.52455	0.11431307	156.51365	0.2433538	179.34381	
12.71	0.15885421	-147.19185	0.11424225	155.06815	0.11404513	155.05755	0.24689174	179.2035	
12.81	0.16477756	-146.95228	0.11405421	153.53952	0.11385741	153.52432	0.24947555	179.15191	
12.91	0.17175032	-146.88642	0.11402235	151.91099	0.1138125	151.93079	0.24993441	179.57995	
13.01	0.17775523	-147.0249	0.113686	150.34111	0.11355518	150.34261	0.25109378	178.82154	
13.11	0.18532933	-147.39195	0.11344509	148.68884	0.11330151	148.68394	0.25507163	178.78862	
13.21	0.19250443	-147.60071	0.11310306	147.03772	0.11295991	146.99992	0.25732149	178.89261	
13.31	0.19906029	-147.89261	0.11267526	145.33049	0.11242906	145.36509	0.25910701	179.17828	
13.41	0.20642085	-148.22929	0.11223363	143.79568	0.11193683	143.78768	0.261053	178.80033	
13.51	0.214585	-148.3648	0.11179127	142.24633	0.11155984	142.25513	0.26656948	178.98972	
13.61	0.22245976	-148.64929	0.11139953	140.6772	0.11123293	140.6721	0.26976351	179.51054	
13.71	0.23200053	-148.95315	0.11103898	139.06362	0.11087291	139.03762	0.27198626	-179.99961	
13.81	0.2408747	-148.91248	0.11066389	137.45697	0.11042208	137.43797	0.27542831	179.9561	
13.91	0.24989616	-149.11739	0.11014712	135.85631	0.10995707	135.84841	0.28203143	-179.24408	
14.01	0.25996091	-149.24941	0.10965132	134.21964	0.10948733	134.29094	0.28418774	-178.27756	
14.11	0.26966367	-149.08091	0.10913926	132.69612	0.10896349	132.67052	0.28802453	-177.49521	
14.21	0.27864115	-148.94155	0.10864704	131.16978	0.10842212	131.12658	0.29142996	-176.8817	
14.31	0.2889915	-148.84719	0.10803877	129.56451	0.10786477	129.60001	0.29782134	-175.59668	
14.41	0.29899637	-148.55172	0.10754542	128.0685	0.10737221	128.018	0.29891609	-174.29199	
14.51	0.30925337	-148.2034	0.10707408	126.58291	0.10686472	126.55001	0.30312127	-173.31881	
14.61	0.31916586	-147.78306	0.10655755	125.06034	0.10625129	125.04194	0.30558254	-172.12193	
14.71	0.32894627	-147.24158	0.10591921	123.53334	0.10578516	123.60474	0.31147148	-170.67127	
14.81	0.33831773	-146.84673	0.10543174	122.05872	0.10521348	122.07412	0.31198676	-168.77669	
14.91	0.34820938	-146.121	0.10480899	120.60574	0.10464019	120.62644	0.3146422	-167.68035	
15.01	0.35624099	-145.46301	0.10424054	119.1349	0.10408464	119.1344	0.31725568	-166.06366	
15.11	0.36416819	-144.7729	0.10352281	117.75507	0.10343942	117.76867	0.32096284	-164.55151	
15.21	0.37202409	-144.00668	0.10303081	116.47669	0.10282935	116.46169	0.32129143	-162.32439	
15.31	0.37954213	-143.21307	0.10271141	115.14386	0.10256961	115.11756	0.32243582	-161.09796	
15.41	0.38599701	-142.46055	0.10228665	113.74463	0.10221601	113.79403	0.32490045	-159.11058	
15.51	0.39188516	-141.62881	0.10192861	112.40126	0.10185823	112.42636	0.32581478	-157.30502	
15.61	0.39547863	-140.61371	0.10163509	110.9531	0.10137799	110.9535	0.32497905	-155.0244	
15.71	0.39811879	-139.601	0.10119674	109.64381	0.1010105	109.64751	0.32359715	-153.65415	
15.81	0.40264675	-138.34361	0.10074514	108.39989	0.10060605	108.44549	0.32558822	-151.59463	
15.91	0.40691257	-137.33152	0.10057038	107.09741	0.10044309	107.10311	0.32380407	-149.45174	
16.01	0.40811356	-136.27813	0.10040909	105.68723	0.10020122	105.72563	0.32114527	-147.2932	
16.11	0.40761753	-135.07322	0.10007242	104.25012	0.099876752	104.28382	0.31786252	-145.71344	
16.21	0.40815665	-133.49098	0.099556755	103.04593	0.099419307	103.06743	0.31830394	-143.61679	
16.31	0.41128873	-131.95872	0.099324495	101.89155	0.099096055	101.88405	0.31351547	-141.24247	
16.41	0.41318059	-130.68593	0.099483889	100.67206	0.099289369	100.73166	0.30851662	-139.32301	
16.51	0.4134026	-129.69467	0.099692936	99.327831	0.09953238	99.366431	0.30216899	-137.51841	
16.61	0.41198149	-128.94366	0.099990014	98.051821	0.099748559	98.038321	0.2983386	-135.78984	
16.71	0.40953491	-128.12459	0.10013909	96.683544	0.099966309	96.630444	0.29242209	-133.48837	
16.81	0.403847	-127.36304	0.10052148	95.225216	0.10045206	95.221416	0.28471133	-131.51763	
16.91	0.39856755	-126.63971	0.10117287	93.572545	0.10111464	93.588145	0.2765944	-129.81472	
17.01	0.39050652	-126.07317	0.10177149	91.855901	0.10153742	91.861101	0.26969614	-128.04771	
17.11	0.38149152	-125.72818	0.10190272	90.118814	0.10180891	90.158714	0.26045177	-125.95416	
17.21	0.36934842	-125.67312	0.10242159	88.31602	0.10226841	88.321119	0.24969775	-124.08043	
17.31	0.35459516	-125.60206	0.10285549	86.423204	0.10286733	86.500503	0.23820825	-122.48459	
17.41	0.33595681	-125.5615	0.10347043	84.478635	0.10332757	84.536432	0.22767614	-120.93424	
17.51	0.31457614	-125.16723	0.10366596	82.391768	0.10347517	82.406467	0.21344285	-119.04003	
17.61	0.2940881	-124.0372	0.10411122	80.418568	0.10401538	80.410768	0.19933894	-117.98975	
17.71	0.27717202	-122.97982	0.10496349	78.304381	0.10477031	78.289181	0.18450174	-116.7445	
17.81	0.25738335	-123.653	0.10588152	75.700273	0.10567449	75.743473	0.17103678	-115.64443	
17.91	0.23464046	-123.18112	0.10563529	72.936794	0.10542875	72.938194	0.15282439	-113.45094	
18.01	0.21635192	-121.1495	0.10508362	70.460501	0.10495063	70.508602	0.13355459	-114.17055	
18.11	0.20684405	-121.69382	0.10493923	68.305922	0.10478228	68.322622	0.11682426	-113.15035	
18.21	0.19621445	-125.2892	0.10536948	65.898101	0.10530884	65.947303	0.095181997	-114.50067	
18.31	0.17965081	-130.78483	0.10571529	63.27264	0.10563013	63.264039	0.075431214	-114.48197	
18.41	0.15966128	-138.6249	0.10578523	60.380217	0.1056027	60.446017	0.05002667	-122.89909	
18.51	0.14043037	-147.49011	0.10592256	57.914206	0.10566678	57.961706	0.037353838	-138.30137	
18.61	0.12858958	-158.7755	0.10631789	55.171191	0.10620778	55.253191	0.023291065	-173.13914	
18.71	0.12548491	-171.53751	0.10682041	52.257093	0.10667294	52.262693	0.027521688	139.41035	
18.81	0.12835021	170.93154	0.10683666	48.687876	0.10662776	48.693576	0.05005511	110.64954	
18.91	0.14295671	154.93445	0.10646054	45.220906	0.10627685	45.256805	0.074269715	108.06662	
19.01	0.15941547	142.0594	0.10521505	41.991148	0.1050456	42.031247	0.096859247	103.25892	
19.11	0.1757757	131.74197	0.10390674	39.03777	0.1037394	39.04967	0.12176769	102.6014	
19.21	0.198552	126.69764	0.10318367	36.14124	0.10301749	36.19044	0.14525793	101.1744	
19.31	0.22534389	123.89318	0.10272526	32.933226	0.10261887	33.000226	0.17253402	101.45237	
