! Mini-Circuits
! S2P DATA File Format
! Type: Low Pass LTCC Surface Mount Filter
! Model: LFCN-3000    
! Note: All S Parameters are in dB deg format
! TEST CONDITIONS: INPUT POWER = 0dBm @Temperature = +25degC
! 401 Frequency points
!
# MHz S DB R 50
!    FREQ       dB(S11)   PHS(S11)  dB(S21)   PHS(S21)  dB(S12)   PHS(S12)  dB(S22)   PHS(S22) 
   50.000000   -39.239    46.059    -0.075    -6.899    -0.057    -6.830   -39.642    50.969 
   90.000000   -39.431    13.815    -0.090   -11.648    -0.071   -11.646   -39.601    16.176 
  130.000000   -39.615   -19.529    -0.113   -16.472    -0.092   -16.486   -39.962   -18.817 
  170.000000   -38.846   -35.333    -0.114   -21.417    -0.095   -21.440   -39.028   -33.332 
  210.000000   -37.311   -52.708    -0.126   -26.333    -0.107   -26.328   -38.344   -55.332 
  250.000000   -36.015   -66.564    -0.129   -31.267    -0.120   -31.273   -36.894   -71.317 
  290.000000   -35.031   -78.639    -0.149   -36.122    -0.128   -36.171   -35.786   -83.999 
  330.000000   -33.739   -87.448    -0.157   -41.062    -0.138   -41.102   -34.642   -93.415 
  370.000000   -32.879   -97.830    -0.164   -45.992    -0.142   -46.039   -33.516  -105.195 
  410.000000   -32.059  -105.680    -0.173   -50.927    -0.153   -50.981   -32.549  -112.746 
  450.000000   -31.170  -114.527    -0.180   -55.864    -0.158   -55.908   -31.635  -121.235 
  490.000000   -30.377  -123.511    -0.187   -60.800    -0.169   -60.847   -30.640  -128.362 
  530.000000   -29.720  -130.932    -0.194   -65.757    -0.176   -65.803   -29.887  -134.781 
  570.000000   -28.911  -138.918    -0.203   -70.713    -0.187   -70.752   -29.041  -141.753 
  610.000000   -28.191  -146.404    -0.212   -75.677    -0.192   -75.712   -28.286  -148.549 
  650.000000   -27.556  -153.248    -0.219   -80.654    -0.202   -80.694   -27.616  -154.307 
  690.000000   -26.894  -160.568    -0.226   -85.664    -0.209   -85.646   -26.863  -160.752 
  730.000000   -26.256  -167.184    -0.237   -90.650    -0.218   -90.650   -26.243  -166.478 
  770.000000   -25.654  -173.804    -0.242   -95.617    -0.224   -95.660   -25.651  -172.308 
  810.000000   -25.077   179.439    -0.253  -100.634    -0.233  -100.679   -25.011  -178.213 
  850.000000   -24.589   172.937    -0.259  -105.643    -0.245  -105.690   -24.517   175.984 
  890.000000   -24.086   166.571    -0.270  -110.682    -0.252  -110.720   -24.005   170.623 
  930.000000   -23.541   160.138    -0.279  -115.732    -0.261  -115.752   -23.491   164.619 
  970.000000   -23.157   153.775    -0.290  -120.773    -0.269  -120.820   -23.098   159.307 
 1010.000000   -22.708   147.891    -0.294  -125.836    -0.277  -125.884   -22.623   153.814 
 1050.000000   -22.240   141.572    -0.304  -130.923    -0.288  -130.968   -22.196   148.276 
 1090.000000   -21.840   135.726    -0.313  -136.009    -0.298  -136.054   -21.823   142.939 
 1130.000000   -21.430   129.865    -0.320  -141.131    -0.307  -141.166   -21.439   137.255 
 1170.000000   -21.048   124.243    -0.333  -146.239    -0.316  -146.271   -21.075   131.900 
 1210.000000   -20.708   118.289    -0.342  -151.368    -0.326  -151.412   -20.736   126.537 
 1250.000000   -20.329   112.605    -0.352  -156.505    -0.335  -156.548   -20.365   121.049 
 1290.000000   -20.033   106.709    -0.366  -161.680    -0.347  -161.698   -20.117   115.895 
 1330.000000   -19.711   100.985    -0.369  -166.854    -0.353  -166.880   -19.790   110.491 
 1370.000000   -19.418    95.147    -0.380  -172.049    -0.361  -172.079   -19.507   105.170 
 1410.000000   -19.161    89.639    -0.388  -177.263    -0.372  -177.299   -19.275    99.908 
 1450.000000   -18.894    83.846    -0.402   177.494    -0.381   177.475   -19.029    94.581 
 1490.000000   -18.647    78.511    -0.411   172.240    -0.395   172.210   -18.793    89.370 
 1530.000000   -18.463    72.730    -0.419   166.973    -0.400   166.938   -18.601    84.162 
 1570.000000   -18.231    67.194    -0.430   161.686    -0.409   161.652   -18.379    78.580 
 1610.000000   -18.039    61.750    -0.440   156.360    -0.418   156.342   -18.212    73.286 
 1650.000000   -17.888    56.268    -0.448   151.036    -0.425   151.017   -18.060    67.856 
 1690.000000   -17.729    50.551    -0.454   145.666    -0.440   145.637   -17.929    62.423 
 1730.000000   -17.594    45.211    -0.467   140.272    -0.451   140.250   -17.797    57.159 
 1770.000000   -17.501    39.701    -0.472   134.863    -0.455   134.838   -17.704    51.641 
 1810.000000   -17.371    34.264    -0.480   129.431    -0.463   129.403   -17.591    45.925 
 1850.000000   -17.290    28.790    -0.485   123.970    -0.473   123.934   -17.519    40.457 
 1890.000000   -17.217    23.336    -0.498   118.478    -0.478   118.442   -17.440    34.847 
 1930.000000   -17.180    17.810    -0.502   112.951    -0.488   112.917   -17.402    29.256 
 1970.000000   -17.146    12.391    -0.513   107.402    -0.495   107.366   -17.384    23.671 
 2010.000000   -17.151     6.874    -0.517   101.813    -0.496   101.768   -17.384    17.881 
 2050.000000   -17.152     1.491    -0.521    96.176    -0.505    96.144   -17.396    11.865 
 2090.000000   -17.213    -4.000    -0.528    90.520    -0.514    90.480   -17.434     6.211 
 2130.000000   -17.234    -9.316    -0.535    84.814    -0.518    84.784   -17.483     0.118 
 2170.000000   -17.334   -14.802    -0.543    79.075    -0.526    79.040   -17.580    -5.745 
 2210.000000   -17.443   -20.128    -0.545    73.291    -0.531    73.246   -17.686   -11.976 
 2250.000000   -17.567   -25.578    -0.550    67.459    -0.534    67.420   -17.826   -18.135 
 2290.000000   -17.708   -30.623    -0.562    61.591    -0.541    61.546   -17.958   -24.439 
 2330.000000   -17.911   -35.913    -0.566    55.686    -0.549    55.629   -18.155   -30.844 
 2370.000000   -18.121   -41.123    -0.572    49.706    -0.552    49.686   -18.359   -37.264 
 2410.000000   -18.387   -46.244    -0.578    43.706    -0.559    43.652   -18.608   -43.735 
 2450.000000   -18.674   -51.372    -0.584    37.613    -0.569    37.587   -18.880   -50.471 
 2490.000000   -19.016   -56.639    -0.591    31.504    -0.576    31.457   -19.197   -56.885 
 2530.000000   -19.418   -61.610    -0.597    25.320    -0.583    25.276   -19.574   -63.538 
 2570.000000   -19.926   -66.893    -0.604    19.065    -0.587    19.029   -20.041   -70.032 
 2610.000000   -20.460   -71.893    -0.613    12.758    -0.597    12.724   -20.544   -76.632 
 2650.000000   -21.147   -76.872    -0.619     6.375    -0.604     6.340   -21.143   -83.076 
 2690.000000   -21.905   -81.888    -0.629    -0.087    -0.615    -0.112   -21.829   -89.589 
 2730.000000   -22.792   -86.979    -0.644    -6.603    -0.622    -6.638   -22.583   -95.452 
 2770.000000   -23.931   -92.233    -0.653   -13.217    -0.634   -13.257   -23.530  -101.039 
 2810.000000   -25.440   -97.541    -0.664   -19.927    -0.646   -19.968   -24.680  -105.523 
 2850.000000   -27.291  -102.701    -0.679   -26.732    -0.664   -26.746   -25.936  -108.450 
 2890.000000   -30.206  -108.869    -0.691   -33.619    -0.672   -33.664   -27.548  -108.341 
 2930.000000   -34.683  -114.219    -0.712   -40.642    -0.692   -40.674   -29.316  -103.226 
 2970.000000   -47.442  -127.409    -0.734   -47.748    -0.714   -47.804   -30.519   -88.809 
 3000.000000   -42.947    67.447    -0.753   -53.160    -0.737   -53.203   -30.291   -76.051 
 3050.000000   -30.968    55.039    -0.785   -62.356    -0.761   -62.430   -28.085   -58.950 
 3090.000000   -26.585    47.760    -0.823   -69.930    -0.801   -69.987   -25.567   -53.295 
 3130.000000   -23.435    42.489    -0.867   -77.595    -0.847   -77.670   -23.023   -54.298 
 3170.000000   -20.937    36.637    -0.911   -85.434    -0.897   -85.511   -20.835   -58.633 
 3210.000000   -18.734    30.506    -0.972   -93.484    -0.956   -93.563   -18.839   -64.673 
 3250.000000   -16.862    24.277    -1.050  -101.723    -1.034  -101.792   -17.036   -72.361 
 3290.000000   -15.138    17.732    -1.132  -110.176    -1.124  -110.280   -15.384   -80.794 
 3330.000000   -13.602    10.844    -1.256  -118.900    -1.243  -118.985   -13.850   -89.569 
 3370.000000   -12.196     4.238    -1.389  -127.716    -1.383  -127.820   -12.419   -99.551 
 3410.000000   -10.826    -2.957    -1.553  -136.872    -1.551  -136.959   -11.139  -109.495 
 3450.000000    -9.574   -10.930    -1.753  -146.362    -1.751  -146.472    -9.908  -119.611 
 3490.000000    -8.450   -18.983    -2.018  -156.011    -2.020  -156.099    -8.770  -130.318 
 3530.000000    -7.437   -27.056    -2.328  -165.807    -2.334  -165.893    -7.707  -141.302 
 3570.000000    -6.486   -35.539    -2.696  -175.832    -2.702  -175.878    -6.761  -152.352 
 3600.000000    -5.847   -42.049    -3.023   176.523    -3.027   176.469    -6.090  -160.696 
 3650.000000    -4.869   -52.703    -3.654   163.925    -3.664   163.873    -5.106  -174.742 
 3690.000000    -4.197   -61.490    -4.231   153.747    -4.236   153.712    -4.419   174.027 
 3730.000000    -3.589   -70.260    -4.877   143.631    -4.889   143.644    -3.824   162.984 
 3770.000000    -3.073   -79.009    -5.607   133.619    -5.616   133.675    -3.316   152.058 
 3810.000000    -2.634   -87.730    -6.394   123.804    -6.408   123.892    -2.884   141.308 
 3850.000000    -2.269   -96.281    -7.246   114.161    -7.253   114.260    -2.522   130.847 
 3890.000000    -1.974  -104.656    -8.154   104.779    -8.167   104.950    -2.223   120.633 
 3930.000000    -1.739  -112.768    -9.118    95.562    -9.130    95.714    -1.981   110.801 
 3970.000000    -1.535  -120.569   -10.146    86.846   -10.161    87.047    -1.779   101.377 
 4010.000000    -1.367  -128.211   -11.193    78.420   -11.195    78.632    -1.607    92.093 
 4050.000000    -1.229  -135.750   -12.233    70.137   -12.246    70.361    -1.477    83.148 
 4090.000000    -1.129  -142.939   -13.373    62.014   -13.382    62.267    -1.378    74.534 
 4130.000000    -1.034  -149.987   -14.501    54.401   -14.506    54.690    -1.286    66.117 
 4170.000000    -0.962  -156.808   -15.663    46.811   -15.664    47.089    -1.220    57.923 
 4210.000000    -0.909  -163.496   -16.831    39.422   -16.838    39.755    -1.174    49.950 
 4250.000000    -0.861  -169.986   -18.081    31.953   -18.072    32.250    -1.145    42.200 
 4290.000000    -0.824  -176.331   -19.391    24.974   -19.390    25.338    -1.117    34.754 
 4330.000000    -0.788   177.517   -20.686    18.415   -20.685    18.742    -1.084    27.304 
 4370.000000    -0.761   171.364   -22.038    11.615   -22.036    11.997    -1.070    20.035 
 4410.000000    -0.736   165.460   -23.470     5.600   -23.460     5.944    -1.046    12.937 
 4450.000000    -0.719   159.539   -24.867    -0.527   -24.872    -0.121    -1.028     5.791 
 4490.000000    -0.700   153.775   -26.371    -6.317   -26.356    -5.932    -1.014    -1.248 
 4550.000000    -0.680   145.235   -28.691   -14.834   -28.685   -14.397    -1.019   -11.653 
 4570.000000    -0.675   142.447   -29.533   -17.612   -29.526   -17.223    -1.024   -15.066 
 4610.000000    -0.661   136.879   -31.279   -22.615   -31.282   -22.180    -1.025   -21.855 
 4650.000000    -0.654   131.452   -33.120   -26.934   -33.115   -26.463    -1.030   -28.629 
 4690.000000    -0.649   125.976   -35.032   -30.654   -35.037   -30.170    -1.050   -35.372 
 4730.000000    -0.635   120.672   -37.126   -33.714   -37.117   -33.297    -1.041   -42.004 
 4780.000000    -0.631   113.993   -39.940   -35.449   -39.939   -34.909    -1.052   -50.336 
 4810.000000    -0.617   110.084   -41.690   -35.394   -41.670   -34.816    -1.047   -55.240 
 4850.000000    -0.621   104.874   -44.416   -33.217   -44.434   -32.667    -1.032   -61.927 
 4890.000000    -0.611    99.724   -47.115   -24.692   -47.105   -24.244    -1.037   -68.624 
 4930.000000    -0.610    94.543   -49.291    -9.222   -49.244    -8.771    -1.040   -75.398 
 4970.000000    -0.608    89.532   -49.580     7.636   -49.534     8.049    -1.046   -82.024 
 5010.000000    -0.604    84.389   -49.165    21.602   -49.121    22.285    -1.051   -88.760 
 5050.000000    -0.595    79.418   -47.666    24.564   -47.677    25.217    -1.056   -95.406 
 5090.000000    -0.599    74.403   -47.095    22.383   -47.079    22.992    -1.064  -102.052 
 5130.000000    -0.590    69.419   -46.998    20.045   -46.986    20.471    -1.060  -108.719 
 5170.000000    -0.595    64.479   -46.754    14.816   -46.766    15.448    -1.062  -115.369 
 5210.000000    -0.587    59.643   -46.928     8.880   -46.890     9.515    -1.060  -121.977 
 5250.000000    -0.595    54.752   -46.871     0.751   -46.859     1.170    -1.067  -128.689 
 5290.000000    -0.591    49.964   -47.433   -10.903   -47.447   -10.645    -1.064  -135.261 
 5330.000000    -0.596    45.095   -48.331   -24.885   -48.323   -23.937    -1.067  -141.913 
 5370.000000    -0.594    40.331   -49.368   -36.994   -49.330   -36.566    -1.052  -148.451 
 5410.000000    -0.599    35.506   -50.036   -53.942   -50.057   -53.268    -1.060  -155.012 
 5450.000000    -0.595    30.771   -50.906   -77.674   -50.787   -77.488    -1.048  -161.513 
 5490.000000    -0.601    26.025   -51.185  -101.795   -51.198  -100.950    -1.044  -167.988 
 5530.000000    -0.599    21.316   -51.038  -124.264   -50.965  -123.844    -1.035  -174.431 
 5570.000000    -0.607    16.597   -49.679  -144.119   -49.573  -143.900    -1.028   179.135 
 5610.000000    -0.603    11.991   -48.341  -164.098   -48.370  -163.795    -1.016   172.868 
 5650.000000    -0.613     7.274   -47.384  -179.401   -47.366  -178.611    -1.018   166.516 
 5690.000000    -0.613     2.684   -46.180   170.704   -46.147   171.276    -1.000   160.276 
 5730.000000    -0.617    -1.880   -44.837   159.911   -44.803   160.399    -1.002   154.138 
 5770.000000    -0.619    -6.436   -43.632   150.228   -43.610   150.593    -0.985   148.005 
 5810.000000    -0.627   -11.102   -42.506   140.208   -42.480   140.780    -0.980   141.960 
 5850.000000    -0.636   -15.657   -41.580   130.537   -41.518   130.973    -0.969   136.011 
 5890.000000    -0.659   -20.201   -40.645   119.546   -40.592   120.218    -0.958   130.166 
 5930.000000    -0.683   -24.482   -40.435   108.782   -40.407   108.976    -0.951   124.379 
 5970.000000    -0.661   -28.911   -40.145   103.896   -40.086   104.553    -0.942   118.658 
 6010.000000    -0.662   -33.399   -39.293    96.485   -39.225    97.085    -0.929   113.010 
 6050.000000    -0.673   -37.779   -38.697    87.954   -38.668    88.241    -0.930   107.565 
 6090.000000    -0.677   -42.091   -38.344    80.108   -38.298    80.620    -0.916   102.111 
 6130.000000    -0.682   -46.446   -37.958    72.567   -37.921    72.946    -0.920    96.691 
 6170.000000    -0.684   -50.741   -37.492    66.051   -37.452    66.725    -0.907    91.297 
 6210.000000    -0.684   -55.015   -37.182    59.504   -37.159    59.907    -0.896    86.064 
 6250.000000    -0.689   -59.369   -36.461    53.492   -36.407    53.904    -0.894    80.855 
 6290.000000    -0.702   -63.467   -36.257    44.167   -36.209    44.644    -0.886    75.848 
 6330.000000    -0.709   -67.785   -35.646    39.567   -35.608    40.080    -0.883    70.843 
 6370.000000    -0.717   -71.972   -35.125    32.453   -35.063    32.932    -0.885    65.890 
 6410.000000    -0.725   -76.126   -34.531    25.934   -34.529    26.460    -0.874    60.997 
 6450.000000    -0.758   -80.310   -33.686    16.173   -33.637    16.700    -0.890    56.305 
 6490.000000    -0.770   -84.336   -33.400     9.015   -33.376     9.439    -0.884    51.529 
 6530.000000    -0.796   -88.268   -32.867    -1.587   -32.841    -0.924    -0.882    47.051 
 6570.000000    -0.789   -92.267   -32.914    -9.718   -32.886    -9.106    -0.887    42.459 
 6610.000000    -0.797   -96.103   -32.581   -19.055   -32.550   -18.620    -0.877    38.006 
 6650.000000    -0.766  -100.016   -33.269   -26.540   -33.289   -25.820    -0.865    33.622 
 6690.000000    -0.762  -104.222   -33.122   -26.544   -33.066   -25.951    -0.855    29.132 
 6730.000000    -0.786  -108.177   -32.270   -30.890   -32.256   -30.376    -0.864    24.790 
 6770.000000    -0.805  -112.049   -31.574   -37.561   -31.566   -36.905    -0.876    20.661 
 6810.000000    -0.831  -115.767   -30.934   -48.161   -30.913   -47.688    -0.888    16.466 
 6850.000000    -0.808  -119.475   -31.325   -56.175   -31.308   -55.437    -0.862    12.479 
 6890.000000    -0.809  -123.331   -31.244   -60.842   -31.221   -60.436    -0.871     8.326 
 6930.000000    -0.807  -127.159   -31.028   -65.786   -31.026   -65.364    -0.859     4.309 
 6970.000000    -0.805  -130.967   -30.829   -70.960   -30.775   -70.223    -0.870     0.412 
 7010.000000    -0.804  -134.746   -30.752   -76.251   -30.728   -75.896    -0.857    -3.528 
 7050.000000    -0.818  -138.590   -30.286   -77.987   -30.297   -77.329    -0.860    -7.508 
 7090.000000    -0.825  -142.151   -30.039   -84.860   -30.040   -84.519    -0.863   -11.201 
 7130.000000    -0.844  -145.847   -29.384   -91.109   -29.355   -90.543    -0.882   -14.995 
 7170.000000    -0.843  -149.495   -29.261   -95.566   -29.244   -95.016    -0.867   -18.629 
 7210.000000    -0.871  -153.041   -28.655  -101.048   -28.679  -100.549    -0.893   -22.286 
 7250.000000    -0.863  -156.493   -28.395  -108.901   -28.353  -108.194    -0.882   -25.828 
 7290.000000    -0.840  -160.047   -28.631  -115.498   -28.657  -115.183    -0.875   -29.319 
 7330.000000    -0.840  -163.714   -28.658  -118.170   -28.585  -117.373    -0.867   -32.961 
 7370.000000    -0.839  -167.252   -28.396  -123.019   -28.427  -122.431    -0.867   -36.510 
 7410.000000    -0.842  -170.838   -28.355  -126.068   -28.379  -125.520    -0.861   -39.960 
 7450.000000    -0.867  -174.434   -27.958  -129.161   -27.906  -128.620    -0.881   -43.427 
 7500.000000    -0.869  -178.675   -27.660  -135.069   -27.719  -134.713    -0.871   -47.624 
 7530.000000    -0.880   178.727   -27.570  -138.109   -27.554  -137.185    -0.888   -50.185 
 7570.000000    -0.896   175.193   -27.190  -140.314   -27.188  -139.987    -0.884   -53.581 
 7610.000000    -0.926   171.909   -26.553  -144.384   -26.569  -143.816    -0.912   -56.867 
 7650.000000    -0.922   168.724   -26.423  -151.420   -26.424  -151.070    -0.903   -59.957 
 7690.000000    -0.911   165.327   -26.297  -155.545   -26.290  -154.891    -0.911   -63.278 
 7730.000000    -0.911   161.967   -26.102  -158.508   -26.119  -158.041    -0.923   -66.499 
 7770.000000    -0.922   158.612   -25.719  -162.434   -25.740  -161.921    -0.943   -69.635 
 7810.000000    -0.927   155.453   -25.321  -166.931   -25.336  -166.517    -0.951   -72.687 
 7850.000000    -0.939   152.299   -24.864  -172.728   -24.883  -172.265    -0.975   -75.674 
 7890.000000    -0.902   149.044   -24.946  -179.487   -24.943  -178.950    -0.960   -78.600 
 7930.000000    -0.891   145.715   -24.999   176.719   -25.054   177.404    -0.950   -81.772 
 7970.000000    -0.897   142.364   -25.001   173.731   -25.005   174.078    -0.951   -84.837 
 8010.000000    -0.900   139.044   -24.774   170.664   -24.839   171.291    -0.961   -87.880 
 8050.000000    -0.924   135.891   -24.499   167.125   -24.518   167.684    -0.973   -90.848 
 8090.000000    -0.907   132.684   -24.407   162.543   -24.462   162.814    -0.972   -93.769 
 8130.000000    -0.909   129.518   -24.378   159.546   -24.425   160.118    -0.983   -96.795 
 8170.000000    -0.931   126.337   -24.010   157.614   -24.049   157.885    -1.022   -99.700 
 8210.000000    -0.929   123.182   -23.718   152.331   -23.786   152.786    -1.021  -102.425 
 8250.000000    -0.932   120.151   -23.550   148.479   -23.620   148.682    -1.021  -105.295 
 8290.000000    -0.941   116.949   -23.402   144.680   -23.432   145.094    -1.027  -108.066 
 8330.000000    -0.916   114.019   -23.261   140.097   -23.347   140.247    -1.013  -110.874 
 8370.000000    -0.927   110.826   -23.382   136.303   -23.432   136.687    -1.005  -113.824 
