!
! Hittite Microwave Corporation
! 2 Elizabeth Drive
! Chelmsford, MA 01824
! http://www.hittite.com
! Tel: 978-250-3343
! Fax: 978-250-3373
! 
! Device:      HMC424LP3
! Description: 0.5 dB GaAs MMIC 6-Bit Digital Attenuator
! Frequency:    DC -  13.00 GHz
! Package:     LP3  - 3x3 mm Quad Flatpack No-Lead (QFN) Plastic Package: 16 pin
! Ports:       2 RF, 7 DC
!              Pad  1  = Ground
!              Pad  2  = RF IN   = Port 1
!              Pad  3  = Ground
!              Pad  4  = V6
!              Pad  5  = V5
!              Pad  6  = V4
!              Pad  7  = V3
!              Pad  8  = V2
!              Pad  9  = V1
!              Pad 10  = Ground
!              Pad 11  = RF OUT  = Port 2
!              Pad 12  = Ground
!              Pad 15  = VEE
!
! Control:     -5 Volt control voltage
! State:        2 
! Attenuation:  1.0 dB
! Voltages:    Vdd = -5.00 Volts  Idd =  -2.316 mA
!              V1  = 0.00 Volts  I1  =  30.0 uA
!              V2  = -5.00 Volts  I2  =  -1.0 uA
!              V3  = 0.00 Volts  I3  =  30.0 uA
!              V4  = 0.00 Volts  I4  =  29.0 uA
!              V5  = 0.00 Volts  I5  =  29.0 uA
!              V6  = 0.00 Volts  I6  =  30.0 uA
!
! Data:    The device was measured on evaluation board 105354-1. 
!          Data was collected using a calibrated network analyzer.
!          The evaluation circuit board was modeled and simulated.  This was use
!          to removed the evaluation board circuit from the measured data.
!          The reference plane is the edge of the package pin.
!
! Misc:    Lot xxxx, Unit 1
!          Application 20120001, Data collected in Application 20090083
!
! Date Measured:  2009-09-15
! Date:           2012-05-14  MJV
! Note: 
!   Hittite supplies this data as a sample of measured data at the package pin
!   for this product.  Your particular data for this product may vary.
!   Data was taken at 25 degrees C.
!   Hittite reserves the right to change this data at anytime.
!
# GHz S MA R 50

0.01	0.11877664	2.743233	0.6699723	-1.3165085	0.66835446	-1.3988085	0.18695601	1.4261372	
0.11	0.11258127	-4.0097492	0.6654444	-2.4741557	0.66483178	-2.4803557	0.18316503	-2.127516	
0.21	0.11267586	-7.3504722	0.6641098	-4.2781424	0.66372762	-4.2975424	0.1821673	-5.83482	
0.31	0.11502417	-10.364628	0.66319588	-6.0811309	0.66235653	-6.1093309	0.18726619	-8.2030502	
0.41	0.1157316	-14.070226	0.66260779	-7.8131503	0.66237897	-7.8418503	0.18801759	-10.094737	
0.51	0.11725369	-17.595787	0.66122386	-9.672291	0.66053908	-9.706891	0.18637362	-12.542455	
0.61	0.11813775	-20.571847	0.66049368	-11.444147	0.6597337	-11.435047	0.18703769	-15.928551	
0.71	0.12158398	-23.440989	0.65957593	-13.185837	0.65851367	-13.226337	0.19305298	-18.215521	
0.81	0.12317898	-26.795588	0.65890044	-14.981586	0.65761211	-14.983086	0.19257555	-19.565585	
0.91	0.1246528	-29.362902	0.65759988	-16.780605	0.65676761	-16.767805	0.19268436	-22.576493	
1.01	0.12676039	-31.119678	0.65651335	-18.492879	0.65583345	-18.492979	0.19535872	-25.128547	
1.11	0.12954568	-33.66448	0.65586117	-20.243041	0.65525738	-20.283441	0.20148598	-26.474599	
1.21	0.13079496	-36.226055	0.65466512	-21.992341	0.65391184	-22.020341	0.1988444	-27.382164	
1.31	0.13170921	-38.148912	0.65374142	-23.749109	0.65291404	-23.752309	0.20057804	-30.430785	
1.41	0.13415676	-39.410124	0.65310955	-25.436627	0.65228296	-25.399927	0.20471985	-31.835223	
1.51	0.13614722	-41.715999	0.65226922	-27.197041	0.65166874	-27.192641	0.20801402	-32.656781	
1.61	0.13687908	-43.696276	0.65097539	-28.917229	0.65022636	-28.918329	0.20433879	-33.600386	
1.71	0.13626708	-45.027868	0.65034229	-30.606815	0.64907069	-30.600315	0.20576538	-36.391379	
1.81	0.13825735	-46.483864	0.6492396	-32.299355	0.64864191	-32.303855	0.20923195	-37.444775	
1.91	0.13850179	-48.512971	0.64885922	-34.045068	0.64788881	-34.033568	0.2094203	-38.326117	
2.01	0.13699425	-50.379853	0.64757229	-35.740938	0.64638051	-35.725738	0.20565286	-39.724844	
2.11	0.13628325	-51.507906	0.64677616	-37.411465	0.64603196	-37.407965	0.20734114	-42.586087	
2.21	0.13762625	-53.280771	0.64624774	-39.153891	0.64528124	-39.100591	0.21103732	-43.479451	
2.31	0.13741356	-55.497319	0.64571434	-40.856907	0.6443776	-40.799507	0.20988761	-44.512335	
2.41	0.13561578	-57.316848	0.64425602	-42.502014	0.64329249	-42.479614	0.20720926	-46.495573	
2.51	0.13569979	-58.661156	0.6439339	-44.163224	0.64289684	-44.137924	0.21023139	-49.23233	
2.61	0.13655523	-61.195261	0.64350408	-45.922829	0.64261566	-45.877629	0.21354721	-49.89643	
2.71	0.1358648	-63.741596	0.64240813	-47.602351	0.64181672	-47.624851	0.21082786	-51.483532	
2.81	0.13408536	-65.853405	0.6413819	-49.299779	0.640939	-49.287579	0.20983792	-53.89838	
2.91	0.13576403	-67.88891	0.64110081	-50.951308	0.64058436	-50.988908	0.21323256	-56.343229	
3.01	0.13623562	-70.983521	0.64043324	-52.726585	0.63940181	-52.737885	0.21606282	-57.016541	
3.11	0.13503266	-73.834823	0.63910402	-54.439905	0.63844215	-54.411505	0.21148008	-58.969479	
3.21	0.1344477	-76.086477	0.63801586	-56.092012	0.63757529	-56.104112	0.21167527	-61.759588	
3.31	0.13551203	-78.833291	0.63743697	-57.835954	0.63670352	-57.759654	0.21500568	-63.723161	
3.41	0.13644858	-82.218416	0.63648423	-59.538587	0.6356055	-59.540187	0.2153787	-64.720039	
3.51	0.13563557	-84.838993	0.63505787	-61.183913	0.63432715	-61.202613	0.2115333	-67.071745	
3.61	0.13653824	-87.308936	0.63415118	-62.863562	0.63327568	-62.885362	0.21357939	-70.185155	
3.71	0.13891195	-90.057975	0.63339347	-64.568408	0.63251901	-64.550108	0.21702322	-71.887599	
3.81	0.13987444	-92.918497	0.63207156	-66.270097	0.63119893	-66.273097	0.21595946	-73.04392	
3.91	0.13965874	-95.169505	0.63036134	-67.893463	0.63021622	-67.880963	0.21269633	-75.874322	
4.01	0.14853199	-94.201321	0.63093875	-69.517498	0.63021278	-69.508798	0.22627108	-76.969166	
4.11	0.15041975	-96.363458	0.62970304	-71.240376	0.62897848	-71.214376	0.22896027	-77.924603	
4.21	0.15168659	-98.314455	0.62822036	-72.896414	0.62771427	-72.837314	0.22808733	-79.055649	
4.31	0.15257661	-99.262572	0.62727233	-74.472745	0.62655057	-74.515345	0.22706879	-81.423283	
4.41	0.15480908	-100.28766	0.6265589	-76.181826	0.62554982	-76.158926	0.23335752	-82.911066	
4.51	0.15577216	-101.81088	0.62503372	-77.861323	0.6241708	-77.859323	0.23431614	-83.008823	
4.61	0.15570371	-102.85204	0.62374061	-79.478329	0.62287947	-79.456529	0.23270406	-83.827632	
4.71	0.15647755	-103.15255	0.62296929	-81.068878	0.6220376	-81.081178	0.23201536	-85.512484	
4.81	0.15775415	-103.72009	0.62223334	-82.734527	0.62158894	-82.680727	0.23776868	-86.25308	
4.91	0.1575625	-104.46746	0.62032871	-84.391237	0.61940097	-84.366437	0.23621974	-85.847527	
5.01	0.15659751	-104.47758	0.61933615	-85.946126	0.61876598	-85.968126	0.23362541	-86.599225	
5.11	0.1567308	-103.90478	0.61892266	-87.551494	0.61799703	-87.532594	0.23340504	-87.757329	
5.21	0.15694458	-104.09842	0.61819328	-89.163575	0.61741088	-89.169175	0.23810726	-88.154661	
5.31	0.15574571	-103.96495	0.61653224	-90.786047	0.61596465	-90.807047	0.23579242	-87.166904	
5.41	0.15435767	-102.91651	0.61612977	-92.357781	0.61556256	-92.344581	0.23346504	-88.087289	
5.51	0.15490294	-102.0371	0.61590562	-93.909404	0.61512612	-93.938604	0.23520035	-88.685837	
5.61	0.15434062	-101.38789	0.61524072	-95.545527	0.61460356	-95.528127	0.23907525	-88.51087	
5.71	0.15208896	-100.64074	0.61466941	-97.181882	0.61375013	-97.154882	0.23704977	-87.422083	
5.81	0.15148254	-98.959762	0.61477299	-98.718303	0.61364158	-98.719603	0.23497794	-88.282595	
5.91	0.15064688	-98.427178	0.61438127	-100.36011	0.6136037	-100.34951	0.23901	-88.499773	
6.01	0.14932492	-97.356833	0.61424592	-101.97342	0.61346851	-101.98202	0.24207756	-87.826397	
6.11	0.14710111	-96.151679	0.61350452	-103.59994	0.61301029	-103.58964	0.23936083	-86.732285	
6.21	0.1457508	-94.455087	0.61419309	-105.22218	0.61313333	-105.19058	0.23707537	-87.61836	
6.31	0.14440609	-94.018743	0.61438773	-106.86405	0.61346888	-106.83415	0.24126949	-87.565175	
6.41	0.14092302	-92.616114	0.61390434	-108.49952	0.61305679	-108.48892	0.24120434	-86.801699	
6.51	0.13763431	-91.237512	0.61382827	-110.16877	0.6130514	-110.11547	0.2378041	-86.148748	
6.61	0.13513461	-90.209312	0.61491851	-111.8338	0.61399886	-111.7978	0.23431851	-87.382375	
6.71	0.13146874	-90.085807	0.61519893	-113.51449	0.61427886	-113.51669	0.23650464	-87.79291	
6.81	0.12712352	-89.231649	0.6150889	-115.22812	0.61423971	-115.20602	0.23327965	-87.579422	
6.91	0.12287313	-88.763372	0.6161127	-116.91572	0.61504963	-116.90332	0.22832834	-88.150539	
7.01	0.11877384	-89.120257	0.61721049	-118.70364	0.61642933	-118.67614	0.22292577	-90.182555	
7.11	0.11216364	-90.153573	0.61767055	-120.47698	0.61710192	-120.45598	0.22425259	-91.449725	
7.21	0.10543832	-90.794364	0.61796678	-122.2444	0.61711362	-122.2211	0.21755809	-92.068376	
7.31	0.098749953	-92.206394	0.61916067	-124.05645	0.61837705	-124.04525	0.21129808	-94.575459	
7.41	0.091550395	-95.018316	0.62089619	-125.93364	0.6199676	-125.90864	0.20721297	-97.743413	
7.51	0.082376395	-98.283363	0.62130254	-127.81118	0.62030192	-127.79258	0.20588874	-100.03754	
7.61	0.074140409	-102.46539	0.62130058	-129.68656	0.62037139	-129.64426	0.19782465	-101.8767	
7.71	0.066630492	-108.50785	0.62250634	-131.61983	0.62164691	-131.58053	0.19087834	-106.14995	
7.81	0.059292706	-118.18429	0.62312827	-133.58675	0.62212471	-133.57625	0.18655668	-110.39153	
7.91	0.052283827	-129.53678	0.62303982	-135.5686	0.62225128	-135.5376	0.18398348	-113.96771	
8.01	0.048154685	-143.50126	0.62247407	-137.53476	0.62175783	-137.50856	0.17485914	-117.82506	
8.11	0.049193191	-159.82132	0.62280512	-139.56114	0.62201689	-139.54334	0.17028449	-124.15922	
8.21	0.053208567	-176.0061	0.62264081	-141.6055	0.62156648	-141.5984	0.168591	-129.63178	
8.31	0.059893022	171.12743	0.62156048	-143.6142	0.62084529	-143.5745	0.16695414	-134.3756	
8.41	0.0692502	161.72256	0.62052595	-145.63146	0.6197406	-145.61606	0.16106712	-140.49684	
8.51	0.081121447	154.73895	0.62025716	-147.73645	0.61940083	-147.69325	0.16387481	-148.00672	
8.61	0.092840165	148.60571	0.61856512	-149.8151	0.61764002	-149.7875	0.16819263	-153.55525	
8.71	0.10492551	144.38246	0.61701601	-151.80405	0.61609323	-151.78625	0.17049787	-158.4975	
8.81	0.11720799	141.42841	0.61496437	-153.84384	0.61383261	-153.83574	0.17202244	-164.78314	
8.91	0.12957791	139.12922	0.61332501	-155.92025	0.61276037	-155.91375	0.18250958	-170.27466	
9.01	0.13983981	136.84756	0.61079495	-157.95035	0.61002192	-157.92045	0.18902735	-173.607	
9.11	0.14975065	134.95583	0.60832212	-159.88492	0.60748227	-159.85532	0.19558749	-176.90917	
9.21	0.15907551	134.45131	0.60612505	-161.80606	0.60549733	-161.79566	0.20013466	179.46589	
9.31	0.16820533	133.06537	0.60391568	-163.85395	0.60301249	-163.81055	0.21208832	176.34484	
9.41	0.1758079	132.57917	0.60113393	-165.7165	0.60037313	-165.6913	0.21703138	175.58705	
9.51	0.18161883	132.23304	0.59807659	-167.5439	0.59725089	-167.5066	0.22011474	173.34257	
9.61	0.1873388	132.21548	0.5957651	-169.41811	0.59494258	-169.36151	0.22738699	171.55432	
9.71	0.1910703	132.55391	0.59387262	-171.23356	0.59298445	-171.20096	0.23407695	170.65195	
9.81	0.19336287	132.78303	0.59154083	-173.03319	0.59079217	-173.02239	0.23757372	170.39904	
9.91	0.19471514	133.32081	0.5887995	-174.7524	0.58791891	-174.7315	0.23917661	169.35307	
10.01	0.19615864	133.81317	0.58694699	-176.57784	0.58613665	-176.53254	0.24586636	168.68896	
10.11	0.19651865	134.67524	0.58470439	-178.33056	0.58403161	-178.30006	0.25083021	168.81764	
10.21	0.19539397	135.57883	0.5827964	179.96618	0.5818578	179.97918	0.25230352	169.61915	
10.31	0.19388616	137.1526	0.58022327	178.27633	0.57968911	178.30713	0.25279513	169.2195	
10.41	0.19247662	138.06364	0.57857854	176.5542	0.57764674	176.5888	0.25923171	169.63346	
10.51	0.19053357	139.64519	0.57638567	174.85866	0.57598766	174.90976	0.26374102	170.49954	
10.61	0.18782458	141.63073	0.57525361	173.24327	0.57459171	173.27387	0.26469257	171.57285	
10.71	0.18517311	143.56799	0.57347891	171.55828	0.5724894	171.59928	0.26621205	171.56233	
10.81	0.18326344	145.46712	0.572369	169.83718	0.57164459	169.89888	0.27228308	172.29325	
10.91	0.17999909	147.67547	0.57105955	168.19942	0.57020549	168.25952	0.27462466	173.65249	
11.01	0.17836871	149.9459	0.5695386	166.57369	0.56888327	166.60269	0.27477953	174.64121	
11.11	0.1761013	152.46578	0.56820061	164.94616	0.56735083	164.94636	0.27563729	174.90859	
11.21	0.17416581	154.5218	0.56698339	163.27615	0.56620062	163.29515	0.28060575	175.61845	
11.31	0.1725257	156.71897	0.56573155	161.59727	0.56488546	161.64287	0.28120035	176.7238	
11.41	0.17242854	158.99759	0.56479803	159.99834	0.56401827	160.04814	0.28088777	177.57123	
11.51	0.17159883	160.96064	0.56364548	158.35371	0.56280251	158.38191	0.28115731	177.3898	
11.61	0.17076387	162.7227	0.56237751	156.64463	0.56160109	156.68973	0.28623711	177.67952	
11.71	0.17027908	164.73693	0.56127113	154.9908	0.56068986	155.0376	0.28595161	178.3935	
11.81	0.17065905	166.44541	0.56013228	153.37408	0.55942337	153.38258	0.28621141	178.29617	
11.91	0.17065225	168.02779	0.55883084	151.64856	0.55786661	151.70166	0.28743429	178.13157	
12.01	0.17095236	169.49116	0.55784301	149.94108	0.55713699	149.99268	0.2917174	178.1068	
12.11	0.17168932	171.00463	0.55662335	148.24948	0.55617495	148.29588	0.29158668	178.47792	
12.21	0.17327325	172.25598	0.55538602	146.61882	0.55468311	146.63292	0.29223292	177.97135	
12.31	0.17472305	173.36547	0.55377953	144.8462	0.55326972	144.8747	0.29555318	177.65766	
12.41	0.17697579	174.34348	0.5515875	143.08832	0.55114316	143.10962	0.30070836	177.60519	
12.51	0.17853834	174.80782	0.55016452	141.44161	0.54921524	141.46501	0.30156678	177.85708	
12.61	0.17964757	175.52853	0.54835474	139.84593	0.54784992	139.88003	0.30323154	176.84095	
12.71	0.18141469	176.98681	0.54753101	138.17345	0.54677509	138.21605	0.30808077	176.524	
12.81	0.18405558	178.08324	0.54643129	136.48102	0.54555125	136.52552	0.31185209	176.39511	
12.91	0.1877816	179.12558	0.54585379	134.76671	0.54516294	134.80151	0.31339486	176.56762	
13.01	0.1909732	179.97531	0.54474444	133.06779	0.54411764	133.10509	0.31598556	175.8296	
13.11	0.19589989	-179.0944	0.54300794	131.312	0.54244559	131.376	0.3215648	175.63551	
13.21	0.2007388	-178.18513	0.54129459	129.60342	0.54085853	129.63202	0.32573234	175.57474	
13.31	0.20568444	-177.5229	0.54011483	127.89149	0.53936915	127.90829	0.32910899	175.61391	
13.41	0.21165403	-176.88865	0.53847917	126.21026	0.53736442	126.25716	0.3330422	175.03787	
13.51	0.21757752	-176.01388	0.53657949	124.50865	0.53571532	124.53775	0.34054067	174.9792	
13.61	0.22453913	-175.44616	0.53482901	122.81392	0.53390619	122.86242	0.3455173	175.0845	
13.71	0.23212513	-174.82207	0.53310696	121.13303	0.53230966	121.16723	0.3494176	175.14354	
13.81	0.23929263	-173.97523	0.53112266	119.46329	0.53026729	119.50719	0.35511389	174.70749	
13.91	0.24669599	-173.51494	0.52916175	117.82047	0.52824871	117.84007	0.36340988	175.00351	
14.01	0.25530463	-173.01296	0.52730892	116.14754	0.52664155	116.20674	0.367335	175.27977	
14.11	0.26261852	-172.32717	0.52565541	114.50606	0.52462761	114.51796	0.37263029	175.37682	
14.21	0.26942342	-171.78755	0.52357504	112.88042	0.5229726	112.92372	0.37750416	175.27617	
14.31	0.27760691	-171.25863	0.52166202	111.29184	0.52082188	111.34424	0.38476887	175.75183	
14.41	0.28480948	-170.63104	0.51987882	109.70006	0.51910131	109.73146	0.38648377	176.04244	
14.51	0.29148362	-169.99221	0.51852448	108.1299	0.51768939	108.1613	0.39050527	176.1101	
14.61	0.29779477	-169.32182	0.51710533	106.5382	0.51621309	106.5579	0.39279182	176.24034	
14.71	0.30316504	-168.61093	0.51518809	104.97006	0.51465455	105.04636	0.39714346	176.69556	
14.81	0.30795509	-168.04958	0.51385786	103.39783	0.5133848	103.45653	0.39551313	177.27507	
14.91	0.3123814	-167.13032	0.51311155	101.87427	0.51228518	101.90167	0.39578852	177.21494	
15.01	0.31484994	-166.36204	0.51206879	100.33179	0.51124409	100.34489	0.39449415	177.56294	
15.11	0.31619097	-165.60335	0.51103868	98.820361	0.51074458	98.865261	0.39394749	177.85778	
15.21	0.31683108	-164.72358	0.51029459	97.27104	0.5098248	97.29234	0.38752491	178.55156	
15.31	0.31692068	-163.72735	0.51060919	95.742875	0.50990425	95.783475	0.38317081	178.51946	
15.41	0.31555851	-162.79213	0.5106262	94.183184	0.50992123	94.240384	0.37732022	179.13118	
15.51	0.31299281	-161.67317	0.51032867	92.631685	0.50991756	92.670085	0.36986593	179.56459	
15.61	0.30716786	-160.38122	0.51070567	91.006066	0.51005931	91.027766	0.3576656	-179.72313	
15.71	0.30034864	-159.02495	0.51133356	89.453939	0.51086283	89.471939	0.34661972	-179.83826	
15.81	0.29430441	-157.15769	0.51234655	87.876945	0.51163921	87.899445	0.33585906	-178.87924	
15.91	0.28774	-155.18272	0.51341657	86.139848	0.51258971	86.166348	0.3205612	-178.14923	
16.01	0.27846031	-153.10972	0.5142352	84.341105	0.51376179	84.385605	0.30295453	-177.37654	
16.11	0.26810117	-150.66404	0.51503823	82.604692	0.51414956	82.642192	0.2858046	-177.02014	
16.21	0.25839482	-147.36709	0.51578144	80.925637	0.51512865	80.971637	0.26973002	-175.56856	
16.31	0.25121179	-143.56612	0.51740525	79.138119	0.51675042	79.147019	0.24737535	-174.05555	
16.41	0.24458706	-139.55639	0.51929177	77.151188	0.51857484	77.213588	0.22550636	-172.57003	
16.51	0.23802271	-135.75815	0.52070964	75.140401	0.51999075	75.177901	0.20309736	-170.98611	
16.61	0.23223351	-131.97423	0.52187843	73.092603	0.52115793	73.135703	0.18384802	-168.47769	
16.71	0.22719176	-127.82193	0.52194116	71.015977	0.52128058	71.046077	0.16180696	-164.56549	
16.81	0.22126206	-123.42123	0.52209408	68.859841	0.52149335	68.872241	0.14022616	-160.23222	
16.91	0.21800516	-118.95592	0.52236765	66.703378	0.52182667	66.716278	0.12075773	-154.79834	
17.01	0.21449833	-114.42792	0.52240354	64.445034	0.52192261	64.461934	0.10492547	-147.2448	
17.11	0.21188866	-110.53189	0.52154642	62.170531	0.52106627	62.182331	0.090202796	-136.52431	
17.21	0.20871456	-106.72885	0.52074294	59.806745	0.51990429	59.831345	0.078716465	-123.54934	
17.31	0.20511272	-103.1562	0.51882569	57.374574	0.51816905	57.409374	0.071584722	-109.21584	
17.41	0.19889651	-99.285011	0.51632373	54.967684	0.51567023	55.015282	0.071090363	-94.58371	
17.51	0.19228038	-94.934457	0.51233972	52.61856	0.51139684	52.62476	0.07249209	-79.009112	
17.61	0.18847509	-89.665088	0.50876486	50.41723	0.50841354	50.48823	0.076715419	-66.976805	
17.71	0.18885959	-85.215585	0.50765513	48.281574	0.50701263	48.296774	0.082756022	-57.594055	
17.81	0.18338855	-82.553202	0.50685133	45.837969	0.50597679	45.856869	0.088467383	-51.646146	
17.91	0.17795451	-78.815224	0.50233901	43.410394	0.50176101	43.437994	0.095057938	-42.633653	
18.01	0.17774802	-74.463637	0.50059379	41.327955	0.49967252	41.354154	0.096702724	-36.066883	
18.11	0.17695375	-73.687733	0.50170956	39.187859	0.50101691	39.207359	0.10071733	-31.636112	
18.21	0.16838133	-75.104389	0.50466134	36.582846	0.50408066	36.639944	0.098684329	-25.204163	
18.31	0.15262697	-76.346658	0.50557962	33.742337	0.50493975	33.762037	0.098512041	-18.308806	
18.41	0.12972692	-77.07538	0.50537277	30.659884	0.50473316	30.704684	0.09477719	-6.4138296	
18.51	0.10675992	-76.463927	0.50418333	27.896508	0.50348725	27.932808	0.090486921	1.4629899	
18.61	0.083774968	-77.624075	0.50362841	25.102243	0.50316477	25.130243	0.093683415	12.15448	
18.71	0.05962891	-82.222354	0.50434128	22.172017	0.50370297	22.169417	0.097068322	22.938535	
18.81	0.026145891	-92.347587	0.50326678	18.68003	0.50262983	18.685631	0.11034265	36.333586	
18.91	0.015431088	135.96963	0.50147726	15.218227	0.50049674	15.248727	0.12185359	47.4516	
19.01	0.048135404	106.78564	0.49513606	11.957318	0.49456634	11.94152	0.14114174	53.573691	
19.11	0.079866563	97.678251	0.48826085	8.9316665	0.48775518	8.9438665	0.15960745	59.265558	
19.21	0.10781006	98.043145	0.48449863	6.1217031	0.48377403	6.1407031	0.1783377	63.019869	
19.31	0.13647374	100.41014	0.4830036	3.0430309	0.48228124	3.0427309	0.19940454	67.637376	
19.41	0.1684453	101.37573	0.47948615	-0.17329991	0.47898958	-0.14429991	0.21947944	70.510597	
