! Mini-Circuits								
! S2P DATA File Format								
! Type: BAND PASS FILTER								
! Model: ABF-13G+								
! All S Parameters are in dB deg format								
! TEST CONDITIONS: INPUT POWER = 0 dBm; +25 deg C								
# MHz S DB R 50								
!Frequency          S11 dB    S11 DEG     S21 dB    S21 DEG     S12 dB    S12 DEG     S22 dB    S22 DEG								
10	-0.019	179.079	-77.71	-75.291	-97.787	-143.389	-0.043	179.049
20	-0.031	178.068	-95.509	38.229	-93.998	129.837	-0.046	178.091
25	-0.035	177.596	-101.011	-24.265	-86.13	94.946	-0.05	177.613
50	-0.055	175.29	-106.728	68.693	-95.463	49.231	-0.069	175.301
75	-0.067	173.001	-94.023	72.428	-102.615	104.55	-0.082	172.993
100	-0.078	170.758	-92.692	88.864	-97.062	121.526	-0.092	170.748
125	-0.089	168.522	-91.92	88.76	-89.721	87.602	-0.104	168.517
150	-0.102	166.302	-90.26	94.609	-88.493	73.106	-0.119	166.306
175	-0.114	164.088	-87.741	83.546	-88.502	82.244	-0.13	164.095
200	-0.122	161.867	-86.329	96.409	-89.656	83.228	-0.138	161.876
225	-0.131	159.673	-85.964	80.433	-86.308	75.412	-0.148	159.69
250	-0.14	157.489	-84.693	83.696	-86.224	94.188	-0.157	157.525
275	-0.148	155.29	-84.166	97.409	-82.773	78.614	-0.166	155.328
300	-0.158	153.09	-83.861	77.146	-85.637	74.692	-0.175	153.125
325	-0.164	150.915	-83.679	72.907	-83.021	74.943	-0.18	150.958
350	-0.169	148.738	-82.866	74.002	-81.777	86.116	-0.186	148.792
375	-0.177	146.564	-81.929	90.187	-81.647	93.309	-0.194	146.612
400	-0.183	144.383	-83.895	91.337	-81.869	83.348	-0.202	144.433
425	-0.186	142.191	-80.409	82.053	-80.959	82.57	-0.204	142.239
450	-0.19	140.014	-81.434	80.969	-79.605	80.66	-0.208	140.059
475	-0.196	137.853	-79.387	81.264	-80.047	75.257	-0.214	137.904
500	-0.199	135.67	-80.619	73.8	-79.239	78.209	-0.219	135.731
525	-0.204	133.471	-80.005	77.579	-80.835	76.747	-0.224	133.528
550	-0.208	131.291	-79.444	85.554	-79.586	83.664	-0.228	131.346
575	-0.209	129.117	-78.179	79.739	-78.734	73.867	-0.229	129.178
600	-0.214	126.945	-78.392	85.038	-77.783	80.695	-0.233	127.008
625	-0.219	124.777	-78.453	76.093	-77.413	77.302	-0.238	124.842
650	-0.218	122.594	-76.85	72.008	-77.667	76.666	-0.239	122.652
675	-0.219	120.414	-77.518	78.495	-76.704	73.533	-0.24	120.466
700	-0.222	118.259	-76.536	75.856	-77.4	76.76	-0.242	118.307
725	-0.226	116.095	-76.553	75.959	-77.066	75.67	-0.244	116.153
750	-0.227	113.914	-76.715	71.638	-76.118	77.14	-0.247	113.964
775	-0.229	111.739	-76.433	68.873	-76.169	69.935	-0.248	111.781
800	-0.228	109.576	-75.218	78.275	-75.577	75.567	-0.247	109.61
825	-0.229	107.411	-74.812	77.654	-76.325	82.748	-0.248	107.442
850	-0.233	105.24	-74.904	67.968	-75.314	65.365	-0.25	105.258
875	-0.232	103.06	-74.776	70.175	-74.837	76.576	-0.251	103.076
900	-0.232	100.868	-74.862	79.026	-75.584	75.198	-0.251	100.885
925	-0.232	98.694	-74.173	70.785	-74.36	72.933	-0.252	98.7
950	-0.234	96.531	-74.711	68.923	-73.943	71.972	-0.254	96.518
975	-0.234	94.339	-74.241	68.061	-73.737	67.677	-0.254	94.318
1000	-0.234	92.143	-73.315	61.967	-73.734	70.158	-0.254	92.124
1025	-0.234	89.962	-73.38	69.939	-73.152	69.9	-0.253	89.944
1050	-0.234	87.784	-74.217	65.023	-72.999	68.768	-0.254	87.762
1075	-0.236	85.603	-73.262	67.221	-73.528	66.017	-0.255	85.564
1100	-0.236	83.426	-73.24	65.062	-72.773	67.36	-0.255	83.363
1125	-0.234	81.243	-72.422	68.536	-72.543	68.599	-0.253	81.18
1150	-0.235	79.061	-72.191	65.938	-73.243	65.288	-0.253	78.993
1175	-0.235	76.89	-72.46	65.257	-72.721	68.25	-0.254	76.809
1200	-0.235	74.713	-72.718	66.284	-71.996	63.422	-0.254	74.612
1225	-0.233	72.526	-72.338	62.697	-72.472	65.955	-0.253	72.413
1250	-0.234	70.347	-71.683	66.518	-71.901	66.811	-0.252	70.229
1275	-0.234	68.177	-71.852	64.047	-72.113	64.195	-0.252	68.053
1300	-0.235	66	-71.53	64.684	-71.731	62.901	-0.252	65.852
1325	-0.234	63.809	-71.821	60.949	-71.273	62.709	-0.253	63.633
1350	-0.232	61.618	-71.606	64.041	-70.907	60.91	-0.251	61.434
1375	-0.23	59.426	-71.429	62.27	-71.133	58.313	-0.248	59.239
1400	-0.23	57.242	-70.942	61.445	-71.461	63.434	-0.249	57.043
1425	-0.229	55.05	-70.555	58.844	-71.115	61.519	-0.249	54.834
1450	-0.227	52.838	-70.652	56.824	-71.159	59.998	-0.245	52.603
1475	-0.227	50.628	-70.735	59.825	-70.69	58.974	-0.242	50.378
1500	-0.227	48.453	-70.649	56.607	-70.683	61.244	-0.242	48.182
1525	-0.226	46.274	-70.372	57.687	-70.467	60.517	-0.242	45.981
1550	-0.225	44.068	-70.506	59.533	-70.129	58.493	-0.241	43.751
1575	-0.224	41.857	-70.36	59.155	-70.449	58.239	-0.239	41.519
1600	-0.223	39.668	-70.32	57.849	-69.935	59.286	-0.237	39.303
1625	-0.222	37.487	-69.663	57.7	-70.11	58.778	-0.238	37.109
1650	-0.222	35.306	-69.929	57.088	-69.493	56.943	-0.238	34.897
1675	-0.22	33.115	-69.996	54.93	-69.509	54.804	-0.236	32.672
1700	-0.219	30.909	-69.457	53.191	-69.404	57.321	-0.234	30.441
1725	-0.219	28.718	-69.434	55.318	-69.649	54.134	-0.234	28.231
1750	-0.218	26.543	-69.254	54.603	-69.479	55.12	-0.233	26.03
1775	-0.215	24.338	-68.988	57.179	-69.503	56.599	-0.232	23.804
1800	-0.214	22.112	-68.737	54.641	-69.29	53.201	-0.231	21.568
1825	-0.214	19.917	-69.212	54.53	-69.184	52.477	-0.231	19.343
1850	-0.212	17.731	-68.908	53.921	-68.998	53.172	-0.23	17.125
1875	-0.211	15.525	-69.11	52.822	-69.069	56.411	-0.23	14.905
1900	-0.21	13.3	-68.371	53.387	-68.393	52.183	-0.228	12.68
1925	-0.21	11.083	-68.226	53.774	-68.46	52.419	-0.226	10.445
1950	-0.21	8.888	-68.431	48.96	-68.387	51.487	-0.226	8.217
1975	-0.209	6.682	-68.541	50.109	-68.336	50.154	-0.227	5.999
2000	-0.207	4.456	-67.613	49.207	-68.184	47.973	-0.224	3.772
2025	-0.207	2.228	-68.327	50.582	-67.776	47.244	-0.223	1.526
2050	-0.208	0.022	-67.891	50.425	-68.014	50.907	-0.224	-0.703
2075	-0.207	-2.171	-67.808	49.161	-67.737	50.239	-0.223	-2.914
2100	-0.206	-4.389	-67.603	48.159	-67.818	47.758	-0.222	-5.157
2125	-0.206	-6.612	-67.747	44.831	-67.573	49.025	-0.22	-7.403
2150	-0.205	-8.832	-67.821	48.258	-67.641	48.595	-0.218	-9.638
2175	-0.205	-11.042	-67.59	46.877	-67.193	47.698	-0.218	-11.865
2200	-0.205	-13.241	-67.528	46.146	-67.37	44.855	-0.218	-14.1
2225	-0.204	-15.46	-67.352	45.175	-67.512	45.165	-0.217	-16.351
2250	-0.202	-17.695	-67.366	44.664	-67.039	44.659	-0.213	-18.61
2275	-0.202	-19.92	-67.173	44.76	-67.527	45.388	-0.213	-20.854
2300	-0.203	-22.123	-67.191	44.143	-67.329	44.129	-0.215	-23.075
2325	-0.202	-24.35	-67.41	43.89	-66.885	44.131	-0.213	-25.325
2350	-0.201	-26.587	-67.026	42.826	-67.175	42.848	-0.211	-27.593
2375	-0.199	-28.815	-67.22	41.061	-67.045	42.243	-0.21	-29.838
2400	-0.199	-31.034	-67.032	39.984	-67.277	42.413	-0.209	-32.067
2425	-0.199	-33.262	-67.014	41.793	-67.135	43.391	-0.211	-34.301
2450	-0.199	-35.496	-66.94	41.633	-66.588	42.011	-0.211	-36.552
2475	-0.197	-37.743	-66.459	41.494	-67.012	42.001	-0.209	-38.818
2500	-0.197	-39.966	-66.379	42.444	-66.491	40.118	-0.209	-41.068
2525	-0.195	-42.177	-66.443	39.054	-66.756	36.453	-0.21	-43.288
2550	-0.196	-44.405	-66.713	38.179	-66.704	38.909	-0.209	-45.519
2575	-0.197	-46.647	-66.61	38.969	-66.782	38.815	-0.208	-47.788
2600	-0.194	-48.88	-66.176	41.239	-66.435	40.247	-0.208	-50.048
2625	-0.192	-51.108	-66.59	37.391	-66.216	38.451	-0.208	-52.288
2650	-0.195	-53.335	-66.048	39.121	-66.043	39.482	-0.209	-54.522
2675	-0.196	-55.555	-66.102	37.35	-65.909	37.834	-0.21	-56.773
2700	-0.192	-57.803	-66.059	37.309	-65.989	38.503	-0.209	-59.036
2725	-0.191	-60.06	-65.957	37.323	-65.771	37.169	-0.209	-61.289
2750	-0.193	-62.275	-65.873	34.968	-65.662	36.064	-0.209	-63.527
2775	-0.193	-64.498	-65.933	35.194	-65.98	33.911	-0.21	-65.769
2800	-0.193	-66.763	-65.866	34.48	-65.833	35.028	-0.212	-68.033
2825	-0.194	-69.02	-66.013	33.257	-66.027	33.665	-0.21	-70.292
2850	-0.193	-71.264	-65.801	33.832	-65.538	33.276	-0.21	-72.534
2875	-0.194	-73.495	-65.497	35.963	-65.554	34.301	-0.213	-74.76
2900	-0.196	-75.73	-65.423	33.997	-65.527	34.681	-0.215	-77.005
2925	-0.195	-77.982	-65.417	33.959	-65.17	32.028	-0.215	-79.272
2950	-0.195	-80.243	-65.146	35.415	-65.295	32.951	-0.214	-81.532
2975	-0.196	-82.479	-65.374	31.225	-65.229	30.82	-0.214	-83.76
3000	-0.198	-84.702	-65.08	31.24	-65.459	33.051	-0.217	-85.997
3025	-0.199	-86.966	-65.21	30.161	-65.186	31.474	-0.219	-88.26
3050	-0.2	-89.235	-64.929	30.751	-64.885	30.43	-0.22	-90.533
3075	-0.199	-91.485	-64.592	29.51	-64.958	30.425	-0.22	-92.776
3100	-0.2	-93.725	-64.616	29.289	-65.053	30.515	-0.221	-95
3125	-0.205	-95.965	-64.851	30.14	-65.077	27.741	-0.225	-97.246
3150	-0.206	-98.224	-64.867	26.857	-64.644	28.991	-0.226	-99.512
3175	-0.205	-100.496	-64.741	27.312	-64.712	27.78	-0.225	-101.772
3200	-0.207	-102.745	-64.387	27.753	-64.405	27.65	-0.227	-104
3225	-0.211	-104.967	-64.303	25.355	-64.466	27.317	-0.231	-106.221
3250	-0.212	-107.229	-64.261	29.104	-64.275	26.367	-0.233	-108.454
3275	-0.215	-109.51	-64.195	26.576	-64.029	26.328	-0.234	-110.735
3300	-0.215	-111.769	-64.213	23.73	-64.125	24.525	-0.235	-112.974
3325	-0.217	-113.996	-64.167	23.492	-64.099	23.177	-0.236	-115.177
3350	-0.22	-116.224	-64.045	22.01	-64.078	20.895	-0.239	-117.386
3375	-0.223	-118.491	-64.221	20.177	-64.143	20.88	-0.242	-119.638
3400	-0.223	-120.771	-64.157	21.009	-64.15	21.564	-0.243	-121.899
3425	-0.226	-123.017	-64.309	22.725	-64.23	20.119	-0.245	-124.121
3450	-0.227	-125.23	-63.954	21.43	-63.924	20.719	-0.246	-126.314
3475	-0.231	-127.471	-63.873	20.048	-63.95	19.617	-0.251	-128.527
3500	-0.233	-129.742	-63.695	17.875	-63.86	19.971	-0.254	-130.772
3525	-0.237	-132	-63.896	17.717	-64.042	18.989	-0.255	-133.021
3550	-0.236	-134.216	-63.929	16.539	-63.92	16.177	-0.256	-135.22
3575	-0.239	-136.441	-63.639	14.264	-64.184	17.191	-0.26	-137.412
3600	-0.243	-138.704	-63.869	15.814	-63.724	17.585	-0.264	-139.629
3625	-0.248	-140.958	-63.529	15.379	-63.777	14.829	-0.267	-141.867
3650	-0.247	-143.195	-63.753	14.63	-63.666	15.759	-0.27	-144.099
3675	-0.25	-145.431	-63.684	13.39	-63.819	14.248	-0.272	-146.287
3700	-0.252	-147.661	-63.864	14.245	-63.865	14.17	-0.276	-148.477
3725	-0.257	-149.894	-63.819	13.697	-63.789	12.955	-0.279	-150.703
3750	-0.26	-152.137	-63.602	13.851	-63.711	13.809	-0.283	-152.921
3775	-0.263	-154.368	-63.663	12.228	-63.681	12.887	-0.285	-155.117
3800	-0.264	-156.57	-63.615	12.328	-63.498	11.428	-0.288	-157.304
3825	-0.266	-158.8	-63.682	9.91	-63.454	11.131	-0.292	-159.501
3850	-0.271	-161.062	-63.525	10.721	-63.607	11.565	-0.295	-161.711
3875	-0.275	-163.296	-63.601	8.602	-63.535	9.559	-0.298	-163.923
3900	-0.276	-165.491	-63.518	8.524	-63.395	9.088	-0.301	-166.108
3925	-0.278	-167.713	-63.569	9.174	-63.57	7.73	-0.305	-168.293
3950	-0.283	-169.961	-63.433	6.707	-63.413	8.958	-0.309	-170.499
3975	-0.288	-172.197	-63.779	8.839	-63.469	9.127	-0.311	-172.696
4000	-0.29	-174.413	-63.658	7.98	-63.711	8.214	-0.313	-174.878
4025	-0.291	-176.623	-63.67	7.531	-63.569	7.409	-0.318	-177.057
4050	-0.296	-178.842	-63.348	7.011	-63.619	7.968	-0.322	-179.241
4075	-0.3	178.918	-63.416	7.665	-63.395	7.454	-0.325	178.568
4100	-0.303	176.689	-63.585	5.276	-63.462	5.71	-0.327	176.384
4125	-0.305	174.478	-63.333	4.938	-63.381	4.915	-0.331	174.222
4150	-0.307	172.273	-63.221	4.905	-63.219	4.933	-0.334	172.052
4175	-0.313	170.052	-63.315	3.918	-63.396	3.424	-0.337	169.855
4200	-0.316	167.827	-63.352	3.743	-63.345	2.899	-0.341	167.673
4225	-0.318	165.616	-63.124	2.872	-63.248	2.337	-0.343	165.521
4250	-0.321	163.422	-63.404	1.547	-63.487	2.858	-0.346	163.366
4275	-0.324	161.232	-63.239	2.793	-63.318	2.646	-0.351	161.19
4300	-0.328	159.01	-63.279	1.04	-63.446	1.766	-0.355	159.008
4325	-0.332	156.79	-63.343	1.197	-63.325	0.699	-0.357	156.838
4350	-0.335	154.607	-63.246	1.361	-63.347	0.811	-0.359	154.702
4375	-0.335	152.425	-63.151	0.703	-63.266	1.929	-0.363	152.559
4400	-0.34	150.21	-63.181	-0.521	-63.324	-0.905	-0.367	150.38
4425	-0.346	148	-63.102	0.187	-63.193	-1.1	-0.371	148.194
4450	-0.348	145.812	-63.112	-1.014	-63.248	-1.335	-0.373	146.045
4475	-0.349	143.628	-63.075	-2.186	-63.137	-1.416	-0.375	143.916
4500	-0.353	141.436	-63.229	-2.164	-62.997	-3.045	-0.38	141.765
4525	-0.358	139.239	-63.051	-2.289	-63.1	-1.994	-0.385	139.599
4550	-0.361	137.036	-63.239	-2.709	-62.98	-3.734	-0.385	137.426
4575	-0.363	134.847	-63.196	-2.387	-63.133	-3.342	-0.388	135.278
4600	-0.366	132.67	-63.116	-2.683	-63.24	-3.12	-0.393	133.154
4625	-0.37	130.485	-63.196	-3.91	-63.254	-2.821	-0.396	131.008
4650	-0.375	128.28	-63.228	-4.06	-63.117	-5.274	-0.399	128.826
4675	-0.377	126.09	-63.353	-3.626	-63.171	-3.691	-0.402	126.667
4700	-0.38	123.92	-63.306	-2.267	-63.26	-4.673	-0.404	124.55
4725	-0.381	121.752	-63.058	-1.926	-63.084	-1.551	-0.406	122.418
4750	-0.385	119.566	-63.015	-1.84	-62.843	-1.65	-0.411	120.255
4775	-0.39	117.377	-62.526	-2.677	-62.66	-4.784	-0.414	118.098
4800	-0.392	115.218	-62.525	-4.59	-62.577	-4.797	-0.415	115.96
4825	-0.393	113.065	-62.532	-4.383	-62.268	-5.193	-0.418	113.832
4850	-0.397	110.895	-62.507	-5.74	-62.327	-5.572	-0.421	111.694
4875	-0.401	108.711	-62.246	-7.949	-62.054	-7.169	-0.424	109.533
4900	-0.403	106.536	-62.001	-7.092	-62.075	-6.264	-0.427	107.379
4925	-0.404	104.37	-62.088	-9.215	-61.906	-8.257	-0.429	105.254
4950	-0.406	102.221	-62.076	-9.122	-61.927	-8.149	-0.43	103.132
4975	-0.409	100.047	-61.899	-11.039	-61.797	-11.141	-0.434	100.98
5000	-0.413	97.86	-61.786	-10.969	-61.934	-11.539	-0.439	98.833
5025	-0.414	95.687	-61.829	-12.606	-61.889	-11.998	-0.44	96.704
5050	-0.416	93.534	-61.847	-13.037	-61.86	-13.346	-0.442	94.566
5075	-0.419	91.364	-61.983	-13.659	-62.04	-14.279	-0.445	92.418
5100	-0.425	89.18	-61.87	-15.624	-62.095	-15.801	-0.449	90.274
5125	-0.427	86.994	-61.997	-16.145	-61.867	-14.081	-0.451	88.141
5150	-0.429	84.831	-61.982	-14.964	-61.95	-15.62	-0.453	86.007
5175	-0.432	82.688	-61.931	-17.392	-61.966	-16.932	-0.456	83.874
5200	-0.436	80.518	-62.01	-16.631	-62.101	-17.211	-0.459	81.719
5225	-0.44	78.335	-61.964	-16.42	-61.83	-17.835	-0.462	79.57
5250	-0.442	76.174	-61.999	-17.429	-61.862	-18.076	-0.463	77.436
5275	-0.444	74.028	-61.789	-18.33	-61.794	-17.498	-0.465	75.304
5300	-0.447	71.871	-61.883	-18.377	-61.834	-19.02	-0.468	73.151
5325	-0.45	69.696	-61.945	-18.892	-61.817	-19.344	-0.47	70.992
5350	-0.453	67.516	-61.872	-19.101	-61.839	-19.551	-0.47	68.828
5375	-0.454	65.352	-61.981	-19.229	-61.797	-20.275	-0.472	66.694
5400	-0.457	63.213	-61.742	-20.403	-61.688	-19.261	-0.474	64.56
5425	-0.46	61.047	-61.721	-19.538	-61.552	-20.468	-0.477	62.385
5450	-0.463	58.851	-61.49	-21.654	-61.547	-22.012	-0.481	60.203
5475	-0.466	56.672	-61.468	-21.784	-61.511	-20.87	-0.481	58.052
5500	-0.467	54.511	-61.38	-21.679	-61.423	-22.754	-0.481	55.909
5525	-0.469	52.355	-61.236	-22.858	-61.5	-22.734	-0.486	53.752
5550	-0.47	50.158	-61.408	-23.952	-61.302	-23.302	-0.49	51.576
5575	-0.475	47.97	-61.241	-24.436	-61.351	-24.501	-0.49	49.39
5600	-0.477	45.802	-61.066	-25.203	-61.2	-24.822	-0.49	47.229
5625	-0.478	43.647	-61.172	-26.199	-61.155	-26.09	-0.493	45.077
5650	-0.48	41.471	-61.173	-26.355	-61.234	-26.827	-0.496	42.908
5675	-0.483	39.293	-61.088	-27.136	-60.972	-27.076	-0.498	40.699
5700	-0.485	37.102	-60.909	-27.727	-61.027	-28.276	-0.5	38.498
5725	-0.487	34.934	-61.018	-29.142	-61.028	-28.692	-0.501	36.341
5750	-0.49	32.769	-60.789	-28.82	-60.885	-28.911	-0.502	34.18
5775	-0.492	30.579	-60.761	-30.365	-60.78	-30.125	-0.506	31.986
5800	-0.496	28.363	-60.829	-30.888	-60.833	-30.98	-0.509	29.762
5825	-0.5	26.182	-60.681	-31.438	-60.692	-31.206	-0.509	27.566
5850	-0.501	24.009	-60.802	-32.574	-60.825	-32.3	-0.51	25.386
5875	-0.502	21.816	-60.751	-32.681	-60.793	-32.523	-0.513	23.202
5900	-0.507	19.592	-60.726	-33.005	-60.669	-33.8	-0.517	20.98
5925	-0.509	17.388	-60.711	-34.352	-60.648	-34.36	-0.521	18.754
5950	-0.509	15.193	-60.765	-34.965	-60.692	-35.913	-0.52	16.552
5975	-0.51	13.002	-60.528	-35.686	-60.531	-36.134	-0.521	14.357
6000	-0.513	10.777	-60.592	-36.866	-60.515	-36.464	-0.525	12.142
6025	-0.517	8.56	-60.496	-37.537	-60.405	-36.696	-0.528	9.907
6050	-0.52	6.342	-60.51	-37.349	-60.384	-38.415	-0.529	7.668
6075	-0.52	4.152	-60.465	-38.867	-60.432	-39.14	-0.531	5.448
6100	-0.521	1.928	-60.397	-39.147	-60.522	-39.188	-0.533	3.237
6125	-0.526	-0.31	-60.318	-39.727	-60.452	-39.56	-0.536	0.987
6150	-0.53	-2.537	-60.267	-40.372	-60.332	-40.53	-0.538	-1.274
6175	-0.53	-4.756	-60.293	-40.289	-60.256	-40.658	-0.541	-3.508
6200	-0.531	-6.973	-60.23	-42.191	-60.089	-41.207	-0.541	-5.736
6225	-0.535	-9.203	-60.169	-42.132	-60.307	-42.814	-0.543	-7.997
6250	-0.537	-11.452	-60.193	-42.956	-60.254	-42.614	-0.549	-10.276
6275	-0.54	-13.704	-60.015	-43.983	-60.088	-44.064	-0.551	-12.53
6300	-0.541	-15.927	-60.086	-44.401	-60.001	-44.383	-0.55	-14.79
6325	-0.542	-18.162	-59.968	-44.806	-60.029	-46.286	-0.553	-17.053
6350	-0.546	-20.434	-59.893	-45.364	-59.859	-45.678	-0.557	-19.338
6375	-0.55	-22.693	-59.902	-46.493	-59.854	-45.653	-0.559	-21.632
6400	-0.552	-24.953	-59.933	-46.072	-59.795	-46.244	-0.562	-23.897
6425	-0.551	-27.214	-59.663	-47.42	-59.748	-46.852	-0.562	-26.162
6450	-0.556	-29.477	-59.72	-48.072	-59.63	-48.246	-0.564	-28.461
6475	-0.559	-31.754	-59.506	-48.563	-59.591	-48.705	-0.571	-30.773
6500	-0.561	-34.047	-59.496	-49.671	-59.482	-48.88	-0.573	-33.073
6525	-0.562	-36.338	-59.417	-49.963	-59.51	-50.464	-0.572	-35.365
6550	-0.564	-38.602	-59.461	-50.244	-59.506	-50.499	-0.574	-37.665
6575	-0.567	-40.881	-59.311	-51.825	-59.371	-51.113	-0.579	-39.976
6600	-0.57	-43.179	-59.298	-52.238	-59.152	-53.059	-0.583	-42.326
6625	-0.572	-45.483	-59.21	-52.646	-59.285	-53.029	-0.586	-44.656
6650	-0.574	-47.775	-59.045	-53.281	-59.04	-53.72	-0.587	-46.948
6675	-0.577	-50.069	-58.948	-53.954	-58.906	-54.09	-0.588	-49.271
6700	-0.582	-52.386	-58.95	-54.37	-58.914	-54.227	-0.595	-51.635
6725	-0.584	-54.726	-58.747	-54.933	-58.846	-55.667	-0.601	-53.993
6750	-0.588	-57.051	-58.717	-56.088	-58.662	-55.969	-0.6	-56.322
6775	-0.589	-59.365	-58.59	-56.066	-58.596	-56.261	-0.6	-58.669
6800	-0.594	-61.695	-58.597	-57.58	-58.546	-58.316	-0.605	-61.025
6825	-0.598	-64.048	-58.485	-58.133	-58.522	-58.763	-0.61	-63.387
6850	-0.601	-66.384	-58.405	-60.083	-58.4	-59.522	-0.611	-65.767
6875	-0.602	-68.725	-58.306	-59.882	-58.374	-59.719	-0.612	-68.14
6900	-0.605	-71.065	-58.173	-61.108	-58.227	-60.903	-0.615	-70.497
6925	-0.611	-73.417	-58.115	-60.938	-58.096	-61	-0.618	-72.884
6950	-0.612	-75.787	-57.967	-62.767	-57.927	-61.923	-0.622	-75.281
6975	-0.613	-78.165	-57.948	-63.083	-57.953	-63.375	-0.624	-77.669
7000	-0.615	-80.517	-57.84	-63.793	-57.872	-63.328	-0.625	-80.052
7025	-0.62	-82.874	-57.658	-64.699	-57.666	-64.618	-0.629	-82.438
7050	-0.621	-85.244	-57.578	-64.942	-57.631	-65.766	-0.633	-84.844
7075	-0.624	-87.641	-57.542	-65.664	-57.563	-66.015	-0.636	-87.267
7100	-0.626	-90.022	-57.466	-67.324	-57.367	-66.598	-0.64	-89.676
7125	-0.628	-92.397	-57.325	-68.06	-57.296	-67.348	-0.643	-92.067
7150	-0.631	-94.784	-57.206	-67.82	-57.238	-68.042	-0.645	-94.496
7175	-0.634	-97.204	-57.014	-69.163	-57.016	-68.784	-0.65	-96.922
7200	-0.638	-99.611	-56.945	-70.009	-56.862	-69.186	-0.653	-99.338
7225	-0.641	-101.996	-56.873	-70.35	-56.867	-70.666	-0.653	-101.765
7250	-0.643	-104.414	-56.787	-71.789	-56.753	-71.263	-0.657	-104.191
7275	-0.647	-106.859	-56.584	-71.777	-56.534	-72.691	-0.66	-106.622
7300	-0.652	-109.283	-56.548	-72.44	-56.41	-73.435	-0.662	-109.059
7325	-0.654	-111.689	-56.302	-73.812	-56.264	-73.498	-0.666	-111.51
7350	-0.654	-114.118	-56.181	-74.771	-56.216	-74.179	-0.67	-113.938
7375	-0.659	-116.571	-56.059	-75.197	-56.077	-75.118	-0.671	-116.395
7400	-0.662	-119.023	-55.941	-76.097	-55.976	-76.141	-0.674	-118.864
7425	-0.663	-121.461	-55.798	-75.953	-55.771	-76.474	-0.678	-121.313
7450	-0.664	-123.891	-55.631	-77.46	-55.644	-77.594	-0.679	-123.756
7475	-0.668	-126.332	-55.538	-78.773	-55.524	-78.343	-0.682	-126.225
7500	-0.672	-128.807	-55.421	-79.069	-55.364	-79.288	-0.686	-128.709
7525	-0.675	-131.283	-55.193	-79.69	-55.208	-79.336	-0.688	-131.178
7550	-0.674	-133.742	-55.109	-80.178	-55.073	-80.215	-0.69	-133.642
7575	-0.675	-136.201	-54.856	-82.059	-54.931	-81.78	-0.692	-136.106
7600	-0.68	-138.676	-54.711	-82.006	-54.719	-82.402	-0.694	-138.588
