! Device:      ADRF5700					
! Description: 2 dB LSB, 5-Bit, Silicon Digital Attenuator, 100 MHz to 22 GHz			
! Frequency:   10MHz -  30.00 GHz						
! Ports:       										
!        RF1 = Port 1
!        RF2 = Port 2
!						
! VDD  =  +3.30 Volts
! VSS  =  -3.30 Volts
!				
! State:        4.00 dB attenuation 	
! Data:  Data was collected using an calibrated 4 port network analyzer 						
!             The reference plane is the edge of the device.
! Notes: Analog Devices supplies this data as a sample of measured data						
!             for this product.  Your particular data for this product may vary.						
!             Data was taken at 25 degrees C.						
!             Analog Devices reserves the right to change this data at anytime.	
!
# GHz S  dB   R 50
0.0100 -24.4059 -9.8250 -5.1660 -0.0562 -5.1666 0.0449 -25.9131 -5.4966
0.0475 -24.8064 -2.1535 -5.2119 -0.6159 -5.1835 -0.5872 -26.2017 3.9434
0.0850 -24.5635 -1.9219 -5.2019 -1.1228 -5.1804 -1.1478 -25.8812 4.0590
0.1225 -24.5822 -2.2896 -5.2044 -1.6339 -5.1812 -1.6065 -25.8807 3.9445
0.1600 -24.6005 -3.0509 -5.2142 -2.1041 -5.1845 -2.1188 -25.9318 3.5612
0.1974 -24.4492 -4.1077 -5.2184 -2.5889 -5.1897 -2.5986 -25.8519 2.4620
0.2349 -24.3212 -4.7326 -5.2196 -3.0205 -5.1921 -3.0762 -25.7523 1.7355
0.2724 -24.3273 -5.1347 -5.2219 -3.5476 -5.2001 -3.5499 -25.7103 1.0538
0.3099 -24.3527 -5.9037 -5.2228 -4.0707 -5.2053 -3.9921 -25.7045 0.5959
0.3474 -24.2742 -7.5783 -5.2292 -4.4925 -5.2023 -4.4524 -25.6161 -1.0036
0.3849 -24.1217 -8.4789 -5.2284 -4.8909 -5.2064 -4.9353 -25.4935 -1.8036
0.4224 -24.0225 -8.4145 -5.2285 -5.3802 -5.2068 -5.3839 -25.4131 -1.4651
0.4599 -24.0063 -8.2580 -5.2335 -5.8654 -5.2078 -5.8432 -25.4295 -0.9971
0.4973 -24.0427 -9.1060 -5.2389 -6.3301 -5.2102 -6.3065 -25.5363 -1.4761
0.5348 -23.9808 -10.5365 -5.2412 -6.8412 -5.2127 -6.7650 -25.5707 -3.1175
0.5723 -23.8651 -11.3095 -5.2435 -7.2490 -5.2177 -7.2302 -25.5238 -4.0562
0.6098 -23.8161 -11.7218 -5.2460 -7.6700 -5.2202 -7.6806 -25.4495 -4.8622
0.6473 -23.8427 -12.2799 -5.2464 -8.1925 -5.2198 -8.1336 -25.4325 -5.0360
0.6848 -23.8003 -13.2681 -5.2485 -8.6286 -5.2222 -8.5995 -25.4235 -5.5755
0.7223 -23.7057 -14.1510 -5.2506 -9.1016 -5.2258 -9.0613 -25.4091 -6.3109
0.7598 -23.6394 -14.6525 -5.2510 -9.5797 -5.2291 -9.5057 -25.4266 -6.8502
0.7972 -23.6153 -15.1714 -5.2564 -9.9830 -5.2305 -9.9735 -25.4605 -7.3787
0.8347 -23.5965 -15.7787 -5.2592 -10.4399 -5.2336 -10.4321 -25.5324 -7.8777
0.8722 -23.5400 -16.7177 -5.2590 -10.9157 -5.2346 -10.8811 -25.4895 -9.2833
0.9097 -23.5135 -17.5756 -5.2636 -11.3696 -5.2363 -11.3457 -25.4966 -10.3810
0.9472 -23.4966 -18.2979 -5.2634 -11.7605 -5.2400 -11.7991 -25.4194 -11.1011
0.9847 -23.4492 -19.1660 -5.2713 -12.2443 -5.2428 -12.2585 -25.4056 -11.7060
1.0222 -23.3807 -19.6932 -5.2709 -12.7435 -5.2437 -12.6981 -25.4092 -11.9194
1.0596 -23.3060 -20.1706 -5.2695 -13.2108 -5.2463 -13.1652 -25.4014 -12.6219
1.0971 -23.2955 -20.6435 -5.2753 -13.6322 -5.2499 -13.6141 -25.4519 -13.0593
1.1346 -23.2845 -21.5932 -5.2806 -14.0736 -5.2514 -14.0646 -25.4465 -14.1297
1.1721 -23.2278 -22.6656 -5.2822 -14.5395 -5.2539 -14.5222 -25.4573 -15.0665
1.2096 -23.1460 -23.1916 -5.2840 -14.9968 -5.2583 -14.9686 -25.4201 -15.7798
1.2471 -23.0924 -23.5002 -5.2857 -15.4698 -5.2583 -15.4111 -25.3728 -16.1060
1.2846 -23.1201 -24.1402 -5.2913 -15.9676 -5.2616 -15.8730 -25.3884 -16.7773
1.3221 -23.0775 -25.0601 -5.2948 -16.3767 -5.2639 -16.3249 -25.4226 -17.4348
1.3596 -22.9698 -25.8039 -5.2969 -16.7809 -5.2670 -16.7647 -25.4369 -17.9384
1.3970 -22.8784 -25.9792 -5.2947 -17.3066 -5.2678 -17.2258 -25.4968 -18.5282
1.4345 -22.8616 -26.2262 -5.2987 -17.7282 -5.2716 -17.6806 -25.5441 -19.0433
1.4720 -22.8990 -26.9913 -5.3035 -18.1598 -5.2738 -18.1250 -25.5607 -20.2220
1.5095 -22.8507 -28.2124 -5.3071 -18.6276 -5.2753 -18.5830 -25.5669 -21.4545
1.5470 -22.7640 -28.8636 -5.3077 -19.0586 -5.2789 -19.0442 -25.5204 -22.4915
1.5845 -22.7207 -29.1293 -5.3091 -19.4929 -5.2815 -19.4842 -25.5080 -22.8888
1.6220 -22.7088 -29.4780 -5.3115 -19.9533 -5.2830 -19.9282 -25.5406 -23.3508
1.6595 -22.6950 -30.4118 -5.3136 -20.4062 -5.2854 -20.3875 -25.5191 -24.2500
1.6969 -22.6301 -31.1458 -5.3154 -20.8724 -5.2893 -20.8344 -25.5706 -25.3298
1.7344 -22.5455 -31.5284 -5.3163 -21.3398 -5.2915 -21.2754 -25.5751 -25.9646
1.7719 -22.5397 -31.7555 -5.3204 -21.7614 -5.2933 -21.7125 -25.5933 -26.6387
1.8094 -22.5530 -32.4508 -5.3237 -22.1653 -5.2957 -22.1531 -25.5603 -27.5702
1.8469 -22.5359 -33.2656 -5.3233 -22.6368 -5.2966 -22.5998 -25.5196 -28.7260
1.8844 -22.4952 -33.9173 -5.3255 -23.0796 -5.2986 -23.0448 -25.4937 -29.3543
1.9219 -22.4616 -34.3239 -5.3278 -23.5613 -5.3009 -23.4935 -25.5082 -29.9388
1.9594 -22.4380 -34.7767 -5.3283 -24.0362 -5.3011 -23.9335 -25.4778 -30.4370
1.9968 -22.4124 -35.2730 -5.3312 -24.4365 -5.3037 -24.4011 -25.4878 -31.2391
2.0343 -22.3993 -35.8216 -5.3352 -24.8876 -5.3076 -24.8441 -25.5094 -31.8900
2.0718 -22.3893 -36.3588 -5.3407 -25.3351 -5.3083 -25.2909 -25.5294 -32.6607
2.1093 -22.3736 -36.9029 -5.3434 -25.7555 -5.3113 -25.7284 -25.5481 -33.4080
2.1468 -22.3522 -37.6308 -5.3465 -26.2343 -5.3132 -26.1817 -25.5092 -34.3008
2.1843 -22.3331 -38.1070 -5.3457 -26.6371 -5.3152 -26.6100 -25.4723 -35.3291
2.2218 -22.3395 -38.7447 -5.3490 -27.0835 -5.3163 -27.0478 -25.4576 -35.8164
2.2593 -22.3246 -39.2925 -5.3479 -27.5991 -5.3166 -27.4830 -25.5137 -36.4963
2.2967 -22.2958 -39.8829 -5.3530 -28.0416 -5.3181 -27.9306 -25.5341 -37.1247
2.3342 -22.2549 -40.2827 -5.3576 -28.4715 -5.3198 -28.3713 -25.5068 -38.0647
2.3717 -22.2810 -40.6047 -5.3583 -28.8589 -5.3213 -28.8127 -25.5301 -38.4994
2.4092 -22.3116 -41.0547 -5.3570 -29.3049 -5.3213 -29.2562 -25.5904 -39.0409
2.4467 -22.3116 -41.9601 -5.3584 -29.8467 -5.3233 -29.6901 -25.6463 -39.8454
2.4842 -22.2572 -42.5785 -5.3613 -30.2603 -5.3237 -30.1300 -25.6232 -41.0949
2.5217 -22.2288 -42.9295 -5.3656 -30.6684 -5.3261 -30.5820 -25.6027 -42.1044
2.5592 -22.2862 -43.3011 -5.3701 -31.1123 -5.3303 -31.0007 -25.5919 -42.6119
2.5966 -22.3238 -44.1641 -5.3686 -31.5750 -5.3304 -31.4326 -25.6030 -43.1387
2.6341 -22.2650 -44.9972 -5.3697 -32.0048 -5.3298 -31.8924 -25.6235 -44.2173
2.6716 -22.1925 -45.3264 -5.3709 -32.4198 -5.3338 -32.3158 -25.6136 -44.9445
2.7091 -22.2171 -45.3829 -5.3669 -32.8714 -5.3337 -32.7522 -25.6068 -45.6915
2.7466 -22.2970 -46.0140 -5.3631 -33.3378 -5.3325 -33.1928 -25.6248 -46.1453
2.7841 -22.3105 -47.0118 -5.3694 -33.7774 -5.3328 -33.6353 -25.7075 -47.1502
2.8216 -22.2472 -47.8065 -5.3745 -34.2209 -5.3337 -34.0756 -25.6958 -48.3039
2.8591 -22.2041 -48.0270 -5.3728 -34.6539 -5.3338 -34.5275 -25.6496 -49.5191
2.8965 -22.3003 -48.3055 -5.3766 -35.0722 -5.3364 -34.9823 -25.6506 -49.8528
2.9340 -22.3948 -49.1997 -5.3790 -35.5058 -5.3374 -35.4169 -25.6489 -50.7191
2.9715 -22.3442 -50.3037 -5.3815 -35.9602 -5.3373 -35.8683 -25.7090 -51.5822
3.0090 -22.2766 -50.7427 -5.3817 -36.4097 -5.3408 -36.3196 -25.6661 -52.3908
3.0465 -22.2832 -50.6546 -5.3822 -36.8794 -5.3420 -36.7448 -25.6755 -53.3311
3.0840 -22.4004 -51.2180 -5.3808 -37.2894 -5.3423 -37.1942 -25.6983 -53.7146
3.1215 -22.4393 -52.3893 -5.3817 -37.7102 -5.3438 -37.6463 -25.6993 -54.7848
3.1590 -22.3770 -53.2727 -5.3844 -38.1673 -5.3439 -38.0802 -25.6995 -55.7373
3.1964 -22.3202 -53.4256 -5.3832 -38.5949 -5.3426 -38.5251 -25.6880 -56.5750
3.2339 -22.4174 -53.7548 -5.3821 -39.0505 -5.3446 -38.9810 -25.6749 -57.3773
3.2714 -22.5153 -54.8816 -5.3824 -39.4872 -5.3479 -39.4134 -25.6093 -58.2633
3.3089 -22.4629 -56.3084 -5.3835 -39.9396 -5.3457 -39.8660 -25.6382 -59.2780
3.3464 -22.3541 -56.5761 -5.3864 -40.3754 -5.3468 -40.3201 -25.5827 -59.9450
3.3839 -22.3764 -56.5781 -5.3858 -40.8363 -5.3487 -40.7649 -25.6149 -60.2682
3.4214 -22.4853 -57.0097 -5.3871 -41.2840 -5.3495 -41.1934 -25.6676 -61.3124
3.4589 -22.5330 -58.4243 -5.3862 -41.6907 -5.3485 -41.6420 -25.6580 -62.5666
3.4963 -22.4462 -59.4995 -5.3901 -42.1369 -5.3511 -42.0811 -25.5874 -63.9520
3.5338 -22.4023 -59.8376 -5.3872 -42.6290 -5.3527 -42.5225 -25.5296 -64.7131
3.5713 -22.4775 -60.1374 -5.3847 -43.0744 -5.3507 -42.9782 -25.5115 -65.4034
3.6088 -22.5654 -61.5379 -5.3858 -43.4743 -5.3525 -43.4179 -25.4771 -66.5718
3.6463 -22.5221 -63.0610 -5.3867 -43.9291 -5.3539 -43.8634 -25.4060 -67.9676
3.6838 -22.4081 -63.7751 -5.3870 -44.3988 -5.3551 -44.3060 -25.3877 -68.9280
3.7213 -22.4194 -63.7817 -5.3896 -44.8404 -5.3546 -44.7547 -25.3874 -69.4889
3.7588 -22.5118 -64.5431 -5.3901 -45.2609 -5.3552 -45.1922 -25.3760 -70.4977
3.7962 -22.5538 -66.1322 -5.3899 -45.6944 -5.3557 -45.6407 -25.3271 -72.1112
3.8337 -22.4557 -67.5240 -5.3885 -46.1518 -5.3542 -46.0902 -25.2926 -73.7899
3.8712 -22.4116 -67.7042 -5.3915 -46.6313 -5.3564 -46.5389 -25.1882 -74.0754
3.9087 -22.4823 -68.0356 -5.3914 -47.0670 -5.3564 -46.9817 -25.1807 -74.9417
3.9462 -22.5793 -69.3719 -5.3928 -47.5117 -5.3565 -47.4362 -25.1369 -76.0007
3.9837 -22.5477 -70.9339 -5.3921 -47.9608 -5.3599 -47.8911 -25.0565 -77.6009
4.0212 -22.4629 -71.7511 -5.3918 -48.4163 -5.3604 -48.3256 -25.0067 -78.0775
4.0587 -22.4606 -71.9803 -5.3949 -48.8801 -5.3603 -48.7875 -24.9704 -78.6581
4.0961 -22.5253 -72.6392 -5.3912 -49.3040 -5.3607 -49.2168 -24.9694 -79.7078
4.1336 -22.5439 -74.0744 -5.3950 -49.7576 -5.3596 -49.6501 -24.9065 -81.0730
4.1711 -22.4953 -75.3688 -5.3988 -50.2171 -5.3626 -50.1210 -24.8157 -82.4619
4.2086 -22.4260 -75.9677 -5.3956 -50.6513 -5.3634 -50.5649 -24.7136 -83.2561
4.2461 -22.4561 -76.4843 -5.3974 -51.1133 -5.3627 -51.0083 -24.6341 -83.5939
4.2836 -22.4951 -77.5120 -5.3972 -51.5682 -5.3636 -51.4700 -24.6179 -84.6721
4.3211 -22.4678 -79.0469 -5.3948 -51.9898 -5.3628 -51.9098 -24.5198 -86.0051
4.3586 -22.3914 -79.8992 -5.4000 -52.4166 -5.3657 -52.3526 -24.3786 -86.9738
4.3960 -22.3527 -80.5198 -5.4002 -52.8851 -5.3663 -52.8073 -24.3404 -87.3979
4.4335 -22.3574 -81.2417 -5.4017 -53.3566 -5.3670 -53.2806 -24.2638 -88.1885
4.4710 -22.3347 -82.4081 -5.4030 -53.7801 -5.3688 -53.7164 -24.1904 -89.3673
4.5085 -22.2890 -83.4076 -5.4015 -54.2417 -5.3683 -54.1548 -24.0685 -90.3860
4.5460 -22.2655 -84.2153 -5.4030 -54.7013 -5.3699 -54.6100 -24.0019 -90.9044
4.5835 -22.2460 -84.9906 -5.4044 -55.1397 -5.3709 -55.0640 -23.8705 -91.6130
4.6210 -22.2118 -85.8783 -5.4037 -55.5678 -5.3695 -55.4954 -23.8364 -92.3371
4.6585 -22.1983 -86.6639 -5.4064 -56.0546 -5.3712 -55.9706 -23.7685 -93.1113
4.6959 -22.1758 -87.6159 -5.4076 -56.4924 -5.3724 -56.4216 -23.6422 -94.1297
4.7334 -22.1617 -88.6045 -5.4074 -56.9201 -5.3727 -56.8684 -23.5523 -94.7977
4.7709 -22.0919 -89.5729 -5.4085 -57.3886 -5.3727 -57.3133 -23.4721 -95.2744
4.8084 -22.0517 -90.3051 -5.4120 -57.8317 -5.3772 -57.7811 -23.3843 -96.2031
4.8459 -22.0324 -91.1735 -5.4098 -58.2539 -5.3772 -58.2146 -23.2479 -96.9244
4.8834 -22.0371 -91.9484 -5.4130 -58.7326 -5.3787 -58.6772 -23.1666 -97.0430
4.9209 -21.9899 -93.0151 -5.4133 -59.1693 -5.3791 -59.1176 -23.0912 -97.8336
4.9584 -21.9241 -93.7582 -5.4150 -59.6576 -5.3799 -59.5894 -23.0367 -98.1690
4.9958 -21.8732 -94.2981 -5.4153 -60.0566 -5.3811 -60.0021 -22.9140 -98.9260
5.0333 -21.8923 -94.9005 -5.4138 -60.5116 -5.3806 -60.4481 -22.8682 -99.3134
5.0708 -21.8707 -96.1079 -5.4172 -60.9665 -5.3825 -60.9246 -22.7654 -99.9334
5.1083 -21.7922 -97.1401 -5.4181 -61.4273 -5.3849 -61.3777 -22.6859 -100.4835
5.1458 -21.6803 -97.6777 -5.4176 -61.8638 -5.3851 -61.8102 -22.5682 -100.9954
5.1833 -21.6915 -98.0065 -5.4189 -62.3204 -5.3854 -62.2639 -22.5246 -101.3771
5.2208 -21.7078 -98.8829 -5.4197 -62.7821 -5.3854 -62.7136 -22.4065 -101.6968
5.2583 -21.6697 -100.1495 -5.4215 -63.2299 -5.3859 -63.1747 -22.3388 -102.0110
5.2957 -21.5273 -100.8135 -5.4292 -63.6620 -5.3915 -63.6205 -22.2711 -102.5953
5.3332 -21.4878 -100.9485 -5.4244 -64.1061 -5.3892 -64.0663 -22.2394 -102.9165
5.3707 -21.5134 -101.4720 -5.4273 -64.5596 -5.3887 -64.5307 -22.1041 -103.4214
5.4082 -21.5019 -102.6639 -5.4272 -64.9988 -5.3932 -64.9750 -22.0588 -103.8969
5.4457 -21.3967 -103.7168 -5.4263 -65.4620 -5.3925 -65.4314 -21.9372 -104.4185
5.4832 -21.2954 -104.0549 -5.4283 -65.9042 -5.3966 -65.8768 -21.8421 -104.5276
5.5207 -21.2941 -104.1520 -5.4272 -66.3325 -5.3967 -66.3117 -21.7822 -104.6681
5.5582 -21.3308 -104.9650 -5.4274 -66.8022 -5.3985 -66.7672 -21.7468 -104.9477
5.5956 -21.2687 -106.0862 -5.4312 -67.2662 -5.3982 -67.2423 -21.6521 -105.4574
5.6331 -21.1629 -106.8632 -5.4358 -67.7179 -5.4007 -67.6860 -21.5983 -105.9174
5.6706 -21.0931 -106.7643 -5.4388 -68.1510 -5.4051 -68.1200 -21.5458 -105.9172
5.7081 -21.1424 -107.1869 -5.4375 -68.5962 -5.4044 -68.5634 -21.5071 -106.3029
5.7456 -21.1432 -108.1374 -5.4391 -69.0644 -5.4050 -69.0232 -21.4460 -106.6329
5.7831 -21.0673 -109.2648 -5.4400 -69.5033 -5.4067 -69.4620 -21.3627 -106.9945
5.8206 -20.9448 -109.5316 -5.4464 -69.9421 -5.4083 -69.9074 -21.2767 -107.3096
5.8581 -20.9589 -109.5320 -5.4421 -70.4220 -5.4052 -70.3812 -21.2627 -107.1069
5.8955 -20.9849 -110.3064 -5.4450 -70.8701 -5.4109 -70.8194 -21.2114 -107.4726
5.9330 -20.9315 -111.3132 -5.4441 -71.3159 -5.4133 -71.2706 -21.1865 -108.0890
5.9705 -20.8162 -111.9787 -5.4471 -71.7494 -5.4164 -71.7050 -21.0959 -108.5124
6.0080 -20.7769 -111.9252 -5.4465 -72.2340 -5.4154 -72.1803 -21.0502 -108.3320
6.0455 -20.8225 -112.2040 -5.4524 -72.6708 -5.4211 -72.6165 -21.0296 -108.3465
6.0830 -20.8115 -113.1094 -5.4521 -73.1003 -5.4194 -73.0558 -21.0063 -108.8162
6.1205 -20.7315 -113.9050 -5.4517 -73.5633 -5.4197 -73.5084 -20.9780 -109.4169
6.1580 -20.6581 -114.1342 -5.4573 -74.0330 -5.4227 -73.9565 -20.8863 -109.3651
6.1954 -20.6728 -114.1479 -5.4597 -74.4760 -5.4247 -74.4086 -20.8508 -109.2462
6.2329 -20.7027 -114.8393 -5.4602 -74.9215 -5.4269 -74.8571 -20.8600 -109.4762
6.2704 -20.6579 -115.6670 -5.4574 -75.3776 -5.4268 -75.3059 -20.8905 -109.8380
6.3079 -20.5631 -116.1155 -5.4594 -75.8239 -5.4295 -75.7463 -20.8147 -110.2979
6.3454 -20.5356 -116.1662 -5.4580 -76.2578 -5.4293 -76.1848 -20.7476 -110.3245
6.3829 -20.5748 -116.5039 -5.4599 -76.6945 -5.4308 -76.6277 -20.7713 -110.2540
6.4204 -20.5750 -117.3222 -5.4638 -77.1539 -5.4340 -77.0811 -20.7859 -110.4601
6.4579 -20.4821 -117.8784 -5.4665 -77.5966 -5.4353 -77.5341 -20.7421 -111.0384
6.4953 -20.4398 -118.0499 -5.4687 -78.0445 -5.4393 -77.9626 -20.6944 -111.3139
6.5328 -20.4534 -118.1387 -5.4689 -78.4954 -5.4336 -78.3945 -20.6805 -110.9481
6.5703 -20.4772 -118.7070 -5.4743 -78.9800 -5.4367 -78.8840 -20.6884 -110.9917
6.6078 -20.4448 -119.3926 -5.4768 -79.3998 -5.4413 -79.3070 -20.7486 -111.4028
6.6453 -20.3870 -119.8140 -5.4759 -79.8356 -5.4415 -79.7429 -20.7184 -111.9588
6.6828 -20.3528 -120.0365 -5.4756 -80.3019 -5.4417 -80.2145 -20.6658 -112.0333
6.7203 -20.3615 -120.4309 -5.4788 -80.7661 -5.4457 -80.6753 -20.6365 -111.9469
6.7578 -20.3488 -120.8810 -5.4798 -81.1787 -5.4458 -81.1057 -20.7015 -112.0143
6.7952 -20.3055 -121.3318 -5.4829 -81.6214 -5.4479 -81.5387 -20.7314 -112.4839
6.8327 -20.2657 -121.4527 -5.4818 -82.0861 -5.4472 -82.0101 -20.7087 -112.7571
6.8702 -20.2766 -121.8337 -5.4845 -82.5092 -5.4526 -82.4409 -20.6590 -112.7867
6.9077 -20.2717 -122.4215 -5.4832 -82.9638 -5.4512 -82.8726 -20.7055 -112.9139
6.9452 -20.2187 -122.9042 -5.4861 -83.4338 -5.4526 -83.3420 -20.7296 -112.9648
6.9827 -20.1869 -122.9482 -5.4888 -83.8865 -5.4549 -83.8024 -20.7516 -113.3660
7.0202 -20.2082 -123.1624 -5.4918 -84.3030 -5.4570 -84.2263 -20.7590 -113.5906
7.0577 -20.2100 -123.6673 -5.4920 -84.7507 -5.4577 -84.6597 -20.7495 -113.6268
7.0951 -20.1488 -124.1706 -5.4923 -85.2215 -5.4582 -85.1351 -20.7685 -113.7311
7.1326 -20.1131 -124.2218 -5.4970 -85.6726 -5.4616 -85.5884 -20.8471 -113.9708
7.1701 -20.1386 -124.2179 -5.5012 -86.1047 -5.4640 -86.0124 -20.8562 -114.2363
7.2076 -20.1601 -124.7451 -5.5015 -86.5366 -5.4667 -86.4487 -20.8579 -114.1641
7.2451 -20.1059 -125.4090 -5.4951 -87.0081 -5.4625 -86.9211 -20.8666 -114.4660
7.2826 -20.0450 -125.6740 -5.4992 -87.4577 -5.4682 -87.3616 -20.9289 -114.7298
7.3201 -20.0422 -125.5868 -5.5046 -87.8824 -5.4698 -87.7740 -20.9711 -114.8062
7.3576 -20.0730 -125.7826 -5.5050 -88.3529 -5.4668 -88.2601 -20.9812 -114.9445
7.3950 -20.0911 -126.4993 -5.5090 -88.7835 -5.4743 -88.7036 -20.9859 -115.1811
7.4325 -20.0311 -127.0072 -5.5077 -89.2297 -5.4722 -89.1139 -21.0569 -115.4952
7.4700 -19.9678 -127.1481 -5.5075 -89.6807 -5.4718 -89.5857 -21.0914 -115.3187
7.5075 -19.9859 -126.9840 -5.5113 -90.1596 -5.4752 -90.0542 -21.1443 -115.8901
7.5450 -20.0264 -127.3934 -5.5137 -90.5669 -5.4807 -90.4691 -21.1919 -116.0535
7.5825 -19.9921 -127.9894 -5.5097 -91.0009 -5.4781 -90.9114 -21.2187 -116.1675
7.6200 -19.9240 -128.3536 -5.5121 -91.4714 -5.4804 -91.3834 -21.2432 -116.3949
7.6575 -19.9282 -128.2119 -5.5198 -91.9220 -5.4847 -91.8209 -21.3169 -116.6425
7.6949 -19.9831 -128.3999 -5.5217 -92.3657 -5.4851 -92.2574 -21.3770 -116.8421
7.7324 -19.9851 -129.1993 -5.5215 -92.7909 -5.4862 -92.7081 -21.4345 -116.8667
7.7699 -19.9015 -129.6960 -5.5207 -93.2591 -5.4843 -93.1569 -21.4384 -117.4788
7.8074 -19.8587 -129.7131 -5.5281 -93.7050 -5.4903 -93.5974 -21.5293 -117.8033
7.8449 -19.8615 -129.5559 -5.5283 -94.1378 -5.4869 -94.0433 -21.6245 -117.9235
7.8824 -19.9062 -130.0908 -5.5291 -94.6042 -5.4928 -94.5172 -21.6358 -118.2169
7.9199 -19.8650 -130.6453 -5.5340 -95.0587 -5.4935 -94.9605 -21.6979 -118.7747
7.9574 -19.8268 -130.8281 -5.5355 -95.4875 -5.4982 -95.3968 -21.6950 -118.7934
7.9948 -19.8235 -130.7174 -5.5371 -95.9310 -5.4997 -95.8307 -21.7967 -118.8690
8.0323 -19.8591 -130.9820 -5.5367 -96.3890 -5.4986 -96.2747 -21.8903 -118.9844
8.0698 -19.8613 -131.6703 -5.5383 -96.8568 -5.5040 -96.7432 -21.9651 -119.6720
8.1073 -19.8073 -132.0443 -5.5420 -97.2686 -5.5060 -97.1446 -22.0646 -120.1952
8.1448 -19.7347 -132.2482 -5.5419 -97.7278 -5.5029 -97.6262 -22.0712 -120.4132
8.1823 -19.7415 -132.2805 -5.5444 -98.1665 -5.5112 -98.0681 -22.1529 -120.6979
8.2198 -19.7424 -132.5465 -5.5458 -98.6013 -5.5137 -98.4809 -22.2691 -121.3076
8.2573 -19.6962 -132.8760 -5.5425 -99.0300 -5.5083 -98.9194 -22.3256 -121.4708
8.2947 -19.6853 -133.0251 -5.5458 -99.5180 -5.5132 -99.3881 -22.3343 -121.9396
8.3322 -19.6888 -133.1149 -5.5493 -99.9385 -5.5159 -99.7951 -22.4339 -121.9659
8.3697 -19.6637 -133.5897 -5.5485 -100.4038 -5.5139 -100.2633 -22.5543 -122.3525
8.4072 -19.6070 -133.8860 -5.5482 -100.8311 -5.5154 -100.6890 -22.6699 -122.8339
8.4447 -19.5718 -134.0138 -5.5527 -101.3090 -5.5179 -101.1575 -22.6965 -123.7093
8.4822 -19.5744 -133.9398 -5.5551 -101.7303 -5.5193 -101.5716 -22.7204 -123.9553
8.5197 -19.6137 -134.4249 -5.5543 -102.1681 -5.5194 -102.0129 -22.7977 -123.8919
8.5572 -19.5551 -135.1387 -5.5520 -102.6326 -5.5170 -102.4794 -22.9016 -124.4579
8.5946 -19.5007 -135.3692 -5.5599 -103.0723 -5.5218 -102.9317 -23.0562 -125.0939
8.6321 -19.4692 -135.3280 -5.5568 -103.5226 -5.5207 -103.3750 -23.0600 -125.6286
8.6696 -19.5106 -135.5326 -5.5565 -103.9625 -5.5232 -103.8156 -23.1275 -125.9572
8.7071 -19.4945 -136.3072 -5.5575 -104.4102 -5.5246 -104.2708 -23.2358 -126.2499
8.7446 -19.4190 -136.7330 -5.5636 -104.8600 -5.5278 -104.7095 -23.4139 -127.3033
8.7821 -19.3514 -136.6962 -5.5601 -105.3095 -5.5274 -105.1544 -23.4650 -128.0046
8.8196 -19.3683 -136.5498 -5.5612 -105.7566 -5.5281 -105.6033 -23.4952 -128.6164
8.8571 -19.4393 -137.1241 -5.5627 -106.2267 -5.5325 -106.0530 -23.5545 -128.7479
8.8945 -19.3713 -137.7334 -5.5622 -106.6247 -5.5295 -106.4582 -23.7048 -129.3814
8.9320 -19.2808 -137.9639 -5.5610 -107.0993 -5.5271 -106.9319 -23.8443 -130.1773
8.9695 -19.2884 -137.7852 -5.5655 -107.5816 -5.5311 -107.3968 -23.8591 -131.2008
9.0070 -19.3618 -137.8948 -5.5729 -108.0135 -5.5367 -107.8149 -23.9027 -131.8207
9.0445 -19.3671 -138.8233 -5.5690 -108.4401 -5.5326 -108.2625 -23.9856 -131.9678
9.0820 -19.2793 -139.4922 -5.5672 -108.9084 -5.5346 -108.7285 -24.1268 -132.9112
9.1195 -19.2127 -139.4266 -5.5684 -109.3509 -5.5369 -109.1675 -24.2219 -134.0755
9.1570 -19.2193 -139.2575 -5.5711 -109.7744 -5.5375 -109.5948 -24.2612 -134.9429
9.1944 -19.2894 -139.8079 -5.5719 -110.2263 -5.5372 -110.0611 -24.3146 -135.3015
9.2319 -19.2603 -140.5328 -5.5759 -110.7078 -5.5437 -110.5098 -24.4098 -136.3588
