! Device:      ADRF5700					
! Description: 2 dB LSB, 5-Bit, Silicon Digital Attenuator, 100 MHz to 22 GHz			
! Frequency:   10MHz -  30.00 GHz						
! Ports:       										
!        RF1 = Port 1
!        RF2 = Port 2
!						
! VDD  =  +3.30 Volts
! VSS  =  -3.30 Volts
!				
! State:        6.00 dB attenuation 	
! Data:  Data was collected using an calibrated 4 port network analyzer 						
!             The reference plane is the edge of the device.
! Notes: Analog Devices supplies this data as a sample of measured data						
!             for this product.  Your particular data for this product may vary.						
!             Data was taken at 25 degrees C.						
!             Analog Devices reserves the right to change this data at anytime.	
!
# GHz S  dB   R 50
0.0100 -27.0219 -11.9282 -7.1745 -0.0601 -7.1656 0.1016 -27.6231 -4.7805
0.0475 -27.4592 -2.5634 -7.2178 -0.6010 -7.1916 -0.5731 -27.8884 6.0057
0.0850 -27.1600 -1.7844 -7.2102 -1.1006 -7.1888 -1.1215 -27.5341 6.5388
0.1225 -27.1468 -1.8685 -7.2129 -1.6065 -7.1880 -1.5853 -27.4942 6.6462
0.1600 -27.1474 -2.7596 -7.2210 -2.0755 -7.1917 -2.0947 -27.5152 6.2303
0.1974 -26.9543 -3.9640 -7.2258 -2.5515 -7.1970 -2.5631 -27.4237 5.0605
0.2349 -26.7785 -4.4542 -7.2272 -2.9775 -7.2002 -3.0370 -27.2857 4.3271
0.2724 -26.7573 -4.6952 -7.2299 -3.5033 -7.2078 -3.5073 -27.2218 3.7215
0.3099 -26.7727 -5.4362 -7.2304 -4.0200 -7.2115 -3.9416 -27.1983 3.1809
0.3474 -26.6641 -7.3327 -7.2362 -4.4341 -7.2094 -4.3936 -27.0937 1.5645
0.3849 -26.4514 -8.2129 -7.2352 -4.8266 -7.2136 -4.8725 -26.9245 0.8189
0.4224 -26.3067 -8.0043 -7.2344 -5.3192 -7.2134 -5.3219 -26.8101 1.1855
0.4599 -26.2867 -7.6818 -7.2414 -5.7948 -7.2146 -5.7801 -26.8207 1.7539
0.4973 -26.3414 -8.6095 -7.2479 -6.2567 -7.2184 -6.2252 -26.9313 1.3787
0.5348 -26.2562 -10.1338 -7.2468 -6.7534 -7.2202 -6.6843 -26.9829 -0.3247
0.5723 -26.1035 -10.9228 -7.2508 -7.1549 -7.2244 -7.1448 -26.9217 -1.4123
0.6098 -26.0319 -11.2000 -7.2535 -7.5772 -7.2272 -7.5900 -26.8189 -2.1164
0.6473 -26.0456 -11.7532 -7.2533 -8.0947 -7.2262 -8.0379 -26.7895 -2.3489
0.6848 -25.9959 -12.7951 -7.2564 -8.5231 -7.2295 -8.4970 -26.7711 -2.8462
0.7223 -25.8737 -13.7929 -7.2582 -8.9898 -7.2328 -8.9550 -26.7443 -3.5662
0.7598 -25.7903 -14.1446 -7.2589 -9.4688 -7.2349 -9.3943 -26.7526 -4.0521
0.7972 -25.7473 -14.5660 -7.2638 -9.8597 -7.2365 -9.8509 -26.7764 -4.4695
0.8347 -25.7267 -15.1829 -7.2664 -10.3118 -7.2412 -10.3083 -26.8568 -5.0065
0.8722 -25.6594 -16.1358 -7.2675 -10.7782 -7.2425 -10.7466 -26.8340 -6.4738
0.9097 -25.6131 -16.9110 -7.2710 -11.2314 -7.2442 -11.2100 -26.8148 -7.6500
0.9472 -25.5846 -17.6506 -7.2722 -11.6147 -7.2475 -11.6548 -26.7336 -8.3445
0.9847 -25.5247 -18.5579 -7.2792 -12.0933 -7.2503 -12.1073 -26.7021 -8.9168
1.0222 -25.4261 -19.0357 -7.2780 -12.5873 -7.2513 -12.5484 -26.6827 -9.1328
1.0596 -25.3304 -19.4835 -7.2780 -13.0499 -7.2537 -13.0041 -26.6788 -9.7542
1.0971 -25.3197 -19.8866 -7.2832 -13.4639 -7.2583 -13.4493 -26.7280 -10.2273
1.1346 -25.3084 -20.8307 -7.2888 -13.8977 -7.2597 -13.8947 -26.7177 -11.2677
1.1721 -25.2274 -21.9106 -7.2904 -14.3643 -7.2622 -14.3495 -26.7239 -12.2347
1.2096 -25.1143 -22.4513 -7.2929 -14.8133 -7.2661 -14.7869 -26.6780 -12.9593
1.2471 -25.0450 -22.6562 -7.2938 -15.2797 -7.2673 -15.2287 -26.6188 -13.2439
1.2846 -25.0664 -23.2292 -7.2987 -15.7689 -7.2692 -15.6852 -26.6281 -13.8591
1.3221 -25.0195 -24.2449 -7.3024 -16.1745 -7.2736 -16.1266 -26.6506 -14.5258
1.3596 -24.8806 -24.9913 -7.3045 -16.5741 -7.2744 -16.5615 -26.6629 -15.0234
1.3970 -24.7675 -25.0509 -7.3036 -17.0887 -7.2761 -17.0124 -26.7102 -15.5812
1.4345 -24.7501 -25.1747 -7.3066 -17.5132 -7.2801 -17.4687 -26.7635 -16.0978
1.4720 -24.7861 -25.9237 -7.3114 -17.9348 -7.2811 -17.9035 -26.7999 -17.2834
1.5095 -24.7318 -27.1880 -7.3154 -18.3941 -7.2825 -18.3546 -26.7955 -18.6232
1.5470 -24.6167 -27.8060 -7.3170 -18.8187 -7.2872 -18.8057 -26.7365 -19.6406
1.5845 -24.5529 -27.9657 -7.3175 -19.2501 -7.2894 -19.2453 -26.7114 -20.0752
1.6220 -24.5391 -28.2534 -7.3206 -19.7049 -7.2915 -19.6876 -26.7312 -20.5617
1.6595 -24.5219 -29.1804 -7.3221 -20.1551 -7.2945 -20.1391 -26.7281 -21.4410
1.6969 -24.4385 -29.8960 -7.3240 -20.6114 -7.2971 -20.5761 -26.7652 -22.4789
1.7344 -24.3383 -30.2174 -7.3251 -21.0771 -7.2997 -21.0141 -26.7671 -23.1559
1.7719 -24.3247 -30.2974 -7.3282 -21.4865 -7.3022 -21.4471 -26.7724 -23.9280
1.8094 -24.3380 -30.9343 -7.3329 -21.8888 -7.3048 -21.8816 -26.7438 -24.8681
1.8469 -24.3069 -31.7000 -7.3323 -22.3585 -7.3051 -22.3203 -26.6938 -26.0315
1.8844 -24.2487 -32.3056 -7.3345 -22.7868 -7.3070 -22.7612 -26.6574 -26.6322
1.9219 -24.2037 -32.6614 -7.3366 -23.2651 -7.3086 -23.2027 -26.6530 -27.2148
1.9594 -24.1720 -33.0325 -7.3362 -23.7344 -7.3106 -23.6425 -26.6203 -27.7497
1.9968 -24.1404 -33.4852 -7.3391 -24.1349 -7.3131 -24.0980 -26.6267 -28.5635
2.0343 -24.1170 -33.9711 -7.3452 -24.5762 -7.3162 -24.5353 -26.6374 -29.1577
2.0718 -24.1013 -34.4751 -7.3492 -25.0202 -7.3174 -24.9803 -26.6539 -29.9845
2.1093 -24.0754 -34.9707 -7.3529 -25.4323 -7.3195 -25.4117 -26.6707 -30.7370
2.1468 -24.0541 -35.6788 -7.3556 -25.9042 -7.3221 -25.8538 -26.6333 -31.7448
2.1843 -24.0235 -36.0657 -7.3556 -26.3042 -7.3228 -26.2760 -26.5805 -32.7034
2.2218 -24.0221 -36.6561 -7.3581 -26.7462 -7.3259 -26.7122 -26.5597 -33.2337
2.2593 -24.0043 -37.1827 -7.3575 -27.2555 -7.3258 -27.1410 -26.6030 -33.8044
2.2967 -23.9585 -37.7303 -7.3622 -27.6889 -7.3259 -27.5819 -26.6314 -34.5366
2.3342 -23.9072 -38.0566 -7.3668 -28.1141 -7.3290 -28.0218 -26.5996 -35.4259
2.3717 -23.9280 -38.1931 -7.3674 -28.4977 -7.3302 -28.4497 -26.6131 -35.8889
2.4092 -23.9764 -38.6224 -7.3661 -28.9379 -7.3301 -28.8931 -26.6713 -36.3442
2.4467 -23.9737 -39.5418 -7.3683 -29.4757 -7.3328 -29.3168 -26.7350 -37.1992
2.4842 -23.9089 -40.1277 -7.3720 -29.8815 -7.3331 -29.7545 -26.7175 -38.5094
2.5217 -23.8684 -40.3555 -7.3759 -30.2864 -7.3357 -30.1953 -26.6843 -39.5030
2.5592 -23.9292 -40.6086 -7.3798 -30.7215 -7.3396 -30.6150 -26.6589 -39.9883
2.5966 -23.9722 -41.4693 -7.3773 -31.1772 -7.3389 -31.0398 -26.6661 -40.5595
2.6341 -23.9016 -42.3675 -7.3797 -31.6083 -7.3388 -31.4927 -26.6921 -41.5970
2.6716 -23.8155 -42.6109 -7.3806 -32.0078 -7.3422 -31.9145 -26.6797 -42.4548
2.7091 -23.8323 -42.5001 -7.3764 -32.4532 -7.3426 -32.3371 -26.6616 -43.2157
2.7466 -23.9267 -43.0468 -7.3742 -32.9177 -7.3422 -32.7747 -26.6893 -43.6307
2.7841 -23.9447 -44.1085 -7.3792 -33.3519 -7.3416 -33.2163 -26.7590 -44.6750
2.8216 -23.8751 -44.9213 -7.3848 -33.7861 -7.3444 -33.6489 -26.7628 -45.8487
2.8591 -23.8170 -44.9868 -7.3830 -34.2148 -7.3436 -34.0931 -26.7008 -47.1095
2.8965 -23.9179 -45.0577 -7.3863 -34.6345 -7.3453 -34.5425 -26.6912 -47.5216
2.9340 -24.0302 -45.9531 -7.3891 -35.0597 -7.3467 -34.9732 -26.7066 -48.2732
2.9715 -23.9833 -47.1488 -7.3908 -35.5054 -7.3467 -35.4140 -26.7413 -49.1036
3.0090 -23.8895 -47.5199 -7.3928 -35.9459 -7.3496 -35.8619 -26.7163 -50.0439
3.0465 -23.8896 -47.2598 -7.3923 -36.4110 -7.3518 -36.2781 -26.7228 -50.9594
3.0840 -24.0320 -47.6851 -7.3921 -36.8190 -7.3517 -36.7239 -26.7351 -51.4438
3.1215 -24.0803 -48.9091 -7.3920 -37.2315 -7.3530 -37.1673 -26.7482 -52.4646
3.1590 -24.0127 -49.8482 -7.3948 -37.6847 -7.3536 -37.5987 -26.7409 -53.5194
3.1964 -23.9469 -49.8798 -7.3938 -38.1065 -7.3529 -38.0359 -26.7288 -54.3964
3.2339 -24.0533 -50.0332 -7.3927 -38.5520 -7.3551 -38.4854 -26.7089 -55.2123
3.2714 -24.1732 -51.2003 -7.3928 -38.9889 -7.3585 -38.9159 -26.6585 -56.1674
3.3089 -24.1184 -52.7081 -7.3940 -39.4204 -7.3564 -39.3580 -26.6619 -57.1351
3.3464 -23.9857 -52.9987 -7.3970 -39.8632 -7.3570 -39.8079 -26.6147 -57.8158
3.3839 -23.9978 -52.8152 -7.3967 -40.3168 -7.3587 -40.2487 -26.6432 -58.1800
3.4214 -24.1371 -53.1197 -7.3975 -40.7566 -7.3602 -40.6695 -26.6975 -59.2668
3.4589 -24.2051 -54.5882 -7.3959 -41.1572 -7.3586 -41.1147 -26.6888 -60.6685
3.4963 -24.1064 -55.7388 -7.3999 -41.6015 -7.3628 -41.5445 -26.6173 -62.0463
3.5338 -24.0515 -56.0118 -7.3981 -42.0803 -7.3627 -41.9824 -26.5544 -62.8766
3.5713 -24.1433 -56.2166 -7.3955 -42.5215 -7.3613 -42.4302 -26.5383 -63.6575
3.6088 -24.2636 -57.6323 -7.3978 -42.9165 -7.3626 -42.8668 -26.5125 -64.8935
3.6463 -24.2167 -59.3172 -7.3979 -43.3661 -7.3646 -43.3093 -26.4427 -66.3054
3.6838 -24.0870 -60.0300 -7.3982 -43.8328 -7.3651 -43.7438 -26.4070 -67.2371
3.7213 -24.0960 -59.9150 -7.4005 -44.2652 -7.3658 -44.1876 -26.4094 -67.8971
3.7588 -24.2207 -60.6219 -7.4013 -44.6825 -7.3672 -44.6141 -26.4216 -69.0115
3.7962 -24.2813 -62.3138 -7.4012 -45.1068 -7.3665 -45.0556 -26.3771 -70.6966
3.8337 -24.1740 -63.7263 -7.4007 -45.5620 -7.3651 -45.4982 -26.3065 -72.3149
3.8712 -24.1170 -63.8680 -7.4024 -46.0339 -7.3681 -45.9508 -26.2106 -72.7844
3.9087 -24.1993 -64.0604 -7.4032 -46.4656 -7.3687 -46.3789 -26.2059 -73.6508
3.9462 -24.3271 -65.3833 -7.4049 -46.9014 -7.3678 -46.8284 -26.1662 -74.7828
3.9837 -24.3041 -67.1268 -7.4042 -47.3407 -7.3715 -47.2731 -26.0873 -76.3411
4.0212 -24.2001 -67.9417 -7.4039 -47.7905 -7.3721 -47.7061 -26.0127 -76.8761
4.0587 -24.1931 -68.0714 -7.4063 -48.2517 -7.3720 -48.1576 -25.9798 -77.4676
4.0961 -24.2838 -68.6471 -7.4037 -48.6721 -7.3728 -48.5851 -25.9930 -78.5718
4.1336 -24.3228 -70.1668 -7.4074 -49.1171 -7.3716 -49.0098 -25.9324 -80.0601
4.1711 -24.2686 -71.5700 -7.4113 -49.5677 -7.3742 -49.4732 -25.8221 -81.4587
4.2086 -24.1914 -72.1196 -7.4079 -49.9963 -7.3756 -49.9080 -25.7053 -82.2165
4.2461 -24.2219 -72.5667 -7.4108 -50.4518 -7.3743 -50.3506 -25.6391 -82.6035
4.2836 -24.2775 -73.6277 -7.4095 -50.8994 -7.3754 -50.8029 -25.6231 -83.7586
4.3211 -24.2567 -75.2097 -7.4072 -51.3130 -7.3748 -51.2392 -25.5165 -85.1503
4.3586 -24.1692 -76.2008 -7.4125 -51.7384 -7.3769 -51.6790 -25.3615 -86.0837
4.3960 -24.1289 -76.7637 -7.4130 -52.1952 -7.3782 -52.1237 -25.3064 -86.5241
4.4335 -24.1378 -77.4538 -7.4146 -52.6579 -7.3786 -52.5945 -25.2425 -87.3291
4.4710 -24.1210 -78.6490 -7.4162 -53.0785 -7.3801 -53.0207 -25.1636 -88.5384
4.5085 -24.0716 -79.6744 -7.4148 -53.5313 -7.3804 -53.4545 -25.0260 -89.6085
4.5460 -24.0424 -80.4600 -7.4159 -53.9843 -7.3820 -53.9068 -24.9354 -90.1396
4.5835 -24.0243 -81.2159 -7.4166 -54.4155 -7.3827 -54.3504 -24.8209 -90.7341
4.6210 -23.9865 -82.1386 -7.4161 -54.8452 -7.3801 -54.7745 -24.7774 -91.5161
4.6585 -23.9742 -82.9747 -7.4189 -55.3198 -7.3829 -55.2468 -24.6993 -92.4010
4.6959 -23.9500 -83.9146 -7.4203 -55.7518 -7.3851 -55.6884 -24.5676 -93.3508
4.7334 -23.9337 -84.8567 -7.4203 -56.1704 -7.3846 -56.1288 -24.4659 -94.0107
4.7709 -23.8685 -85.8838 -7.4212 -56.6350 -7.3851 -56.5724 -24.3849 -94.5189
4.8084 -23.8170 -86.6418 -7.4244 -57.0718 -7.3889 -57.0274 -24.2891 -95.4330
4.8459 -23.7915 -87.4303 -7.4220 -57.4916 -7.3891 -57.4586 -24.1445 -96.1066
4.8834 -23.7938 -88.2189 -7.4252 -57.9555 -7.3907 -57.9106 -24.0463 -96.2822
4.9209 -23.7419 -89.3387 -7.4255 -58.3899 -7.3909 -58.3475 -23.9656 -96.9043
4.9584 -23.6623 -90.1175 -7.4268 -58.8745 -7.3917 -58.8134 -23.9061 -97.3052
4.9958 -23.6026 -90.5562 -7.4273 -59.2688 -7.3938 -59.2127 -23.7919 -98.0545
5.0333 -23.6230 -91.1482 -7.4266 -59.7146 -7.3925 -59.6567 -23.7217 -98.4691
5.0708 -23.6083 -92.4189 -7.4291 -60.1661 -7.3951 -60.1247 -23.6110 -98.9950
5.1083 -23.5159 -93.5518 -7.4304 -60.6159 -7.3979 -60.5751 -23.5303 -99.5187
5.1458 -23.3826 -94.0256 -7.4288 -61.0526 -7.3974 -61.0004 -23.4154 -100.0239
5.1833 -23.3771 -94.2734 -7.4317 -61.4986 -7.3982 -61.4534 -23.3435 -100.4088
5.2208 -23.4036 -95.1075 -7.4319 -61.9506 -7.3980 -61.8944 -23.2288 -100.6694
5.2583 -23.3548 -96.4328 -7.4344 -62.3954 -7.3972 -62.3536 -23.1565 -100.9667
5.2957 -23.1972 -97.1271 -7.4421 -62.8286 -7.4030 -62.7840 -23.0811 -101.4643
5.3332 -23.1304 -97.1897 -7.4367 -63.2579 -7.4015 -63.2284 -23.0304 -101.7459
5.3707 -23.1627 -97.6336 -7.4385 -63.7138 -7.4005 -63.6862 -22.9060 -102.2671
5.4082 -23.1532 -98.8507 -7.4396 -64.1431 -7.4043 -64.1306 -22.8319 -102.7280
5.4457 -23.0309 -99.9765 -7.4388 -64.6026 -7.4039 -64.5777 -22.7087 -103.1896
5.4832 -22.8986 -100.2911 -7.4410 -65.0412 -7.4081 -65.0191 -22.6082 -103.2523
5.5207 -22.8887 -100.2779 -7.4393 -65.4651 -7.4092 -65.4443 -22.5442 -103.3559
5.5582 -22.9307 -101.0448 -7.4405 -65.9275 -7.4105 -65.8897 -22.4961 -103.6502
5.5956 -22.8675 -102.3130 -7.4435 -66.3851 -7.4099 -66.3608 -22.4111 -104.0729
5.6331 -22.7286 -103.0489 -7.4476 -66.8210 -7.4123 -66.7982 -22.3370 -104.4331
5.6706 -22.6391 -102.8601 -7.4506 -67.2503 -7.4163 -67.2364 -22.2798 -104.4549
5.7081 -22.6890 -103.1242 -7.4498 -67.6918 -7.4165 -67.6670 -22.2342 -104.7612
5.7456 -22.6990 -104.1220 -7.4517 -68.1573 -7.4176 -68.1229 -22.1665 -105.1111
5.7831 -22.6009 -105.2892 -7.4526 -68.5876 -7.4189 -68.5626 -22.0717 -105.4240
5.8206 -22.4546 -105.5300 -7.4582 -69.0205 -7.4205 -68.9950 -21.9806 -105.5878
5.8581 -22.4510 -105.4458 -7.4549 -69.4988 -7.4182 -69.4691 -21.9567 -105.4311
5.8955 -22.4802 -106.1582 -7.4579 -69.9314 -7.4229 -69.9004 -21.9181 -105.7325
5.9330 -22.4162 -107.2221 -7.4567 -70.3781 -7.4253 -70.3429 -21.8762 -106.2897
5.9705 -22.2790 -107.8544 -7.4597 -70.8061 -7.4280 -70.7722 -21.7755 -106.6314
6.0080 -22.2200 -107.7136 -7.4587 -71.2818 -7.4279 -71.2414 -21.7125 -106.4606
6.0455 -22.2623 -107.8978 -7.4657 -71.7123 -7.4328 -71.6644 -21.6953 -106.4140
6.0830 -22.2533 -108.8318 -7.4655 -72.1409 -7.4314 -72.1036 -21.6701 -106.8321
6.1205 -22.1510 -109.6684 -7.4646 -72.5996 -7.4321 -72.5491 -21.6256 -107.3768
6.1580 -22.0524 -109.7796 -7.4703 -73.0593 -7.4348 -72.9928 -21.5260 -107.3142
6.1954 -22.0563 -109.6961 -7.4727 -73.5017 -7.4368 -73.4400 -21.4866 -107.1067
6.2329 -22.0956 -110.3558 -7.4730 -73.9384 -7.4396 -73.8840 -21.4956 -107.2173
6.2704 -22.0391 -111.2441 -7.4701 -74.3920 -7.4399 -74.3202 -21.5133 -107.6006
6.3079 -21.9202 -111.6629 -7.4727 -74.8280 -7.4421 -74.7589 -21.4322 -108.0039
6.3454 -21.8728 -111.6028 -7.4721 -75.2588 -7.4420 -75.1936 -21.3556 -108.0033
6.3829 -21.9099 -111.8603 -7.4740 -75.6907 -7.4445 -75.6278 -21.3639 -107.8635
6.4204 -21.9048 -112.6688 -7.4778 -76.1383 -7.4470 -76.0774 -21.3792 -108.0241
6.4579 -21.7995 -113.2757 -7.4808 -76.5823 -7.4487 -76.5230 -21.3350 -108.5506
6.4953 -21.7320 -113.3634 -7.4819 -77.0228 -7.4524 -76.9474 -21.2737 -108.7542
6.5328 -21.7359 -113.3522 -7.4820 -77.4712 -7.4471 -77.3752 -21.2472 -108.4101
6.5703 -21.7579 -113.8883 -7.4876 -77.9425 -7.4489 -77.8523 -21.2576 -108.3442
6.6078 -21.7169 -114.6225 -7.4906 -78.3580 -7.4535 -78.2793 -21.3055 -108.6937
6.6453 -21.6364 -115.0031 -7.4899 -78.7921 -7.4539 -78.7117 -21.2721 -109.2194
6.6828 -21.5900 -115.1408 -7.4896 -79.2509 -7.4544 -79.1740 -21.2094 -109.2784
6.7203 -21.5949 -115.4825 -7.4923 -79.7128 -7.4586 -79.6276 -21.1779 -109.1264
6.7578 -21.5700 -115.9506 -7.4941 -80.1150 -7.4584 -80.0473 -21.2285 -109.1318
6.7952 -21.5113 -116.3798 -7.4969 -80.5543 -7.4605 -80.4784 -21.2521 -109.5210
6.8327 -21.4592 -116.4485 -7.4952 -81.0153 -7.4604 -80.9394 -21.2215 -109.8055
6.8702 -21.4619 -116.7614 -7.4983 -81.4308 -7.4650 -81.3701 -21.1740 -109.8046
6.9077 -21.4503 -117.3262 -7.4977 -81.8809 -7.4649 -81.8014 -21.1999 -109.8242
6.9452 -21.3834 -117.8454 -7.5005 -82.3428 -7.4651 -82.2612 -21.2260 -109.8502
6.9827 -21.3329 -117.8501 -7.5022 -82.7885 -7.4682 -82.7169 -21.2366 -110.1808
7.0202 -21.3417 -118.0032 -7.5060 -83.2070 -7.4705 -83.1325 -21.2326 -110.3788
7.0577 -21.3382 -118.4681 -7.5064 -83.6466 -7.4717 -83.5621 -21.2211 -110.3766
7.0951 -21.2669 -118.9637 -7.5064 -84.1075 -7.4718 -84.0271 -21.2374 -110.4057
7.1326 -21.2122 -118.9805 -7.5109 -84.5512 -7.4748 -84.4767 -21.2924 -110.5846
7.1701 -21.2250 -118.9316 -7.5152 -84.9866 -7.4777 -84.9034 -21.2970 -110.8183
7.2076 -21.2448 -119.4099 -7.5157 -85.4025 -7.4800 -85.3325 -21.2951 -110.7641
7.2451 -21.1868 -120.0688 -7.5097 -85.8709 -7.4757 -85.7955 -21.2994 -110.9710
7.2826 -21.1048 -120.3288 -7.5138 -86.3182 -7.4819 -86.2267 -21.3456 -111.1624
7.3201 -21.0803 -120.1759 -7.5199 -86.7350 -7.4830 -86.6383 -21.3789 -111.2487
7.3576 -21.1110 -120.2915 -7.5196 -87.2030 -7.4810 -87.1189 -21.3804 -111.3615
7.3950 -21.1299 -121.0026 -7.5232 -87.6288 -7.4878 -87.5576 -21.3827 -111.4938
7.4325 -21.0570 -121.5587 -7.5222 -88.0697 -7.4875 -87.9627 -21.4347 -111.7216
7.4700 -20.9720 -121.6497 -7.5229 -88.5169 -7.4856 -88.4360 -21.4663 -111.5969
7.5075 -20.9761 -121.4118 -7.5258 -88.9871 -7.4902 -88.8846 -21.5071 -112.0385
7.5450 -21.0149 -121.7649 -7.5284 -89.3919 -7.4946 -89.3005 -21.5478 -112.1739
7.5825 -20.9728 -122.4015 -7.5249 -89.8243 -7.4929 -89.7345 -21.5679 -112.2962
7.6200 -20.8933 -122.7381 -7.5282 -90.2800 -7.4948 -90.2027 -21.5857 -112.4609
7.6575 -20.8820 -122.5285 -7.5346 -90.7310 -7.4984 -90.6340 -21.6438 -112.6356
7.6949 -20.9326 -122.6618 -7.5365 -91.1648 -7.4995 -91.0584 -21.6949 -112.8157
7.7324 -20.9355 -123.4645 -7.5378 -91.5863 -7.5006 -91.5179 -21.7463 -112.8646
7.7699 -20.8474 -124.0267 -7.5359 -92.0432 -7.4998 -91.9513 -21.7595 -113.3075
7.8074 -20.7798 -124.0171 -7.5438 -92.4867 -7.5050 -92.3910 -21.8308 -113.5993
7.8449 -20.7761 -123.7919 -7.5441 -92.9195 -7.5022 -92.8264 -21.9013 -113.7344
7.8824 -20.8173 -124.2506 -7.5462 -93.3712 -7.5079 -93.2984 -21.9243 -114.0283
7.9199 -20.7763 -124.8465 -7.5502 -93.8241 -7.5095 -93.7324 -21.9640 -114.4750
7.9574 -20.7162 -125.0078 -7.5527 -94.2444 -7.5139 -94.1643 -21.9711 -114.4986
7.9948 -20.7009 -124.8205 -7.5538 -94.6839 -7.5159 -94.5970 -22.0481 -114.5299
8.0323 -20.7387 -125.0546 -7.5522 -95.1374 -7.5149 -95.0343 -22.1351 -114.6186
8.0698 -20.7402 -125.7269 -7.5555 -95.5926 -7.5194 -95.4894 -22.2163 -115.1652
8.1073 -20.6700 -126.1682 -7.5587 -96.0069 -7.5213 -95.8893 -22.2883 -115.6758
8.1448 -20.5951 -126.2981 -7.5583 -96.4557 -7.5192 -96.3608 -22.3002 -115.9266
8.1823 -20.5856 -126.2978 -7.5606 -96.8910 -7.5263 -96.7990 -22.3721 -116.0886
8.2198 -20.5840 -126.5281 -7.5626 -97.3168 -7.5293 -97.2076 -22.4666 -116.6215
8.2573 -20.5327 -126.8539 -7.5593 -97.7420 -7.5256 -97.6387 -22.5172 -116.8766
8.2947 -20.5062 -126.9976 -7.5626 -98.2231 -7.5303 -98.1001 -22.5310 -117.2562
8.3322 -20.4967 -127.0534 -7.5660 -98.6390 -7.5323 -98.5055 -22.6117 -117.2497
8.3697 -20.4730 -127.4829 -7.5646 -99.0958 -7.5308 -98.9652 -22.7177 -117.5595
8.4072 -20.4104 -127.8348 -7.5649 -99.5224 -7.5325 -99.3829 -22.8254 -118.0793
8.4447 -20.3601 -127.9199 -7.5692 -99.9886 -7.5345 -99.8467 -22.8515 -118.8476
8.4822 -20.3586 -127.7987 -7.5724 -100.4056 -7.5365 -100.2622 -22.8675 -119.0981
8.5197 -20.3944 -128.2317 -7.5727 -100.8386 -7.5367 -100.6905 -22.9330 -119.0638
8.5572 -20.3411 -128.9365 -7.5693 -101.2943 -7.5351 -101.1530 -23.0371 -119.5242
8.5946 -20.2673 -129.2191 -7.5772 -101.7341 -7.5393 -101.5945 -23.1615 -120.1380
8.6321 -20.2230 -129.1452 -7.5752 -102.1739 -7.5382 -102.0369 -23.1789 -120.6806
8.6696 -20.2636 -129.2779 -7.5759 -102.6091 -7.5411 -102.4662 -23.2359 -120.9788
8.7071 -20.2572 -130.0477 -7.5754 -103.0472 -7.5423 -102.9173 -23.3422 -121.2081
8.7446 -20.1685 -130.5573 -7.5812 -103.4978 -7.5457 -103.3540 -23.4999 -122.1285
8.7821 -20.0863 -130.5049 -7.5787 -103.9377 -7.5453 -103.7965 -23.5526 -122.8754
8.8196 -20.0956 -130.2589 -7.5792 -104.3737 -7.5463 -104.2311 -23.5766 -123.4496
8.8571 -20.1656 -130.7637 -7.5815 -104.8445 -7.5504 -104.6831 -23.6363 -123.5935
8.8945 -20.1103 -131.4267 -7.5800 -105.2398 -7.5479 -105.0787 -23.7724 -124.1204
8.9320 -20.0071 -131.6612 -7.5794 -105.7047 -7.5459 -105.5447 -23.9006 -124.9593
8.9695 -19.9960 -131.4023 -7.5841 -106.1776 -7.5488 -106.0044 -23.9209 -125.9634
9.0070 -20.0665 -131.4173 -7.5910 -106.6068 -7.5548 -106.4200 -23.9542 -126.5310
9.0445 -20.0805 -132.3068 -7.5875 -107.0244 -7.5501 -106.8621 -24.0366 -126.7192
9.0820 -19.9908 -133.0173 -7.5861 -107.4823 -7.5528 -107.3158 -24.1652 -127.5530
9.1195 -19.9067 -132.9550 -7.5868 -107.9234 -7.5559 -107.7501 -24.2583 -128.6837
9.1570 -19.9114 -132.6895 -7.5893 -108.3459 -7.5562 -108.1743 -24.2921 -129.5354
9.1944 -19.9833 -133.1539 -7.5909 -108.7980 -7.5564 -108.6391 -24.3462 -129.9583
9.2319 -19.9549 -133.9166 -7.5948 -109.2661 -7.5617 -109.0798 -24.4458 -130.8656
