! Device:      ADRF5700					
! Description: 2 dB LSB, 5-Bit, Silicon Digital Attenuator, 100 MHz to 22 GHz			
! Frequency:   10MHz -  30.00 GHz						
! Ports:       										
!        RF1 = Port 1
!        RF2 = Port 2
!						
! VDD  =  +3.30 Volts
! VSS  =  -3.30 Volts
!				
! State:        8.00 dB attenuation 	
! Data:  Data was collected using an calibrated 4 port network analyzer 						
!             The reference plane is the edge of the device.
! Notes: Analog Devices supplies this data as a sample of measured data						
!             for this product.  Your particular data for this product may vary.						
!             Data was taken at 25 degrees C.						
!             Analog Devices reserves the right to change this data at anytime.	
!
# GHz S  dB   R 50
0.0100 -30.1565 -15.8452 -9.1572 0.0066 -9.1575 0.1516 -29.9857 -5.4590
0.0475 -30.5964 -3.3016 -9.1951 -0.5768 -9.1663 -0.5546 -30.2361 8.7063
0.0850 -30.2047 -1.9899 -9.1865 -1.0791 -9.1642 -1.1074 -29.7986 9.3231
0.1225 -30.1546 -1.7588 -9.1894 -1.5872 -9.1629 -1.5706 -29.6999 9.7128
0.1600 -30.1227 -2.9961 -9.1967 -2.0640 -9.1666 -2.0801 -29.7143 8.9904
0.1974 -29.8612 -4.5554 -9.2012 -2.5407 -9.1706 -2.5598 -29.6022 7.3877
0.2349 -29.6034 -5.0621 -9.2042 -2.9690 -9.1745 -3.0259 -29.4239 6.3273
0.2724 -29.5572 -5.2054 -9.2041 -3.4907 -9.1800 -3.4982 -29.3216 5.5404
0.3099 -29.5752 -6.1581 -9.2055 -4.0075 -9.1849 -3.9307 -29.2840 4.8046
0.3474 -29.4027 -8.4777 -9.2103 -4.4232 -9.1817 -4.3835 -29.1439 2.8529
0.3849 -29.0964 -9.5619 -9.2104 -4.8201 -9.1859 -4.8618 -28.9353 1.8807
0.4224 -28.8825 -9.2078 -9.2086 -5.3090 -9.1853 -5.3028 -28.7730 2.2323
0.4599 -28.8619 -8.7843 -9.2152 -5.7841 -9.1861 -5.7694 -28.7910 2.8739
0.4973 -28.9394 -9.9631 -9.2193 -6.2510 -9.1894 -6.2264 -28.9406 2.2210
0.5348 -28.8203 -11.7459 -9.2208 -6.7560 -9.1908 -6.6858 -28.9955 0.1050
0.5723 -28.6095 -12.6266 -9.2235 -7.1530 -9.1960 -7.1510 -28.9141 -1.3372
0.6098 -28.5132 -12.8361 -9.2252 -7.5778 -9.1989 -7.5963 -28.7776 -2.1755
0.6473 -28.5194 -13.4912 -9.2268 -8.1018 -9.1969 -8.0411 -28.7411 -2.5019
0.6848 -28.4451 -14.8206 -9.2282 -8.5267 -9.1989 -8.5029 -28.7090 -3.2300
0.7223 -28.2853 -15.9449 -9.2299 -8.9961 -9.2030 -8.9525 -28.6790 -4.0399
0.7598 -28.1707 -16.3316 -9.2310 -9.4737 -9.2047 -9.3998 -28.6897 -4.7202
0.7972 -28.1164 -16.7321 -9.2355 -9.8707 -9.2067 -9.8635 -28.7211 -5.2423
0.8347 -28.0910 -17.4628 -9.2377 -10.3193 -9.2105 -10.3189 -28.8095 -6.0668
0.8722 -27.9993 -18.5235 -9.2386 -10.7933 -9.2114 -10.7523 -28.7943 -7.9119
0.9097 -27.9273 -19.3653 -9.2422 -11.2446 -9.2137 -11.2221 -28.7639 -9.3331
0.9472 -27.8874 -20.2029 -9.2429 -11.6265 -9.2161 -11.6710 -28.6549 -10.2643
0.9847 -27.7980 -21.2119 -9.2504 -12.1078 -9.2194 -12.1245 -28.6007 -10.9541
1.0222 -27.6622 -21.8063 -9.2485 -12.6080 -9.2198 -12.5706 -28.5819 -11.3361
1.0596 -27.5510 -22.1968 -9.2479 -13.0686 -9.2224 -13.0240 -28.5813 -12.0548
1.0971 -27.5320 -22.6504 -9.2523 -13.4906 -9.2262 -13.4712 -28.6241 -12.7878
1.1346 -27.5060 -23.7041 -9.2582 -13.9254 -9.2288 -13.9117 -28.6188 -14.0150
1.1721 -27.3935 -24.9310 -9.2593 -14.3892 -9.2309 -14.3773 -28.6145 -15.2357
1.2096 -27.2394 -25.4834 -9.2621 -14.8397 -9.2338 -14.8100 -28.5446 -16.1204
1.2471 -27.1631 -25.6177 -9.2625 -15.3084 -9.2354 -15.2572 -28.4819 -16.5388
1.2846 -27.1742 -26.2733 -9.2675 -15.8002 -9.2377 -15.7106 -28.4919 -17.3156
1.3221 -27.1056 -27.4418 -9.2715 -16.2107 -9.2413 -16.1584 -28.5145 -18.1751
1.3596 -26.9320 -28.2495 -9.2728 -16.6088 -9.2423 -16.5961 -28.5164 -18.8255
1.3970 -26.7928 -28.1767 -9.2716 -17.1310 -9.2439 -17.0514 -28.5598 -19.4835
1.4345 -26.7754 -28.2346 -9.2747 -17.5543 -9.2464 -17.5035 -28.6322 -20.3181
1.4720 -26.8191 -29.0972 -9.2796 -17.9805 -9.2487 -17.9416 -28.6673 -21.8310
1.5095 -26.7456 -30.4747 -9.2835 -18.4358 -9.2501 -18.3971 -28.6467 -23.4909
1.5470 -26.5976 -31.1204 -9.2835 -18.8605 -9.2550 -18.8530 -28.5617 -24.6783
1.5845 -26.5098 -31.2625 -9.2852 -19.3020 -9.2553 -19.2928 -28.5260 -25.2698
1.6220 -26.4943 -31.5198 -9.2877 -19.7578 -9.2577 -19.7387 -28.5437 -25.9394
1.6595 -26.4687 -32.5025 -9.2889 -20.2079 -9.2603 -20.1867 -28.5398 -27.0926
1.6969 -26.3559 -33.2541 -9.2913 -20.6639 -9.2637 -20.6316 -28.5595 -28.3427
1.7344 -26.2417 -33.4936 -9.2916 -21.1362 -9.2668 -21.0711 -28.5422 -29.2420
1.7719 -26.2220 -33.5205 -9.2948 -21.5469 -9.2672 -21.5058 -28.5383 -30.2589
1.8094 -26.2254 -34.1814 -9.3000 -21.9505 -9.2700 -21.9398 -28.4968 -31.4500
1.8469 -26.1925 -35.0430 -9.2988 -22.4235 -9.2708 -22.3820 -28.4199 -32.8091
1.8844 -26.1058 -35.6401 -9.3009 -22.8542 -9.2723 -22.8248 -28.3533 -33.5136
1.9219 -26.0434 -36.0028 -9.3023 -23.3341 -9.2738 -23.2698 -28.3292 -34.1523
1.9594 -26.0051 -36.3115 -9.3036 -23.8014 -9.2760 -23.7135 -28.3031 -34.9452
1.9968 -25.9672 -36.7972 -9.3053 -24.2096 -9.2781 -24.1710 -28.2891 -35.9183
2.0343 -25.9354 -37.2672 -9.3118 -24.6536 -9.2807 -24.6154 -28.2963 -36.7077
2.0718 -25.9144 -37.7755 -9.3158 -25.0938 -9.2816 -25.0547 -28.2992 -37.7232
2.1093 -25.8824 -38.3439 -9.3187 -25.5151 -9.2837 -25.4899 -28.3034 -38.7805
2.1468 -25.8496 -39.0124 -9.3228 -25.9863 -9.2866 -25.9360 -28.2480 -39.9745
2.1843 -25.8085 -39.4176 -9.3211 -26.3837 -9.2873 -26.3633 -28.1665 -41.0759
2.2218 -25.8031 -40.0229 -9.3235 -26.8336 -9.2904 -26.7951 -28.1254 -41.6739
2.2593 -25.7814 -40.6190 -9.3236 -27.3428 -9.2895 -27.2304 -28.1600 -42.4500
2.2967 -25.7245 -41.1704 -9.3282 -27.7785 -9.2908 -27.6726 -28.1901 -43.3980
2.3342 -25.6599 -41.4288 -9.3319 -28.2056 -9.2920 -28.1021 -28.1341 -44.4427
2.3717 -25.6829 -41.5446 -9.3327 -28.5964 -9.2934 -28.5410 -28.1319 -45.0931
2.4092 -25.7382 -41.9846 -9.3317 -29.0347 -9.2938 -28.9954 -28.1936 -45.7763
2.4467 -25.7345 -43.0343 -9.3332 -29.5771 -9.2970 -29.4189 -28.2537 -46.8856
2.4842 -25.6609 -43.6301 -9.3369 -29.9884 -9.2977 -29.8561 -28.2166 -48.3922
2.5217 -25.6046 -43.7897 -9.3415 -30.3824 -9.2995 -30.2956 -28.1391 -49.6210
2.5592 -25.6701 -44.0370 -9.3452 -30.8271 -9.3024 -30.7181 -28.0964 -50.1704
2.5966 -25.7251 -44.9765 -9.3431 -31.2854 -9.3033 -31.1454 -28.1032 -50.9602
2.6341 -25.6423 -45.9587 -9.3441 -31.7168 -9.3026 -31.5963 -28.1106 -52.1790
2.6716 -25.5276 -46.1333 -9.3451 -32.1214 -9.3058 -32.0218 -28.0612 -53.2134
2.7091 -25.5531 -45.9429 -9.3407 -32.5726 -9.3054 -32.4474 -28.0340 -54.0747
2.7466 -25.6597 -46.5260 -9.3376 -33.0459 -9.3048 -32.8859 -28.0559 -54.7143
2.7841 -25.6902 -47.7919 -9.3441 -33.4802 -9.3045 -33.3367 -28.1040 -56.0781
2.8216 -25.5903 -48.5895 -9.3500 -33.9088 -9.3063 -33.7624 -28.0766 -57.4604
2.8591 -25.5319 -48.5725 -9.3477 -34.3405 -9.3060 -34.2190 -27.9867 -58.8369
2.8965 -25.6523 -48.5595 -9.3510 -34.7601 -9.3089 -34.6684 -27.9510 -59.4646
2.9340 -25.7815 -49.6290 -9.3541 -35.1935 -9.3109 -35.0949 -27.9538 -60.2501
2.9715 -25.7205 -51.0080 -9.3566 -35.6397 -9.3087 -35.5494 -27.9732 -61.3765
3.0090 -25.6071 -51.3202 -9.3567 -36.0906 -9.3143 -35.9878 -27.9243 -62.4630
3.0465 -25.6083 -50.9131 -9.3579 -36.5589 -9.3144 -36.4175 -27.8934 -63.4553
3.0840 -25.7782 -51.3880 -9.3567 -36.9601 -9.3144 -36.8611 -27.8950 -64.2357
3.1215 -25.8347 -52.8703 -9.3577 -37.3731 -9.3156 -37.3111 -27.8871 -65.4062
3.1590 -25.7438 -53.8680 -9.3593 -37.8303 -9.3167 -37.7431 -27.8590 -66.6151
3.1964 -25.6750 -53.8173 -9.3587 -38.2520 -9.3158 -38.1860 -27.8162 -67.6179
3.2339 -25.8007 -53.9572 -9.3564 -38.7072 -9.3182 -38.6325 -27.7733 -68.6120
3.2714 -25.9306 -55.3004 -9.3572 -39.1455 -9.3210 -39.0643 -27.7016 -69.6584
3.3089 -25.8574 -57.0206 -9.3587 -39.5809 -9.3186 -39.5148 -27.6585 -70.7518
3.3464 -25.7010 -57.2464 -9.3610 -40.0242 -9.3197 -39.9670 -27.6019 -71.4218
3.3839 -25.7223 -56.9080 -9.3616 -40.4828 -9.3219 -40.4110 -27.6298 -72.1056
3.4214 -25.8916 -57.3032 -9.3620 -40.9149 -9.3232 -40.8313 -27.6507 -73.4017
3.4589 -25.9671 -59.0304 -9.3606 -41.3199 -9.3213 -41.2725 -27.5941 -74.9802
3.4963 -25.8350 -60.2915 -9.3645 -41.7709 -9.3248 -41.7124 -27.4738 -76.3859
3.5338 -25.7700 -60.4305 -9.3631 -42.2561 -9.3259 -42.1531 -27.3809 -77.2239
3.5713 -25.8898 -60.6940 -9.3599 -42.6920 -9.3235 -42.6026 -27.3417 -78.1744
3.6088 -26.0265 -62.3502 -9.3619 -43.0956 -9.3265 -43.0411 -27.2852 -79.5827
3.6463 -25.9461 -64.3034 -9.3621 -43.5459 -9.3273 -43.4843 -27.1671 -80.9665
3.6838 -25.7863 -64.9747 -9.3628 -44.0140 -9.3281 -43.9269 -27.0932 -81.9563
3.7213 -25.8070 -64.8098 -9.3653 -44.4514 -9.3289 -44.3663 -27.0743 -82.7363
3.7588 -25.9661 -65.6463 -9.3653 -44.8724 -9.3307 -44.8027 -27.0609 -84.0932
3.7962 -26.0172 -67.6346 -9.3660 -45.2989 -9.3301 -45.2452 -26.9656 -85.8537
3.8337 -25.8783 -69.1086 -9.3653 -45.7530 -9.3283 -45.6915 -26.8238 -87.3061
3.8712 -25.8024 -69.1815 -9.3672 -46.2306 -9.3315 -46.1382 -26.7219 -87.8255
3.9087 -25.9137 -69.4266 -9.3684 -46.6626 -9.3314 -46.5742 -26.6967 -88.7426
3.9462 -26.0566 -70.9725 -9.3698 -47.1033 -9.3314 -47.0269 -26.6269 -89.9883
3.9837 -26.0028 -72.9276 -9.3696 -47.5441 -9.3354 -47.4750 -26.4924 -91.3619
4.0212 -25.8687 -73.7301 -9.3687 -47.9977 -9.3350 -47.9086 -26.3929 -91.9140
4.0587 -25.8652 -73.8107 -9.3708 -48.4591 -9.3355 -48.3651 -26.3629 -92.5143
4.0961 -25.9858 -74.5268 -9.3695 -48.8814 -9.3363 -48.7877 -26.3402 -93.7216
4.1336 -26.0149 -76.2658 -9.3721 -49.3250 -9.3354 -49.2194 -26.2336 -95.2593
4.1711 -25.9145 -77.7570 -9.3762 -49.7794 -9.3384 -49.6859 -26.0713 -96.5014
4.2086 -25.8251 -78.2253 -9.3738 -50.2090 -9.3402 -50.1229 -25.9416 -97.1219
4.2461 -25.8655 -78.7615 -9.3758 -50.6737 -9.3385 -50.5670 -25.8723 -97.5158
4.2836 -25.9197 -80.0225 -9.3740 -51.1202 -9.3387 -51.0214 -25.8235 -98.7205
4.3211 -25.8717 -81.7569 -9.3718 -51.5405 -9.3384 -51.4625 -25.6746 -99.9487
4.3586 -25.7590 -82.7147 -9.3783 -51.9622 -9.3412 -51.8976 -25.4927 -100.6839
4.3960 -25.7083 -83.2634 -9.3778 -52.4218 -9.3419 -52.3544 -25.4312 -101.1123
4.4335 -25.7114 -84.0698 -9.3791 -52.8902 -9.3435 -52.8240 -25.3560 -101.8709
4.4710 -25.6758 -85.3554 -9.3810 -53.3115 -9.3445 -53.2548 -25.2435 -103.0339
4.5085 -25.6053 -86.4231 -9.3800 -53.7687 -9.3441 -53.6878 -25.0775 -103.9180
4.5460 -25.5595 -87.2160 -9.3817 -54.2171 -9.3469 -54.1420 -24.9700 -104.3659
4.5835 -25.5263 -88.0181 -9.3816 -54.6601 -9.3474 -54.5897 -24.8603 -104.8370
4.6210 -25.4866 -88.9503 -9.3819 -55.0862 -9.3449 -55.0183 -24.7992 -105.5843
4.6585 -25.4561 -89.8742 -9.3851 -55.5616 -9.3475 -55.4867 -24.7008 -106.4503
4.6959 -25.4129 -90.7964 -9.3852 -55.9992 -9.3497 -55.9344 -24.5447 -107.1985
4.7334 -25.3817 -91.8302 -9.3856 -56.4224 -9.3494 -56.3726 -24.4408 -107.7339
4.7709 -25.2982 -92.8701 -9.3868 -56.8871 -9.3499 -56.8167 -24.3526 -108.2230
4.8084 -25.2244 -93.6506 -9.3892 -57.3324 -9.3538 -57.2859 -24.2353 -108.9959
4.8459 -25.1845 -94.3925 -9.3874 -57.7478 -9.3537 -57.7114 -24.0924 -109.4810
4.8834 -25.1804 -95.2952 -9.3910 -58.2180 -9.3562 -58.1668 -23.9907 -109.6412
4.9209 -25.1003 -96.3924 -9.3912 -58.6502 -9.3555 -58.6070 -23.9049 -110.0810
4.9584 -24.9923 -97.1733 -9.3923 -59.1372 -9.3573 -59.0746 -23.8472 -110.4998
4.9958 -24.9311 -97.5343 -9.3935 -59.5407 -9.3578 -59.4827 -23.7245 -111.1314
5.0333 -24.9509 -98.1682 -9.3913 -59.9810 -9.3570 -59.9282 -23.6342 -111.5232
5.0708 -24.9100 -99.5415 -9.3954 -60.4289 -9.3597 -60.4001 -23.5347 -111.9062
5.1083 -24.7792 -100.6571 -9.3954 -60.8930 -9.3622 -60.8457 -23.4481 -112.3632
5.1458 -24.6314 -101.0074 -9.3945 -61.3234 -9.3613 -61.2738 -23.3350 -112.7585
5.1833 -24.6237 -101.2173 -9.3965 -61.7795 -9.3618 -61.7284 -23.2565 -113.0835
5.2208 -24.6377 -102.1368 -9.3967 -62.2340 -9.3617 -62.1773 -23.1490 -113.2366
5.2583 -24.5576 -103.4646 -9.3996 -62.6792 -9.3620 -62.6286 -23.0771 -113.4714
5.2957 -24.3767 -104.0662 -9.4071 -63.1129 -9.3674 -63.0672 -23.0004 -113.8969
5.3332 -24.3026 -104.0366 -9.4023 -63.5475 -9.3661 -63.5149 -22.9454 -114.1902
5.3707 -24.3298 -104.5045 -9.4041 -64.0033 -9.3646 -63.9772 -22.8328 -114.5834
5.4082 -24.3029 -105.7917 -9.4051 -64.4385 -9.3696 -64.4188 -22.7417 -115.0136
5.4457 -24.1520 -106.8916 -9.4041 -64.8979 -9.3682 -64.8769 -22.6245 -115.2704
5.4832 -23.9985 -107.0318 -9.4067 -65.3350 -9.3730 -65.3136 -22.5352 -115.3028
5.5207 -23.9885 -106.9431 -9.4048 -65.7616 -9.3736 -65.7478 -22.4783 -115.3641
5.5582 -24.0201 -107.8228 -9.4060 -66.2241 -9.3739 -66.2037 -22.4323 -115.6272
5.5956 -23.9298 -109.1308 -9.4090 -66.6908 -9.3746 -66.6704 -22.3471 -115.9949
5.6331 -23.7607 -109.7283 -9.4137 -67.1287 -9.3771 -67.1099 -22.2738 -116.2354
5.6706 -23.6677 -109.4111 -9.4165 -67.5667 -9.3809 -67.5418 -22.2239 -116.2565
5.7081 -23.7228 -109.6349 -9.4153 -68.0072 -9.3811 -67.9789 -22.1806 -116.5517
5.7456 -23.7218 -110.7789 -9.4175 -68.4717 -9.3823 -68.4431 -22.1139 -116.8385
5.7831 -23.5886 -111.8583 -9.4181 -68.9044 -9.3838 -68.8747 -22.0176 -117.0932
5.8206 -23.4259 -111.9579 -9.4230 -69.3487 -9.3855 -69.3194 -21.9387 -117.1138
5.8581 -23.4235 -111.8355 -9.4210 -69.8270 -9.3828 -69.7889 -21.9217 -117.0337
5.8955 -23.4432 -112.6177 -9.4234 -70.2664 -9.3885 -70.2284 -21.8933 -117.3425
5.9330 -23.3582 -113.6717 -9.4229 -70.7077 -9.3904 -70.6711 -21.8390 -117.8367
5.9705 -23.1984 -114.1845 -9.4250 -71.1466 -9.3920 -71.1056 -21.7439 -118.0344
6.0080 -23.1331 -113.9427 -9.4250 -71.6215 -9.3928 -71.5716 -21.6958 -117.9154
6.0455 -23.1813 -114.1795 -9.4315 -72.0504 -9.3971 -72.0056 -21.6849 -117.8892
6.0830 -23.1565 -115.1661 -9.4311 -72.4852 -9.3966 -72.4458 -21.6655 -118.2700
6.1205 -23.0276 -115.9165 -9.4302 -72.9450 -9.3965 -72.8943 -21.6075 -118.7612
6.1580 -22.9187 -115.9306 -9.4367 -73.4050 -9.3988 -73.3407 -21.5265 -118.6557
6.1954 -22.9267 -115.8248 -9.4389 -73.8540 -9.4007 -73.7925 -21.4981 -118.4491
6.2329 -22.9586 -116.5117 -9.4389 -74.2942 -9.4033 -74.2388 -21.5177 -118.5890
6.2704 -22.8813 -117.4242 -9.4364 -74.7501 -9.4036 -74.6805 -21.5209 -119.0415
6.3079 -22.7438 -117.7599 -9.4390 -75.1924 -9.4057 -75.1234 -21.4468 -119.3659
6.3454 -22.6943 -117.6113 -9.4380 -75.6212 -9.4062 -75.5599 -21.3793 -119.2795
6.3829 -22.7335 -117.8809 -9.4389 -76.0603 -9.4078 -76.0021 -21.3971 -119.1855
6.4204 -22.7123 -118.7328 -9.4433 -76.5043 -9.4107 -76.4472 -21.4181 -119.4669
6.4579 -22.5926 -119.2918 -9.4458 -76.9553 -9.4124 -76.8926 -21.3701 -119.9466
6.4953 -22.5150 -119.3182 -9.4470 -77.3995 -9.4153 -77.3222 -21.3106 -120.0728
6.5328 -22.5177 -119.2907 -9.4479 -77.8509 -9.4114 -77.7589 -21.2973 -119.7681
6.5703 -22.5383 -119.8568 -9.4521 -78.3217 -9.4134 -78.2409 -21.3279 -119.7651
6.6078 -22.4795 -120.6017 -9.4565 -78.7453 -9.4176 -78.6641 -21.3687 -120.2028
6.6453 -22.3820 -120.9270 -9.4551 -79.1801 -9.4176 -79.0961 -21.3301 -120.6911
6.6828 -22.3368 -121.0116 -9.4548 -79.6430 -9.4189 -79.5634 -21.2711 -120.7472
6.7203 -22.3408 -121.3511 -9.4586 -80.1059 -9.4218 -80.0237 -21.2643 -120.5703
6.7578 -22.3012 -121.8750 -9.4597 -80.5146 -9.4227 -80.4490 -21.3133 -120.6765
6.7952 -22.2309 -122.2282 -9.4631 -80.9555 -9.4254 -80.8859 -21.3361 -121.1006
6.8327 -22.1767 -122.2997 -9.4610 -81.4178 -9.4249 -81.3433 -21.3029 -121.4503
6.8702 -22.1757 -122.5854 -9.4646 -81.8395 -9.4286 -81.7751 -21.2685 -121.3995
6.9077 -22.1538 -123.1906 -9.4638 -82.2892 -9.4282 -82.2124 -21.2993 -121.4512
6.9452 -22.0794 -123.6450 -9.4668 -82.7573 -9.4291 -82.6713 -21.3353 -121.6040
6.9827 -22.0274 -123.6586 -9.4678 -83.2066 -9.4311 -83.1351 -21.3452 -121.9650
7.0202 -22.0283 -123.8039 -9.4719 -83.6305 -9.4332 -83.5576 -21.3422 -122.1884
7.0577 -22.0175 -124.2824 -9.4716 -84.0730 -9.4344 -83.9841 -21.3405 -122.1923
7.0951 -21.9384 -124.7412 -9.4725 -84.5338 -9.4349 -84.4561 -21.3681 -122.3045
7.1326 -21.8820 -124.7304 -9.4762 -84.9864 -9.4387 -84.9087 -21.4185 -122.5955
7.1701 -21.8974 -124.6617 -9.4813 -85.4250 -9.4415 -85.3415 -21.4288 -122.8601
7.2076 -21.9104 -125.1708 -9.4815 -85.8497 -9.4439 -85.7689 -21.4386 -122.9206
7.2451 -21.8492 -125.8824 -9.4759 -86.3116 -9.4410 -86.2348 -21.4493 -123.1292
7.2826 -21.7549 -126.0679 -9.4805 -86.7660 -9.4461 -86.6736 -21.4944 -123.4048
7.3201 -21.7289 -125.8674 -9.4861 -87.1855 -9.4473 -87.0884 -21.5253 -123.5942
7.3576 -21.7675 -126.0270 -9.4860 -87.6588 -9.4451 -87.5671 -21.5385 -123.7900
7.3950 -21.7779 -126.8030 -9.4895 -88.0786 -9.4513 -88.0087 -21.5505 -123.9834
7.4325 -21.6868 -127.3384 -9.4887 -88.5274 -9.4503 -88.4272 -21.5975 -124.2241
7.4700 -21.5994 -127.3552 -9.4901 -88.9765 -9.4506 -88.8938 -21.6442 -124.3038
7.5075 -21.6112 -127.1338 -9.4920 -89.4449 -9.4538 -89.3490 -21.6824 -124.7468
7.5450 -21.6508 -127.5364 -9.4949 -89.8612 -9.4588 -89.7694 -21.7245 -125.0289
7.5825 -21.5999 -128.2025 -9.4917 -90.2965 -9.4576 -90.2105 -21.7509 -125.2349
7.6200 -21.5116 -128.4541 -9.4963 -90.7552 -9.4597 -90.6782 -21.7767 -125.4843
7.6575 -21.5040 -128.2479 -9.5014 -91.2025 -9.4635 -91.1143 -21.8313 -125.7598
7.6949 -21.5593 -128.4330 -9.5037 -91.6516 -9.4637 -91.5499 -21.8868 -126.0509
7.7324 -21.5549 -129.3163 -9.5050 -92.0808 -9.4641 -91.9958 -21.9433 -126.3285
7.7699 -21.4583 -129.8490 -9.5042 -92.5364 -9.4633 -92.4371 -21.9644 -126.7804
7.8074 -21.3861 -129.7620 -9.5108 -92.9796 -9.4692 -92.8863 -22.0314 -127.1720
7.8449 -21.3945 -129.5515 -9.5108 -93.4183 -9.4667 -93.3274 -22.0948 -127.5351
7.8824 -21.4317 -130.0443 -9.5138 -93.8749 -9.4735 -93.8007 -22.1303 -127.9439
7.9199 -21.3867 -130.6285 -9.5178 -94.3278 -9.4737 -94.2350 -22.1593 -128.4324
7.9574 -21.3230 -130.7698 -9.5211 -94.7584 -9.4790 -94.6691 -22.1799 -128.5663
7.9948 -21.3142 -130.6123 -9.5214 -95.1978 -9.4814 -95.1021 -22.2578 -128.7632
8.0323 -21.3532 -130.8683 -9.5195 -95.6514 -9.4810 -95.5461 -22.3552 -129.0618
8.0698 -21.3526 -131.5790 -9.5226 -96.1179 -9.4855 -96.0121 -22.4292 -129.7578
8.1073 -21.2736 -132.0205 -9.5243 -96.5308 -9.4875 -96.4112 -22.4909 -130.4322
8.1448 -21.1978 -132.1174 -9.5254 -96.9852 -9.4851 -96.8807 -22.5076 -130.8017
8.1823 -21.1929 -132.0846 -9.5293 -97.4232 -9.4920 -97.3234 -22.5797 -131.1527
8.2198 -21.1939 -132.3720 -9.5302 -97.8538 -9.4943 -97.7349 -22.6628 -131.8334
8.2573 -21.1417 -132.6532 -9.5263 -98.2848 -9.4910 -98.1714 -22.7079 -132.3339
8.2947 -21.1097 -132.7927 -9.5309 -98.7724 -9.4963 -98.6402 -22.7280 -132.7587
8.3322 -21.1071 -132.8774 -9.5337 -99.1824 -9.4984 -99.0483 -22.8162 -132.9899
8.3697 -21.0828 -133.3092 -9.5329 -99.6464 -9.4967 -99.5022 -22.9256 -133.5158
8.4072 -21.0212 -133.6431 -9.5327 -100.0770 -9.4993 -99.9351 -23.0118 -134.3199
8.4447 -20.9710 -133.6873 -9.5387 -100.5406 -9.5007 -100.3952 -23.0259 -135.2026
8.4822 -20.9802 -133.6092 -9.5400 -100.9700 -9.5035 -100.8119 -23.0425 -135.5686
8.5197 -21.0100 -134.0775 -9.5405 -101.4023 -9.5033 -101.2491 -23.1189 -135.7906
8.5572 -20.9536 -134.7834 -9.5378 -101.8630 -9.5020 -101.7186 -23.2175 -136.4554
8.5946 -20.8745 -135.0150 -9.5456 -102.3076 -9.5063 -102.1667 -23.3172 -137.3812
8.6321 -20.8420 -134.8866 -9.5443 -102.7509 -9.5058 -102.6083 -23.3235 -138.0468
8.6696 -20.8853 -135.1238 -9.5436 -103.1936 -9.5075 -103.0431 -23.3827 -138.4930
8.7071 -20.8727 -135.8847 -9.5448 -103.6356 -9.5099 -103.4944 -23.4914 -139.0563
8.7446 -20.7801 -136.3837 -9.5501 -104.0935 -9.5130 -103.9370 -23.6095 -140.2987
8.7821 -20.6989 -136.2427 -9.5467 -104.5312 -9.5124 -104.3804 -23.6374 -141.2640
8.8196 -20.7240 -136.0200 -9.5477 -104.9750 -9.5132 -104.8258 -23.6448 -141.9287
8.8571 -20.7917 -136.5687 -9.5503 -105.4452 -9.5175 -105.2698 -23.7165 -142.2801
8.8945 -20.7376 -137.2742 -9.5502 -105.8377 -9.5153 -105.6795 -23.8406 -143.1719
8.9320 -20.6319 -137.4559 -9.5488 -106.3133 -9.5142 -106.1442 -23.9229 -144.4021
8.9695 -20.6243 -137.1322 -9.5537 -106.7891 -9.5160 -106.6069 -23.9099 -145.4757
9.0070 -20.7088 -137.2076 -9.5600 -107.2218 -9.5219 -107.0306 -23.9267 -146.1435
9.0445 -20.7162 -138.1325 -9.5571 -107.6416 -9.5187 -107.4722 -24.0137 -146.6363
9.0820 -20.6210 -138.8158 -9.5551 -108.1078 -9.5200 -107.9366 -24.1095 -147.7902
9.1195 -20.5369 -138.7007 -9.5569 -108.5535 -9.5235 -108.3753 -24.1459 -149.1697
9.1570 -20.5584 -138.4095 -9.5593 -108.9813 -9.5237 -108.8009 -24.1423 -150.0995
9.1944 -20.6331 -138.9524 -9.5601 -109.4410 -9.5232 -109.2681 -24.1918 -150.7464
9.2319 -20.6017 -139.7479 -9.5645 -109.9097 -9.5301 -109.7179 -24.2624 -151.8949
