! Device:      ADRF5700					
! Description: 2 dB LSB, 5-Bit, Silicon Digital Attenuator, 100 MHz to 22 GHz			
! Frequency:   10MHz -  30.00 GHz						
! Ports:       										
!        RF1 = Port 1
!        RF2 = Port 2
!						
! VDD  =  +3.30 Volts
! VSS  =  -3.30 Volts
!				
! State:        10.00 dB attenuation 	
! Data:  Data was collected using an calibrated 4 port network analyzer 						
!             The reference plane is the edge of the device.
! Notes: Analog Devices supplies this data as a sample of measured data						
!             for this product.  Your particular data for this product may vary.						
!             Data was taken at 25 degrees C.						
!             Analog Devices reserves the right to change this data at anytime.	
!
# GHz S  dB   R 50
0.0100 -31.7188 -18.2455 -11.1446 -0.0264 -11.1539 0.1502 -31.0550 -5.3232
0.0475 -32.1472 -3.6506 -11.1960 -0.5657 -11.1662 -0.5422 -31.2508 10.4388
0.0850 -31.6939 -1.7059 -11.1860 -1.0699 -11.1630 -1.0913 -30.7688 11.2763
0.1225 -31.6179 -1.2058 -11.1892 -1.5763 -11.1623 -1.5512 -30.6422 11.8893
0.1600 -31.5575 -2.5395 -11.1973 -2.0424 -11.1651 -2.0642 -30.6346 11.0811
0.1974 -31.2623 -4.2409 -11.2023 -2.5174 -11.1695 -2.5260 -30.5117 9.4116
0.2349 -30.9473 -4.5841 -11.2037 -2.9371 -11.1729 -3.0037 -30.3042 8.2812
0.2724 -30.8820 -4.4835 -11.2037 -3.4577 -11.1816 -3.4587 -30.1974 7.5816
0.3099 -30.9055 -5.5490 -11.2051 -3.9685 -11.1849 -3.8892 -30.1438 6.6097
0.3474 -30.6946 -7.9263 -11.2105 -4.3707 -11.1823 -4.3384 -29.9865 4.6365
0.3849 -30.3213 -9.0106 -11.2105 -4.7748 -11.1863 -4.8093 -29.7439 3.5942
0.4224 -30.0706 -8.4291 -11.2088 -5.2570 -11.1861 -5.2563 -29.5476 3.9593
0.4599 -30.0589 -7.9007 -11.2152 -5.7297 -11.1865 -5.7115 -29.5678 4.7090
0.4973 -30.1382 -9.0494 -11.2202 -6.1795 -11.1895 -6.1706 -29.7267 4.0326
0.5348 -30.0044 -11.0280 -11.2213 -6.6846 -11.1934 -6.6166 -29.7913 1.9109
0.5723 -29.7670 -11.8130 -11.2231 -7.0859 -11.1967 -7.0776 -29.7020 0.2702
0.6098 -29.6429 -11.9066 -11.2265 -7.5041 -11.1992 -7.5215 -29.5430 -0.5771
0.6473 -29.6457 -12.5026 -11.2263 -8.0139 -11.1972 -7.9576 -29.4886 -0.9163
0.6848 -29.5561 -13.8480 -11.2298 -8.4330 -11.2001 -8.4091 -29.4627 -1.5456
0.7223 -29.3869 -14.9714 -11.2295 -8.9026 -11.2043 -8.8604 -29.4298 -2.4715
0.7598 -29.2455 -15.3236 -11.2315 -9.3766 -11.2066 -9.3107 -29.4377 -3.0898
0.7972 -29.1927 -15.6235 -11.2367 -9.7653 -11.2082 -9.7580 -29.4599 -3.5810
0.8347 -29.1617 -16.3389 -11.2391 -10.2105 -11.2119 -10.2090 -29.5537 -4.5121
0.8722 -29.0532 -17.3192 -11.2398 -10.6753 -11.2136 -10.6437 -29.5539 -6.3627
0.9097 -28.9686 -18.1826 -11.2444 -11.1250 -11.2146 -11.1037 -29.5083 -7.8325
0.9472 -28.9202 -18.9803 -11.2452 -11.5021 -11.2177 -11.5490 -29.3909 -8.8539
0.9847 -28.8155 -19.9242 -11.2514 -11.9755 -11.2206 -11.9954 -29.3325 -9.5272
1.0222 -28.6696 -20.5210 -11.2505 -12.4688 -11.2211 -12.4345 -29.3063 -9.9215
1.0596 -28.5373 -20.8511 -11.2492 -12.9305 -11.2238 -12.8877 -29.2965 -10.5576
1.0971 -28.5130 -21.2305 -11.2548 -13.3439 -11.2278 -13.3227 -29.3408 -11.3682
1.1346 -28.4897 -22.3090 -11.2605 -13.7710 -11.2295 -13.7612 -29.3466 -12.5913
1.1721 -28.3637 -23.5180 -11.2608 -14.2302 -11.2311 -14.2212 -29.3214 -13.8512
1.2096 -28.1832 -24.0318 -11.2643 -14.6788 -11.2367 -14.6563 -29.2482 -14.7792
1.2471 -28.0956 -24.0985 -11.2653 -15.1412 -11.2375 -15.0826 -29.1825 -15.1988
1.2846 -28.1033 -24.6791 -11.2691 -15.6231 -11.2394 -15.5386 -29.1901 -15.9299
1.3221 -28.0314 -25.8676 -11.2736 -16.0304 -11.2434 -15.9829 -29.2034 -16.8073
1.3596 -27.8393 -26.6643 -11.2761 -16.4242 -11.2445 -16.4115 -29.2008 -17.5275
1.3970 -27.6829 -26.5219 -11.2739 -16.9398 -11.2465 -16.8584 -29.2361 -18.1607
1.4345 -27.6616 -26.4716 -11.2772 -17.3588 -11.2500 -17.3110 -29.3143 -19.0520
1.4720 -27.7078 -27.2577 -11.2820 -17.7796 -11.2512 -17.7451 -29.3719 -20.5395
1.5095 -27.6259 -28.6255 -11.2864 -18.2347 -11.2535 -18.1944 -29.3418 -22.2770
1.5470 -27.4628 -29.2856 -11.2870 -18.6552 -11.2572 -18.6406 -29.2454 -23.5051
1.5845 -27.3618 -29.3186 -11.2888 -19.0814 -11.2590 -19.0712 -29.2063 -24.1181
1.6220 -27.3378 -29.5521 -11.2906 -19.5384 -11.2613 -19.5131 -29.2190 -24.8658
1.6595 -27.3178 -30.4935 -11.2928 -19.9807 -11.2645 -19.9642 -29.2219 -25.9984
1.6969 -27.1930 -31.2565 -11.2933 -20.4311 -11.2674 -20.3900 -29.2242 -27.2677
1.7344 -27.0518 -31.4654 -11.2948 -20.8924 -11.2693 -20.8315 -29.2109 -28.2182
1.7719 -27.0282 -31.3348 -11.2979 -21.3053 -11.2703 -21.2606 -29.2015 -29.2846
1.8094 -27.0411 -31.9543 -11.3037 -21.7047 -11.2733 -21.6883 -29.1595 -30.5512
1.8469 -26.9942 -32.7352 -11.3021 -22.1615 -11.2733 -22.1241 -29.0754 -31.8025
1.8844 -26.9018 -33.3377 -11.3047 -22.6015 -11.2756 -22.5657 -29.0005 -32.5806
1.9219 -26.8260 -33.5998 -11.3071 -23.0608 -11.2771 -22.9978 -28.9669 -33.2579
1.9594 -26.7812 -33.9087 -11.3076 -23.5320 -11.2784 -23.4376 -28.9367 -34.0637
1.9968 -26.7359 -34.2899 -11.3095 -23.9312 -11.2808 -23.8915 -28.9242 -35.0719
2.0343 -26.6995 -34.7290 -11.3156 -24.3684 -11.2841 -24.3285 -28.9217 -35.9026
2.0718 -26.6763 -35.1808 -11.3200 -24.8049 -11.2857 -24.7681 -28.9218 -36.8949
2.1093 -26.6393 -35.7229 -11.3240 -25.2201 -11.2878 -25.2012 -28.9267 -38.0208
2.1468 -26.6004 -36.3673 -11.3259 -25.6861 -11.2914 -25.6345 -28.8649 -39.2304
2.1843 -26.5562 -36.6738 -11.3261 -26.0813 -11.2910 -26.0559 -28.7746 -40.3901
2.2218 -26.5434 -37.1972 -11.3278 -26.5230 -11.2941 -26.4743 -28.7214 -41.0542
2.2593 -26.5123 -37.8207 -11.3277 -27.0220 -11.2927 -26.9153 -28.7621 -41.7274
2.2967 -26.4580 -38.3405 -11.3317 -27.4575 -11.2945 -27.3522 -28.7865 -42.7619
2.3342 -26.3827 -38.5117 -11.3359 -27.8867 -11.2965 -27.7747 -28.7240 -43.7714
2.3717 -26.3993 -38.4558 -11.3375 -28.2602 -11.2971 -28.2080 -28.7208 -44.3803
2.4092 -26.4693 -38.9213 -11.3358 -28.7021 -11.2991 -28.6530 -28.7821 -45.0926
2.4467 -26.4539 -39.8815 -11.3381 -29.2435 -11.3010 -29.0684 -28.8380 -46.2808
2.4842 -26.3693 -40.4906 -11.3417 -29.6350 -11.3012 -29.5049 -28.8036 -47.8121
2.5217 -26.3091 -40.5701 -11.3468 -30.0328 -11.3038 -29.9371 -28.7207 -49.0579
2.5592 -26.3733 -40.7052 -11.3491 -30.4671 -11.3080 -30.3495 -28.6660 -49.6347
2.5966 -26.4281 -41.6058 -11.3483 -30.9171 -11.3064 -30.7742 -28.6663 -50.4509
2.6341 -26.3416 -42.6179 -11.3506 -31.3408 -11.3082 -31.2312 -28.6713 -51.7219
2.6716 -26.2225 -42.7967 -11.3512 -31.7463 -11.3122 -31.6392 -28.6286 -52.7610
2.7091 -26.2353 -42.4853 -11.3463 -32.1915 -11.3102 -32.0738 -28.5821 -53.6485
2.7466 -26.3521 -42.9300 -11.3441 -32.6495 -11.3099 -32.5003 -28.6145 -54.3484
2.7841 -26.3931 -44.1880 -11.3500 -33.0787 -11.3104 -32.9437 -28.6623 -55.6608
2.8216 -26.2929 -45.0320 -11.3559 -33.5127 -11.3128 -33.3684 -28.6299 -57.1684
2.8591 -26.2168 -44.8865 -11.3528 -33.9351 -11.3127 -33.8093 -28.5370 -58.5069
2.8965 -26.3364 -44.7382 -11.3563 -34.3506 -11.3137 -34.2513 -28.4964 -59.1632
2.9340 -26.4820 -45.7627 -11.3601 -34.7774 -11.3164 -34.6769 -28.4958 -59.9893
2.9715 -26.4186 -47.1343 -11.3624 -35.2195 -11.3146 -35.1256 -28.5091 -61.1048
3.0090 -26.2895 -47.4699 -11.3639 -35.6522 -11.3184 -35.5630 -28.4673 -62.2204
3.0465 -26.2859 -46.9137 -11.3644 -36.1233 -11.3195 -35.9866 -28.4321 -63.2928
3.0840 -26.4668 -47.2117 -11.3629 -36.5166 -11.3211 -36.4293 -28.4250 -64.0762
3.1215 -26.5391 -48.7205 -11.3638 -36.9283 -11.3233 -36.8666 -28.4179 -65.2518
3.1590 -26.4461 -49.7181 -11.3662 -37.3807 -11.3234 -37.2907 -28.3825 -66.5017
3.1964 -26.3683 -49.6167 -11.3659 -37.7991 -11.3229 -37.7226 -28.3388 -67.5810
3.2339 -26.4928 -49.5897 -11.3640 -38.2421 -11.3252 -38.1728 -28.2933 -68.5998
3.2714 -26.6399 -50.9147 -11.3639 -38.6758 -11.3282 -38.5957 -28.2208 -69.6970
3.3089 -26.5808 -52.6436 -11.3659 -39.1081 -11.3254 -39.0415 -28.1650 -70.7410
3.3464 -26.4033 -52.9268 -11.3675 -39.5449 -11.3269 -39.4887 -28.1111 -71.4317
3.3839 -26.4160 -52.4416 -11.3688 -39.9978 -11.3291 -39.9226 -28.1294 -72.1850
3.4214 -26.5973 -52.7359 -11.3695 -40.4332 -11.3311 -40.3350 -28.1520 -73.5217
3.4589 -26.6893 -54.3984 -11.3679 -40.8290 -11.3302 -40.7834 -28.0959 -75.1568
3.4963 -26.5629 -55.7065 -11.3725 -41.2675 -11.3338 -41.2111 -27.9700 -76.5602
3.5338 -26.4884 -55.8627 -11.3705 -41.7472 -11.3339 -41.6466 -27.8724 -77.4499
3.5713 -26.6093 -55.9591 -11.3676 -42.1785 -11.3327 -42.0863 -27.8302 -78.4315
3.6088 -26.7749 -57.5496 -11.3705 -42.5795 -11.3343 -42.5234 -27.7706 -79.8392
3.6463 -26.7082 -59.6106 -11.3708 -43.0195 -11.3362 -42.9553 -27.6566 -81.2754
3.6838 -26.5348 -60.3301 -11.3719 -43.4804 -11.3364 -43.3897 -27.5653 -82.2055
3.7213 -26.5510 -60.0609 -11.3743 -43.9114 -11.3379 -43.8335 -27.5521 -83.0661
3.7588 -26.7313 -60.7945 -11.3751 -44.3298 -11.3388 -44.2575 -27.5442 -84.5076
3.7962 -26.8052 -62.7675 -11.3754 -44.7441 -11.3385 -44.6916 -27.4329 -86.3026
3.8337 -26.6682 -64.2772 -11.3741 -45.1970 -11.3370 -45.1387 -27.2785 -87.7244
3.8712 -26.5791 -64.3276 -11.3754 -45.6671 -11.3398 -45.5733 -27.1803 -88.2575
3.9087 -26.7004 -64.4360 -11.3775 -46.0915 -11.3408 -46.0111 -27.1465 -89.2470
3.9462 -26.8684 -65.9229 -11.3802 -46.5231 -11.3404 -46.4480 -27.0848 -90.5400
3.9837 -26.8352 -67.9847 -11.3780 -46.9639 -11.3448 -46.8907 -26.9466 -91.8865
4.0212 -26.6977 -68.8149 -11.3775 -47.4071 -11.3450 -47.3198 -26.8320 -92.4606
4.0587 -26.6819 -68.8087 -11.3804 -47.8712 -11.3455 -47.7710 -26.8026 -93.0030
4.0961 -26.8247 -69.4348 -11.3781 -48.2839 -11.3454 -48.1866 -26.7857 -94.2747
4.1336 -26.8712 -71.1740 -11.3815 -48.7240 -11.3441 -48.6124 -26.6749 -95.8740
4.1711 -26.7799 -72.7152 -11.3863 -49.1707 -11.3473 -49.0718 -26.5007 -97.1179
4.2086 -26.6772 -73.2043 -11.3841 -49.5983 -11.3483 -49.5111 -26.3534 -97.6296
4.2461 -26.7237 -73.6381 -11.3861 -50.0474 -11.3473 -49.9477 -26.2942 -98.1091
4.2836 -26.7987 -74.9039 -11.3845 -50.4919 -11.3489 -50.3922 -26.2435 -99.3290
4.3211 -26.7610 -76.6758 -11.3825 -50.9069 -11.3489 -50.8301 -26.0882 -100.5658
4.3586 -26.6533 -77.6715 -11.3877 -51.3256 -11.3513 -51.2593 -25.9076 -101.3093
4.3960 -26.5945 -78.2380 -11.3885 -51.7753 -11.3527 -51.7049 -25.8224 -101.6880
4.4335 -26.6034 -78.9854 -11.3903 -52.2406 -11.3537 -52.1642 -25.7595 -102.4677
4.4710 -26.5826 -80.3051 -11.3921 -52.6563 -11.3545 -52.6009 -25.6418 -103.6400
4.5085 -26.5064 -81.3560 -11.3903 -53.0996 -11.3541 -53.0214 -25.4729 -104.5158
4.5460 -26.4607 -82.1491 -11.3916 -53.5501 -11.3559 -53.4693 -25.3477 -104.9248
4.5835 -26.4297 -82.9658 -11.3932 -53.9869 -11.3580 -53.9108 -25.2512 -105.3863
4.6210 -26.4023 -83.9041 -11.3920 -54.4027 -11.3547 -54.3457 -25.1867 -106.1192
4.6585 -26.3703 -84.8439 -11.3952 -54.8745 -11.3591 -54.8037 -25.0759 -107.0191
4.6959 -26.3283 -85.7834 -11.3965 -55.3085 -11.3601 -55.2352 -24.9245 -107.7765
4.7334 -26.2934 -86.7612 -11.3979 -55.7197 -11.3606 -55.6768 -24.8058 -108.2182
4.7709 -26.2245 -87.8228 -11.3983 -56.1804 -11.3608 -56.1124 -24.7199 -108.7485
4.8084 -26.1502 -88.6906 -11.4020 -56.6142 -11.3648 -56.5659 -24.6019 -109.5041
4.8459 -26.1032 -89.3541 -11.3996 -57.0306 -11.3657 -56.9922 -24.4505 -109.9461
4.8834 -26.1035 -90.2062 -11.4024 -57.4859 -11.3663 -57.4403 -24.3387 -110.1498
4.9209 -26.0263 -91.3849 -11.4028 -57.9205 -11.3663 -57.8692 -24.2534 -110.5182
4.9584 -25.9027 -92.2351 -11.4040 -58.3985 -11.3687 -58.3376 -24.1938 -110.9114
4.9958 -25.8455 -92.5421 -11.4050 -58.7933 -11.3688 -58.7387 -24.0742 -111.5284
5.0333 -25.8593 -93.1479 -11.4042 -59.2288 -11.3678 -59.1779 -23.9781 -111.9328
5.0708 -25.8325 -94.5328 -11.4062 -59.6803 -11.3710 -59.6461 -23.8770 -112.2814
5.1083 -25.6975 -95.7754 -11.4070 -60.1246 -11.3732 -60.0887 -23.7848 -112.7190
5.1458 -25.5318 -96.1469 -11.4062 -60.5648 -11.3731 -60.5124 -23.6735 -113.0740
5.1833 -25.5155 -96.2392 -11.4084 -61.0088 -11.3739 -60.9628 -23.5839 -113.3593
5.2208 -25.5400 -97.1380 -11.4085 -61.4581 -11.3741 -61.4000 -23.4766 -113.5490
5.2583 -25.4565 -98.5512 -11.4108 -61.8944 -11.3728 -61.8536 -23.4046 -113.7580
5.2957 -25.2676 -99.1987 -11.4189 -62.3260 -11.3794 -62.2818 -23.3254 -114.0748
5.3332 -25.1748 -99.1475 -11.4141 -62.7589 -11.3777 -62.7263 -23.2657 -114.4187
5.3707 -25.2061 -99.5257 -11.4165 -63.1964 -11.3781 -63.1800 -23.1550 -114.8037
5.4082 -25.1881 -100.8294 -11.4185 -63.6352 -11.3809 -63.6145 -23.0564 -115.2009
5.4457 -25.0247 -102.0273 -11.4165 -64.0834 -11.3808 -64.0629 -22.9417 -115.4079
5.4832 -24.8490 -102.1632 -11.4186 -64.5224 -11.3850 -64.5022 -22.8491 -115.4419
5.5207 -24.8290 -101.9789 -11.4176 -64.9456 -11.3854 -64.9226 -22.7874 -115.4957
5.5582 -24.8746 -102.8304 -11.4182 -65.4050 -11.3859 -65.3698 -22.7394 -115.7113
5.5956 -24.7786 -104.2529 -11.4219 -65.8543 -11.3861 -65.8383 -22.6546 -116.0664
5.6331 -24.5907 -104.8364 -11.4260 -66.2955 -11.3892 -66.2684 -22.5794 -116.2652
5.6706 -24.4860 -104.5015 -11.4291 -66.7193 -11.3927 -66.7010 -22.5236 -116.2819
5.7081 -24.5331 -104.6316 -11.4281 -67.1599 -11.3936 -67.1338 -22.4790 -116.5492
5.7456 -24.5442 -105.7814 -11.4311 -67.6200 -11.3948 -67.5868 -22.4088 -116.8562
5.7831 -24.4022 -106.8908 -11.4317 -68.0511 -11.3953 -68.0153 -22.3130 -117.0462
5.8206 -24.2235 -107.0050 -11.4367 -68.4871 -11.3972 -68.4556 -22.2326 -116.9953
5.8581 -24.2010 -106.8324 -11.4347 -68.9572 -11.3950 -68.9222 -22.2108 -116.9220
5.8955 -24.2309 -107.5615 -11.4367 -69.3828 -11.4005 -69.3487 -22.1884 -117.2221
5.9330 -24.1439 -108.6804 -11.4358 -69.8297 -11.4030 -69.7952 -22.1273 -117.7061
5.9705 -23.9676 -109.2086 -11.4386 -70.2531 -11.4053 -70.2159 -22.0284 -117.8466
6.0080 -23.8864 -108.9239 -11.4390 -70.7246 -11.4049 -70.6836 -21.9736 -117.6849
6.0455 -23.9297 -109.0571 -11.4451 -71.1496 -11.4103 -71.1027 -21.9675 -117.6578
6.0830 -23.9087 -110.0673 -11.4449 -71.5781 -11.4102 -71.5455 -21.9486 -118.0259
6.1205 -23.7710 -110.8837 -11.4444 -72.0347 -11.4090 -71.9826 -21.8812 -118.4680
6.1580 -23.6407 -110.8479 -11.4500 -72.4900 -11.4137 -72.4225 -21.7941 -118.3756
6.1954 -23.6379 -110.6842 -11.4530 -72.9317 -11.4145 -72.8654 -21.7698 -118.1151
6.2329 -23.6757 -111.3128 -11.4528 -73.3642 -11.4171 -73.3097 -21.7918 -118.2042
6.2704 -23.5936 -112.3004 -11.4509 -73.8113 -11.4185 -73.7477 -21.7904 -118.6704
6.3079 -23.4439 -112.6228 -11.4528 -74.2533 -11.4201 -74.1799 -21.7130 -118.9684
6.3454 -23.3755 -112.4139 -11.4516 -74.6752 -11.4199 -74.6140 -21.6428 -118.8649
6.3829 -23.4113 -112.6169 -11.4539 -75.1121 -11.4224 -75.0436 -21.6542 -118.7366
6.4204 -23.3949 -113.4809 -11.4579 -75.5565 -11.4242 -75.4834 -21.6731 -119.0022
6.4579 -23.2663 -114.0980 -11.4601 -75.9946 -11.4268 -75.9302 -21.6300 -119.4329
6.4953 -23.1680 -114.0592 -11.4622 -76.4396 -11.4298 -76.3561 -21.5642 -119.5474
6.5328 -23.1618 -113.9907 -11.4631 -76.8759 -11.4260 -76.7879 -21.5448 -119.2409
6.5703 -23.1806 -114.5179 -11.4685 -77.3405 -11.4283 -77.2497 -21.5806 -119.2049
6.6078 -23.1244 -115.2886 -11.4714 -77.7628 -11.4315 -77.6771 -21.6192 -119.6085
6.6453 -23.0128 -115.6162 -11.4705 -78.1933 -11.4335 -78.1090 -21.5757 -120.0880
6.6828 -22.9528 -115.6469 -11.4713 -78.6467 -11.4333 -78.5653 -21.5150 -120.1143
6.7203 -22.9543 -115.9394 -11.4741 -79.1033 -11.4374 -79.0202 -21.5054 -119.9018
6.7578 -22.9146 -116.4819 -11.4752 -79.5033 -11.4377 -79.4463 -21.5503 -119.9871
6.7952 -22.8269 -116.8543 -11.4776 -79.9433 -11.4399 -79.8676 -21.5704 -120.3997
6.8327 -22.7652 -116.8946 -11.4766 -80.4005 -11.4390 -80.3299 -21.5358 -120.7275
6.8702 -22.7572 -117.1084 -11.4804 -80.8139 -11.4438 -80.7558 -21.5043 -120.6734
6.9077 -22.7356 -117.7117 -11.4796 -81.2634 -11.4430 -81.1786 -21.5279 -120.6611
6.9452 -22.6526 -118.1697 -11.4830 -81.7166 -11.4451 -81.6385 -21.5627 -120.8240
6.9827 -22.5845 -118.2169 -11.4845 -82.1665 -11.4476 -82.0939 -21.5732 -121.1697
7.0202 -22.5749 -118.2832 -11.4874 -82.5815 -11.4496 -82.5094 -21.5600 -121.3619
7.0577 -22.5624 -118.7538 -11.4882 -83.0215 -11.4500 -82.9342 -21.5599 -121.3402
7.0951 -22.4760 -119.2399 -11.4888 -83.4765 -11.4508 -83.4010 -21.5879 -121.4471
7.1326 -22.4031 -119.2132 -11.4923 -83.9187 -11.4545 -83.8438 -21.6334 -121.6803
7.1701 -22.4045 -119.0893 -11.4966 -84.3560 -11.4573 -84.2642 -21.6416 -121.9454
7.2076 -22.4236 -119.5525 -11.4987 -84.7758 -11.4599 -84.6948 -21.6483 -122.0246
7.2451 -22.3597 -120.2911 -11.4925 -85.2336 -11.4576 -85.1534 -21.6610 -122.1637
7.2826 -22.2533 -120.5056 -11.4958 -85.6801 -11.4627 -85.5937 -21.6969 -122.3963
7.3201 -22.2113 -120.2607 -11.5029 -86.1019 -11.4641 -85.9975 -21.7252 -122.6126
7.3576 -22.2464 -120.3506 -11.5030 -86.5596 -11.4625 -86.4751 -21.7336 -122.8186
7.3950 -22.2559 -121.1020 -11.5066 -86.9778 -11.4686 -86.9017 -21.7510 -122.9422
7.4325 -22.1606 -121.6962 -11.5051 -87.4212 -11.4675 -87.3211 -21.7894 -123.1651
7.4700 -22.0590 -121.7032 -11.5067 -87.8598 -11.4675 -87.7798 -21.8352 -123.2637
7.5075 -22.0572 -121.4407 -11.5093 -88.3325 -11.4717 -88.2356 -21.8701 -123.6666
7.5450 -22.0968 -121.7793 -11.5117 -88.7343 -11.4759 -88.6465 -21.9070 -123.9196
7.5825 -22.0431 -122.4850 -11.5100 -89.1684 -11.4748 -89.0773 -21.9330 -124.1280
7.6200 -21.9477 -122.7305 -11.5136 -89.6180 -11.4778 -89.5421 -21.9597 -124.3730
7.6575 -21.9245 -122.4928 -11.5206 -90.0693 -11.4811 -89.9709 -22.0089 -124.6051
7.6949 -21.9750 -122.6489 -11.5214 -90.5056 -11.4816 -90.4046 -22.0598 -124.8784
7.7324 -21.9751 -123.4719 -11.5239 -90.9290 -11.4826 -90.8496 -22.1139 -125.1553
7.7699 -21.8732 -124.0897 -11.5222 -91.3755 -11.4826 -91.2800 -22.1418 -125.5793
7.8074 -21.7888 -124.0046 -11.5298 -91.8164 -11.4888 -91.7187 -22.2019 -125.9270
7.8449 -21.7827 -123.7469 -11.5295 -92.2495 -11.4876 -92.1503 -22.2568 -126.2823
7.8824 -21.8213 -124.1589 -11.5328 -92.6937 -11.4922 -92.6149 -22.2908 -126.7167
7.9199 -21.7762 -124.7725 -11.5364 -93.1434 -11.4935 -93.0537 -22.3192 -127.1652
7.9574 -21.6994 -124.9291 -11.5400 -93.5683 -11.4975 -93.4887 -22.3411 -127.2800
7.9948 -21.6786 -124.7276 -11.5405 -94.0045 -11.4998 -93.9108 -22.4102 -127.4744
8.0323 -21.7147 -124.9298 -11.5398 -94.4557 -11.4996 -94.3445 -22.5048 -127.7395
8.0698 -21.7143 -125.6411 -11.5424 -94.9032 -11.5042 -94.7947 -22.5834 -128.4343
8.1073 -21.6340 -126.1183 -11.5442 -95.3230 -11.5062 -95.1958 -22.6329 -129.0676
8.1448 -21.5452 -126.1899 -11.5453 -95.7692 -11.5053 -95.6665 -22.6554 -129.4434
8.1823 -21.5368 -126.1708 -11.5482 -96.1994 -11.5109 -96.0982 -22.7261 -129.7909
8.2198 -21.5275 -126.4010 -11.5487 -96.6201 -11.5146 -96.5092 -22.7995 -130.4128
8.2573 -21.4716 -126.7180 -11.5461 -97.0503 -11.5105 -96.9354 -22.8412 -130.9665
8.2947 -21.4324 -126.8081 -11.5504 -97.5258 -11.5155 -97.3985 -22.8674 -131.3770
8.3322 -21.4204 -126.8716 -11.5536 -97.9448 -11.5192 -97.8014 -22.9473 -131.5608
8.3697 -21.3923 -127.3020 -11.5530 -98.3916 -11.5178 -98.2555 -23.0494 -132.0854
8.4072 -21.3281 -127.6882 -11.5527 -98.8191 -11.5194 -98.6775 -23.1388 -132.9040
8.4447 -21.2680 -127.7231 -11.5591 -99.2802 -11.5213 -99.1308 -23.1492 -133.7322
8.4822 -21.2688 -127.5988 -11.5610 -99.6997 -11.5231 -99.5485 -23.1649 -134.0995
8.5197 -21.3007 -128.0182 -11.5601 -100.1261 -11.5234 -99.9828 -23.2372 -134.3303
8.5572 -21.2417 -128.7478 -11.5592 -100.5796 -11.5228 -100.4322 -23.3387 -134.9599
8.5946 -21.1535 -129.0024 -11.5663 -101.0233 -11.5273 -100.8708 -23.4262 -135.8856
8.6321 -21.1095 -128.8532 -11.5651 -101.4568 -11.5269 -101.3092 -23.4373 -136.5536
8.6696 -21.1500 -129.0344 -11.5649 -101.8983 -11.5292 -101.7439 -23.4932 -136.9957
8.7071 -21.1454 -129.8036 -11.5660 -102.3264 -11.5310 -102.1869 -23.6066 -137.5530
8.7446 -21.0480 -130.3761 -11.5717 -102.7682 -11.5347 -102.6215 -23.7178 -138.7238
8.7821 -20.9520 -130.2515 -11.5697 -103.2115 -11.5331 -103.0635 -23.7475 -139.7503
8.8196 -20.9673 -129.9477 -11.5691 -103.6461 -11.5346 -103.4932 -23.7480 -140.4098
8.8571 -21.0328 -130.4171 -11.5717 -104.1179 -11.5390 -103.9400 -23.8225 -140.7683
8.8945 -20.9887 -131.1730 -11.5718 -104.5014 -11.5368 -104.3468 -23.9426 -141.6300
8.9320 -20.8759 -131.3866 -11.5709 -104.9661 -11.5366 -104.8039 -24.0222 -142.8632
8.9695 -20.8483 -131.0132 -11.5755 -105.4408 -11.5387 -105.2594 -24.0112 -143.9714
9.0070 -20.9308 -131.0132 -11.5825 -105.8734 -11.5437 -105.6737 -24.0212 -144.5925
