!
! Hittite Microwave Corporation
! 2 Elizabeth Drive
! Chelmsford, MA 01824
! http://www.hittite.com
! Tel: 978-250-3343
! Fax: 978-250-3373
! 
! Device:      HMC424LP3
! Description: 0.5 dB GaAs MMIC 6-Bit Digital Attenuator
! Frequency:    DC -  13.00 GHz
! Package:     LP3  - 3x3 mm Quad Flatpack No-Lead (QFN) Plastic Package: 16 pin
! Ports:       2 RF, 7 DC
!              Pad  1  = Ground
!              Pad  2  = RF IN   = Port 1
!              Pad  3  = Ground
!              Pad  4  = V6
!              Pad  5  = V5
!              Pad  6  = V4
!              Pad  7  = V3
!              Pad  8  = V2
!              Pad  9  = V1
!              Pad 10  = Ground
!              Pad 11  = RF OUT  = Port 2
!              Pad 12  = Ground
!              Pad 15  = VEE
!
! Control:     -5 Volt control voltage
! State:        4 
! Attenuation:  2.0 dB
! Voltages:    Vdd = -5.00 Volts  Idd =  -2.317 mA
!              V1  = 0.00 Volts  I1  =  30.0 uA
!              V2  = 0.00 Volts  I2  =  29.0 uA
!              V3  = -5.00 Volts  I3  =  -1.0 uA
!              V4  = 0.00 Volts  I4  =  30.0 uA
!              V5  = 0.00 Volts  I5  =  29.0 uA
!              V6  = 0.00 Volts  I6  =  30.0 uA
!
! Data:    The device was measured on evaluation board 105354-1. 
!          Data was collected using a calibrated network analyzer.
!          The evaluation circuit board was modeled and simulated.  This was use
!          to removed the evaluation board circuit from the measured data.
!          The reference plane is the edge of the package pin.
!
! Misc:    Lot xxxx, Unit 1
!          Application 20120001, Data collected in Application 20090083
!
! Date Measured:  2009-09-15
! Date:           2012-05-14  MJV
! Note: 
!   Hittite supplies this data as a sample of measured data at the package pin
!   for this product.  Your particular data for this product may vary.
!   Data was taken at 25 degrees C.
!   Hittite reserves the right to change this data at anytime.
!
# GHz S MA R 50

0.01	0.071900272	5.3422575	0.59444086	-1.1833611	0.59423559	-1.3777611	0.16168641	1.5323625	
0.11	0.066741189	-4.3875892	0.59175591	-2.466203	0.59080288	-2.441403	0.15648699	-1.9625227	
0.21	0.067135089	-8.5575259	0.59017648	-4.2519707	0.58997267	-4.2435707	0.15567346	-5.9183251	
0.31	0.069443139	-11.989625	0.58938366	-5.9898707	0.58877327	-5.9915707	0.16069848	-8.2266953	
0.41	0.070373131	-16.419887	0.58881684	-7.7296719	0.58868127	-7.7761719	0.16156056	-10.051234	
0.51	0.072043754	-20.502454	0.58775062	-9.5832638	0.58720953	-9.6033638	0.15993002	-12.487952	
0.61	0.073275204	-23.88242	0.58713242	-11.323159	0.58652437	-11.302059	0.16078619	-16.019439	
0.71	0.076737011	-27.014318	0.5866207	-13.086091	0.58560852	-13.091091	0.16691363	-18.262735	
0.81	0.07865471	-30.61866	0.58565162	-14.821918	0.58484307	-14.800218	0.16653975	-19.438129	
0.91	0.080623149	-33.221403	0.58479972	-16.611643	0.58392511	-16.588643	0.16684004	-22.536391	
1.01	0.082691608	-34.753359	0.5839363	-18.302061	0.58333156	-18.299961	0.16977394	-25.139392	
1.11	0.085578787	-37.30591	0.58332469	-20.041166	0.58272058	-20.067066	0.1759814	-26.362549	
1.21	0.087062886	-39.70888	0.58242823	-21.771696	0.58182505	-21.774796	0.17362422	-27.07836	
1.31	0.088405434	-41.497853	0.58170173	-23.511569	0.58136697	-23.506969	0.17569412	-30.221803	
1.41	0.090731319	-42.327758	0.58116865	-25.1696	0.58056677	-25.1654	0.17983286	-31.5778	
1.51	0.092748979	-44.48142	0.58057853	-26.933789	0.58011083	-26.900789	0.18335985	-32.19292	
1.61	0.093773499	-46.145267	0.57957625	-28.644649	0.57897602	-28.632549	0.18014841	-33.000129	
1.71	0.093604957	-47.22868	0.57875871	-30.311194	0.5782259	-30.293094	0.18161148	-35.901539	
1.81	0.095331035	-48.272319	0.57832134	-31.995087	0.57772241	-31.990387	0.18532413	-36.832735	
1.91	0.095667884	-50.191539	0.57792399	-33.729585	0.57692681	-33.711785	0.18555016	-37.593944	
2.01	0.094705773	-51.787637	0.57644195	-35.394813	0.57624289	-35.386913	0.18225466	-38.857819	
2.11	0.094374716	-52.648858	0.57606201	-37.076813	0.57539917	-37.066113	0.18401608	-41.834621	
2.21	0.095537622	-54.337863	0.57578814	-38.770083	0.57499321	-38.760183	0.18788612	-42.63775	
2.31	0.095449314	-56.38105	0.57537018	-40.498482	0.57424517	-40.417182	0.186855	-43.536654	
2.41	0.094054032	-58.189368	0.5740595	-42.120694	0.57326696	-42.100494	0.18429015	-45.528936	
2.51	0.094100036	-59.405429	0.57382986	-43.833464	0.5729057	-43.776264	0.18734123	-48.381951	
2.61	0.094921398	-61.898361	0.57336714	-45.484755	0.57277334	-45.487155	0.19095842	-48.890982	
2.71	0.094511281	-64.547582	0.57264147	-47.225614	0.57191673	-47.210714	0.18816838	-50.377375	
2.81	0.093125486	-66.651011	0.57164668	-48.831132	0.57144927	-48.887532	0.18736573	-52.843381	
2.91	0.094595218	-68.753979	0.57171838	-50.567664	0.57112629	-50.583264	0.19081019	-55.363124	
3.01	0.094970332	-72.148177	0.57098352	-52.3041	0.57019522	-52.2711	0.19373897	-55.84794	
3.11	0.094427166	-75.102663	0.56991753	-53.970338	0.56945841	-53.958638	0.18939887	-57.753467	
3.21	0.094096687	-77.569755	0.56901019	-55.661974	0.56861727	-55.629174	0.18968504	-60.594695	
3.31	0.095137969	-80.476153	0.56875793	-57.318985	0.5680381	-57.283685	0.1931571	-62.616798	
3.41	0.09632101	-84.200649	0.56797294	-59.066285	0.5672541	-59.026385	0.19404507	-63.456161	
3.51	0.096129528	-87.003281	0.56677235	-60.674113	0.56618538	-60.683713	0.1901017	-65.802596	
3.61	0.097272707	-89.625538	0.56597339	-62.355775	0.56532216	-62.359175	0.19238234	-69.025585	
3.71	0.099770114	-92.370867	0.56531032	-64.028182	0.56478989	-64.028682	0.19595955	-70.72989	
3.81	0.10111006	-95.414038	0.56420893	-65.759505	0.56362462	-65.752205	0.19533662	-71.780693	
3.91	0.10155485	-97.760114	0.56308706	-67.365739	0.56276302	-67.341939	0.19231267	-74.671273	
4.01	0.10978076	-95.808671	0.56337925	-68.967421	0.56273101	-68.977321	0.20572113	-75.82359	
4.11	0.11187455	-97.857865	0.56248863	-70.675806	0.56184141	-70.650906	0.20877876	-76.691748	
4.21	0.11359695	-99.71182	0.56137388	-72.341105	0.56085707	-72.290105	0.20834573	-77.724911	
4.31	0.11474755	-100.28783	0.56035171	-73.930946	0.55977139	-73.971646	0.20748081	-80.15872	
4.41	0.11696086	-100.97855	0.55979426	-75.625584	0.55908577	-75.609084	0.21413832	-81.659976	
4.51	0.11824149	-102.18663	0.55869232	-77.267147	0.55804948	-77.285347	0.21556335	-81.624574	
4.61	0.11865976	-102.96074	0.55766562	-78.912279	0.55702395	-78.893379	0.21433078	-82.34861	
4.71	0.11980375	-102.82645	0.55716973	-80.501775	0.5564005	-80.538775	0.21383559	-84.087799	
4.81	0.12106922	-103.00127	0.5563757	-82.147478	0.55567154	-82.131878	0.21991583	-84.816794	
4.91	0.12135961	-103.32671	0.55476911	-83.82115	0.55406698	-83.79955	0.21903868	-84.247852	
5.01	0.12094785	-102.92971	0.55410864	-85.396802	0.55353479	-85.374602	0.21677156	-84.955831	
5.11	0.12152474	-101.76032	0.55357314	-86.97921	0.55299984	-86.97651	0.21683889	-86.147523	
5.21	0.12188975	-101.47316	0.55293071	-88.617583	0.55254889	-88.612483	0.2218633	-86.557069	
5.31	0.12147896	-100.77938	0.55156491	-90.235725	0.55105713	-90.247925	0.22002438	-85.455346	
5.41	0.12074239	-99.114232	0.55126532	-91.817731	0.55075781	-91.796331	0.21771664	-86.37344	
5.51	0.12171398	-97.674705	0.55104221	-93.390224	0.55028145	-93.383924	0.21966843	-86.969556	
5.61	0.12172089	-96.296313	0.55040397	-95.00874	0.54977066	-94.99734	0.22382256	-86.842105	
5.71	0.120197	-94.962349	0.54964992	-96.660309	0.5487647	-96.607809	0.22207362	-85.59492	
5.81	0.12048542	-92.537574	0.54956051	-98.207232	0.54880179	-98.200132	0.2198877	-86.488071	
5.91	0.12009002	-91.305856	0.54924486	-99.831563	0.54854972	-99.808563	0.22385309	-86.695444	
6.01	0.1196373	-89.548894	0.54908761	-101.45705	0.54839267	-101.44755	0.22702752	-85.933604	
6.11	0.11847726	-87.597514	0.54832752	-103.08079	0.5478858	-103.07399	0.22436415	-84.744181	
6.21	0.11814379	-85.094211	0.5487602	-104.69747	0.54787641	-104.65607	0.22184461	-85.584243	
6.31	0.11737082	-83.925812	0.5487341	-106.33861	0.54797652	-106.31601	0.22565132	-85.525807	
6.41	0.1153576	-81.567239	0.54795876	-107.97335	0.54726525	-107.95985	0.225713	-84.62118	
6.51	0.11331028	-79.238119	0.5478005	-109.64239	0.54729619	-109.58739	0.22211647	-83.772414	
6.61	0.11191689	-77.34722	0.54859415	-111.29034	0.54789984	-111.25944	0.21808321	-84.868899	
6.71	0.1091501	-76.21044	0.54882308	-112.97198	0.54787612	-112.94238	0.22020952	-85.132125	
6.81	0.10617443	-74.3197	0.54861521	-114.66048	0.5476686	-114.65548	0.21667426	-84.707245	
6.91	0.10306194	-72.582433	0.54881849	-116.37115	0.54806079	-116.34635	0.21132081	-85.080806	
7.01	0.099659373	-71.744576	0.54962386	-118.09503	0.54911787	-118.08493	0.20556146	-86.852601	
7.11	0.094194292	-70.96509	0.54990922	-119.8686	0.54940297	-119.836	0.2065956	-87.952905	
7.21	0.088449386	-69.809089	0.54985101	-121.62304	0.54928157	-121.57654	0.19969582	-88.22186	
7.31	0.082649202	-68.973126	0.55093103	-123.40279	0.55029711	-123.37439	0.1929035	-90.4491	
7.41	0.075549772	-69.118161	0.5519909	-125.24292	0.55110191	-125.20172	0.18799707	-93.415259	
7.51	0.067124252	-68.555942	0.5524678	-127.0884	0.55145105	-127.048	0.18645757	-95.488357	
7.61	0.058759777	-68.384115	0.55229174	-128.91978	0.55146576	-128.86638	0.17825967	-96.855348	
7.71	0.050088075	-69.155152	0.55313434	-130.80463	0.55230709	-130.77043	0.17050387	-100.85393	
7.81	0.039658659	-71.794621	0.55349934	-132.73968	0.55279882	-132.70638	0.16559293	-104.93126	
7.91	0.028993374	-73.475366	0.5536038	-134.6544	0.55252134	-134.6324	0.16245536	-108.33296	
8.01	0.018367982	-78.476395	0.55296602	-136.58119	0.55232976	-136.54429	0.15310309	-111.80615	
8.11	0.0088856073	-108.95012	0.55359575	-138.5513	0.55264055	-138.5302	0.14741716	-118.21323	
8.21	0.0092829149	164.51545	0.55314189	-140.56163	0.55237822	-140.54033	0.14491892	-123.81703	
8.31	0.019661977	138.2497	0.55276847	-142.52079	0.5518147	-142.48329	0.14268812	-128.66228	
8.41	0.031165111	131.71211	0.55163856	-144.49262	0.55106727	-144.45572	0.1360916	-134.80029	
8.51	0.043987764	129.79256	0.55175562	-146.56303	0.55105731	-146.51543	0.13769036	-143.17497	
8.61	0.056367007	127.23035	0.55037937	-148.60226	0.54999932	-148.56486	0.14176257	-149.07819	
8.71	0.068379829	126.29911	0.54947464	-150.54789	0.54871603	-150.52509	0.14379655	-154.34015	
8.81	0.08004925	126.10721	0.54783378	-152.56109	0.54707744	-152.52139	0.14486172	-161.06579	
8.91	0.091628671	126.35653	0.54700471	-154.61034	0.54631241	-154.60154	0.15517964	-167.19509	
9.01	0.10135346	125.849	0.54544437	-156.60333	0.54437787	-156.58003	0.16228835	-170.55134	
9.11	0.11105041	125.39737	0.54332853	-158.53455	0.54264088	-158.52255	0.16914131	-174.00992	
9.21	0.11967568	126.41919	0.54178916	-160.4775	0.54116577	-160.4368	0.17403278	-177.7194	
9.31	0.12830146	126.25186	0.54015394	-162.4929	0.5394082	-162.4541	0.18652721	179.00289	
9.41	0.13561169	126.96515	0.53818423	-164.38007	0.53762687	-164.34177	0.19262094	178.44375	
9.51	0.14128413	127.61601	0.53573651	-166.18855	0.53481212	-166.16715	0.19638846	176.16884	
9.61	0.14684342	128.5574	0.53389821	-168.08463	0.5332225	-168.03683	0.20453687	174.38723	
9.71	0.15047261	129.82287	0.53254059	-169.92721	0.53186659	-169.88141	0.21233204	173.54982	
9.81	0.15310791	130.90052	0.53075724	-171.74369	0.53014654	-171.73289	0.21697195	173.40023	
9.91	0.15489111	132.20796	0.52851168	-173.48542	0.5276605	-173.46992	0.21968241	172.39081	
10.01	0.15660289	133.51285	0.52703867	-175.30287	0.52618987	-175.27427	0.22702927	171.68054	
10.11	0.15765579	135.17266	0.52520451	-177.114	0.52441903	-177.0847	0.23332434	171.84589	
10.21	0.15738267	136.86962	0.52345254	-178.83543	0.52266968	-178.83843	0.23601161	172.71991	
10.31	0.15690286	139.26885	0.52131257	179.42965	0.52053292	179.46185	0.23743945	172.32448	
10.41	0.15646428	140.88511	0.51988054	177.68244	0.51898351	177.74294	0.24499563	172.67718	
10.51	0.15585694	143.25604	0.51804481	175.97018	0.51738916	176.02808	0.2505124	173.52047	
10.61	0.15455129	145.99713	0.51664402	174.34085	0.51616839	174.37985	0.25252928	174.59266	
10.71	0.15352881	148.74234	0.51512313	172.63772	0.51447118	172.66312	0.25500075	174.54955	
10.81	0.15295652	151.33873	0.51388495	170.90555	0.51341186	170.97135	0.26178168	175.22647	
10.91	0.15172177	154.30556	0.51271906	169.2462	0.5120112	169.3017	0.26500239	176.51991	
11.01	0.15199585	157.15529	0.51140278	167.59042	0.51075554	167.61072	0.26607279	177.43023	
11.11	0.15165191	160.35669	0.51012168	165.94185	0.50918286	165.94145	0.26734581	177.65268	
11.21	0.1516457	162.84108	0.50884743	164.24379	0.50785249	164.28339	0.27273217	178.27051	
11.31	0.15190197	165.55442	0.50764286	162.59813	0.50682529	162.62143	0.27429762	179.33997	
11.41	0.15360092	168.07028	0.5064925	160.96258	0.50567679	161.01518	0.2743107	-179.87365	
11.51	0.15462109	170.49717	0.50546651	159.33273	0.50459436	159.36903	0.2746303	179.90013	
11.61	0.15549274	172.49393	0.50421383	157.62519	0.50351771	157.63849	0.28009862	-179.91408	
11.71	0.15703621	174.66708	0.5029735	155.93185	0.50245261	155.98105	0.28014918	-179.22378	
11.81	0.15911888	176.49941	0.50184021	154.30506	0.50114737	154.32626	0.28047836	-179.34748	
11.91	0.16082209	178.14651	0.50047078	152.58462	0.49972229	152.64392	0.28183474	-179.56103	
12.01	0.16266887	179.64166	0.49930244	150.89595	0.49867051	150.93085	0.28614706	-179.68777	
12.11	0.16503228	-178.91287	0.49814545	149.16748	0.49785878	149.23558	0.28617469	-179.30366	
12.21	0.16806992	-177.72702	0.49694013	147.54574	0.49631119	147.54574	0.28696928	-179.86879	
12.31	0.17099107	-176.70638	0.49538988	145.77216	0.49476291	145.79016	0.29020824	179.76713	
12.41	0.17440257	-175.9508	0.49314693	144.03202	0.4928064	144.04782	0.29536582	179.62533	
12.51	0.1770495	-175.62791	0.49179774	142.38869	0.49083613	142.39679	0.29623659	179.85394	
12.61	0.17925941	-175.05598	0.48995717	140.80707	0.48950611	140.83737	0.29753365	178.78993	
12.71	0.18248485	-173.8001	0.489304	139.13865	0.48845974	139.16545	0.30220648	178.44117	
12.81	0.18625807	-172.96173	0.48802022	137.43697	0.48740257	137.49067	0.30602612	178.28486	
12.91	0.19117622	-172.15442	0.48746723	135.73647	0.48679424	135.75447	0.30749743	178.4476	
13.01	0.19547915	-171.57541	0.48633587	134.01494	0.48560852	134.07134	0.30982687	177.68842	
13.11	0.20138084	-170.98348	0.48461185	132.26425	0.48410997	132.31965	0.31533322	177.47103	
13.21	0.20720237	-170.36837	0.48305853	130.56101	0.48255826	130.58571	0.31931287	177.40573	
13.31	0.21288086	-170.03357	0.48165354	128.8573	0.48087783	128.8741	0.32271878	177.39939	
13.41	0.21948063	-169.68584	0.48009386	127.17864	0.47921031	127.21114	0.32620554	176.83691	
13.51	0.22633617	-169.14314	0.47823875	125.47783	0.47746854	125.52083	0.33356499	176.74403	
13.61	0.23390078	-168.87635	0.47647705	123.76703	0.47570968	123.81223	0.33841257	176.88166	
13.71	0.24218626	-168.54003	0.47472987	122.0976	0.47407446	122.1034	0.34210344	176.93578	
13.81	0.25003864	-167.9582	0.47293593	120.43217	0.47222862	120.48037	0.34732441	176.56038	
13.91	0.2579237	-167.71561	0.47077001	118.77384	0.47001183	118.80344	0.35554326	176.86039	
14.01	0.26711255	-167.45382	0.46893815	117.11885	0.46834465	117.15795	0.35912672	177.19994	
14.11	0.27502969	-166.96038	0.46705345	115.49561	0.46635494	115.49081	0.3644354	177.37644	
14.21	0.28249622	-166.57478	0.46519852	113.8681	0.46444931	113.9067	0.36893999	177.35031	
14.31	0.29120912	-166.19779	0.46307928	112.2932	0.46228026	112.3228	0.3761501	177.89024	
14.41	0.2991989	-165.73342	0.46134325	110.69121	0.46065329	110.73841	0.37782828	178.29553	
14.51	0.30674553	-165.2146	0.45955855	109.11564	0.45892409	109.17564	0.38189442	178.48608	
14.61	0.313721	-164.63636	0.45812267	107.55114	0.45743752	107.58234	0.38440216	178.74129	
14.71	0.32029366	-164.00625	0.45607275	106.01695	0.45549553	106.05995	0.38893787	179.33319	
14.81	0.32618565	-163.50454	0.4545665	104.47419	0.45414802	104.50989	0.3877907	-179.92576	
14.91	0.33171216	-162.64505	0.45321255	102.97581	0.45263896	102.97701	0.38839942	-179.78935	
15.01	0.33536621	-161.94917	0.45198566	101.43753	0.45156956	101.46443	0.38804221	-179.2819	
15.11	0.33829675	-161.23358	0.45070754	99.95914	0.45018894	99.99924	0.38794912	-178.77056	
15.21	0.34081488	-160.41645	0.44988404	98.471622	0.44910779	98.467622	0.38281924	-177.82614	
15.31	0.34239954	-159.46559	0.44916197	96.977013	0.44885181	97.009513	0.37943827	-177.64074	
15.41	0.34286748	-158.61567	0.44892357	95.454036	0.44845866	95.516636	0.37509833	-176.80851	
15.51	0.34237766	-157.59598	0.44820743	93.98549	0.44789793	94.02109	0.36918452	-176.11519	
15.61	0.33868433	-156.45529	0.44797388	92.432794	0.44745843	92.452994	0.35905166	-175.08243	
15.71	0.33424887	-155.23963	0.44822009	90.965099	0.4477559	90.999399	0.34973666	-174.87184	
15.81	0.3307081	-153.63978	0.44879245	89.470649	0.44812126	89.502049	0.34146408	-173.69157	
15.91	0.32643128	-152.02562	0.4494087	87.829277	0.44878824	87.857177	0.32885436	-172.62996	
16.01	0.31977874	-150.37691	0.44975871	86.157119	0.44908607	86.191519	0.31402386	-171.50802	
16.11	0.31165586	-148.4621	0.45027653	84.534446	0.44965488	84.593946	0.29963673	-170.83339	
16.21	0.30384088	-145.98956	0.45098025	82.975392	0.45046134	83.017592	0.28695205	-169.17866	
16.31	0.29824139	-143.17694	0.45252177	81.293689	0.45189702	81.325189	0.26815422	-167.37608	
16.41	0.29255016	-140.33732	0.45434751	79.428421	0.45345913	79.484821	0.24986292	-165.7357	
16.51	0.28642604	-137.75181	0.45592277	77.511233	0.45534575	77.551333	0.2308421	-164.11315	
16.61	0.28015877	-135.2546	0.45702562	75.586624	0.45660488	75.633524	0.21483665	-161.90943	
16.71	0.27382027	-132.55995	0.45749143	73.594692	0.45701764	73.643592	0.19614849	-158.60738	
16.81	0.26560559	-129.71565	0.45817141	71.539714	0.45769692	71.597314	0.17703502	-155.28024	
16.91	0.25924227	-126.74834	0.45906721	69.500264	0.4586974	69.518064	0.15932679	-151.63999	
17.01	0.25172138	-123.79604	0.45978313	67.299874	0.45925409	67.331574	0.14420923	-147.07147	
17.11	0.24474748	-121.17282	0.45956173	65.083054	0.45903294	65.134054	0.12844434	-140.85756	
17.21	0.23597832	-118.70362	0.45954886	62.770502	0.45891441	62.826801	0.11368818	-133.98021	
17.31	0.22709611	-116.21233	0.45861565	60.401651	0.4579825	60.47465	0.10042564	-126.4731	
17.41	0.21454695	-113.57779	0.45705739	58.059929	0.45632129	58.121728	0.091318143	-117.29931	
17.51	0.20129028	-110.48029	0.45431538	55.74248	0.45353148	55.77468	0.081875711	-105.92244	
17.61	0.18915967	-106.01437	0.45234342	53.585946	0.45171891	53.657346	0.075726196	-94.717661	
17.71	0.18176813	-101.60108	0.45212701	51.433069	0.45145082	51.438669	0.072776377	-83.042774	
17.81	0.17048484	-99.238514	0.45222676	48.953406	0.45129057	48.985706	0.072167044	-73.818742	
17.91	0.15857528	-95.364891	0.4487667	46.503063	0.44819873	46.570863	0.071886168	-60.065885	
18.01	0.15176702	-89.912667	0.44784109	44.398236	0.44701691	44.441936	0.069414609	-49.255188	
18.11	0.14802969	-88.311545	0.44979125	42.187024	0.4492737	42.268722	0.071208276	-40.995712	
18.21	0.13886041	-90.047035	0.45282683	39.493006	0.45240996	39.551705	0.068218409	-29.82488	
18.31	0.12249472	-92.512535	0.45369399	36.531737	0.45322413	36.585237	0.068576716	-18.329101	
18.41	0.099088048	-95.914313	0.45351552	33.358638	0.45304584	33.430338	0.067420998	0.024389313	
18.51	0.075227286	-99.257301	0.45221375	30.559302	0.45179744	30.605802	0.066329606	11.847121	
18.61	0.053294943	-108.36431	0.45175822	27.687414	0.45118647	27.756414	0.07458551	24.780971	
18.71	0.036056461	-132.3229	0.45199068	24.681122	0.4514706	24.715222	0.083230304	36.611409	
18.81	0.031682845	166.84225	0.45080569	21.140558	0.45002785	21.175158	0.10278538	48.685037	
18.91	0.058830793	130.79938	0.44818532	17.614352	0.44756655	17.657451	0.11913668	58.53988	
19.01	0.089481291	116.04356	0.44207097	14.328143	0.44161313	14.355544	0.1404584	62.802183	
19.11	0.11886434	106.61729	0.43521867	11.313771	0.43486807	11.377171	0.16075312	67.276879	
19.21	0.14626973	104.3605	0.43134608	8.5415885	0.43075056	8.5893885	0.18080656	70.112448	
19.31	0.17484151	104.60007	0.42958076	5.4317747	0.42903707	5.4904747	0.20360072	73.85817	
