! Device:      ADRF5700					
! Description: 2 dB LSB, 5-Bit, Silicon Digital Attenuator, 100 MHz to 22 GHz			
! Frequency:   10MHz -  30.00 GHz						
! Ports:       										
!        RF1 = Port 1
!        RF2 = Port 2
!						
! VDD  =  +3.30 Volts
! VSS  =  -3.30 Volts
!				
! State:        12.00 dB attenuation 	
! Data:  Data was collected using an calibrated 4 port network analyzer 						
!             The reference plane is the edge of the device.
! Notes: Analog Devices supplies this data as a sample of measured data						
!             for this product.  Your particular data for this product may vary.						
!             Data was taken at 25 degrees C.						
!             Analog Devices reserves the right to change this data at anytime.	
!
# GHz S  dB   R 50
0.0100 -31.9093 -18.6129 -13.1353 0.0458 -13.1309 0.1057 -32.1536 -4.7484
0.0475 -32.4079 -3.8916 -13.1764 -0.5538 -13.1473 -0.5402 -32.1813 12.7473
0.0850 -31.9506 -1.9636 -13.1692 -1.0559 -13.1441 -1.0798 -31.6468 13.9728
0.1225 -31.8724 -1.3652 -13.1704 -1.5441 -13.1437 -1.5260 -31.4554 14.8812
0.1600 -31.7948 -2.8241 -13.1787 -2.0038 -13.1465 -2.0167 -31.4312 14.1651
0.1974 -31.4930 -4.6551 -13.1839 -2.4666 -13.1514 -2.4887 -31.3078 12.5556
0.2349 -31.1704 -5.0238 -13.1860 -2.8783 -13.1563 -2.9428 -31.0727 11.5420
0.2724 -31.0944 -4.9497 -13.1870 -3.3939 -13.1624 -3.3935 -30.9274 11.0355
0.3099 -31.1077 -6.0161 -13.1873 -3.8843 -13.1673 -3.8059 -30.8703 10.1811
0.3474 -30.8854 -8.4948 -13.1922 -4.2891 -13.1627 -4.2555 -30.6946 8.3718
0.3849 -30.5066 -9.5995 -13.1925 -4.6752 -13.1681 -4.7238 -30.4168 7.4025
0.4224 -30.2473 -9.1088 -13.1903 -5.1466 -13.1664 -5.1503 -30.1765 8.0085
0.4599 -30.2301 -8.6461 -13.1979 -5.6164 -13.1672 -5.5806 -30.1763 8.9591
0.4973 -30.3070 -9.8289 -13.2026 -6.0657 -13.1712 -6.0408 -30.3546 8.6871
0.5348 -30.1799 -11.8573 -13.2037 -6.5543 -13.1728 -6.4829 -30.4341 6.6448
0.5723 -29.9319 -12.6861 -13.2063 -6.9383 -13.1778 -6.9350 -30.3209 5.0676
0.6098 -29.8087 -12.7351 -13.2083 -7.3405 -13.1797 -7.3537 -30.1450 4.3631
0.6473 -29.7897 -13.4708 -13.2085 -7.8597 -13.1784 -7.7883 -30.0807 4.1465
0.6848 -29.7112 -14.9226 -13.2117 -8.2686 -13.1815 -8.2396 -30.0397 3.7631
0.7223 -29.5289 -16.1008 -13.2128 -8.7212 -13.1852 -8.6840 -29.9929 3.0388
0.7598 -29.3967 -16.3681 -13.2137 -9.1821 -13.1886 -9.1077 -29.9852 2.5652
0.7972 -29.3333 -16.7288 -13.2188 -9.5624 -13.1892 -9.5475 -29.9933 2.3606
0.8347 -29.3002 -17.5241 -13.2205 -9.9986 -13.1930 -9.9990 -30.0904 1.6491
0.8722 -29.1941 -18.5651 -13.2222 -10.4556 -13.1952 -10.4240 -30.1147 -0.0746
0.9097 -29.1023 -19.3316 -13.2262 -10.8959 -13.1973 -10.8721 -30.0709 -1.4117
0.9472 -29.0507 -20.1803 -13.2265 -11.2572 -13.1989 -11.2992 -29.9417 -2.3633
0.9847 -28.9458 -21.2241 -13.2336 -11.7304 -13.2024 -11.7444 -29.8603 -2.8147
1.0222 -28.7900 -21.8448 -13.2320 -12.2166 -13.2026 -12.1711 -29.8220 -3.0906
1.0596 -28.6572 -22.2023 -13.2323 -12.6693 -13.2043 -12.6175 -29.8133 -3.5749
1.0971 -28.6300 -22.5768 -13.2371 -13.0720 -13.2086 -13.0481 -29.8505 -4.0560
1.1346 -28.6065 -23.6924 -13.2429 -13.4787 -13.2103 -13.4717 -29.8587 -5.1318
1.1721 -28.4797 -24.9326 -13.2450 -13.9330 -13.2135 -13.9257 -29.8421 -6.2912
1.2096 -28.2932 -25.5413 -13.2467 -14.3822 -13.2183 -14.3442 -29.7624 -7.1211
1.2471 -28.1958 -25.5899 -13.2470 -14.8254 -13.2179 -14.7735 -29.6808 -7.3572
1.2846 -28.1949 -26.1546 -13.2517 -15.3092 -13.2205 -15.2139 -29.6792 -7.9636
1.3221 -28.1281 -27.4260 -13.2574 -15.6927 -13.2249 -15.6423 -29.7008 -8.6100
1.3596 -27.9380 -28.2415 -13.2584 -16.0839 -13.2266 -16.0636 -29.6892 -9.0702
1.3970 -27.7755 -28.0986 -13.2560 -16.5912 -13.2265 -16.5029 -29.7173 -9.5700
1.4345 -27.7557 -28.0584 -13.2593 -16.9951 -13.2308 -16.9456 -29.7989 -10.1893
1.4720 -27.8014 -28.9128 -13.2647 -17.4035 -13.2323 -17.3609 -29.8757 -11.4679
1.5095 -27.7193 -30.2805 -13.2695 -17.8531 -13.2345 -17.8135 -29.8614 -13.0805
1.5470 -27.5547 -30.9655 -13.2688 -18.2561 -13.2378 -18.2465 -29.7736 -14.2751
1.5845 -27.4460 -31.0584 -13.2710 -18.6752 -13.2396 -18.6746 -29.7255 -14.7317
1.6220 -27.4274 -31.2671 -13.2729 -19.1230 -13.2414 -19.0951 -29.7392 -15.3051
1.6595 -27.4015 -32.2492 -13.2747 -19.5593 -13.2465 -19.5371 -29.7577 -16.3016
1.6969 -27.2684 -32.9830 -13.2765 -19.9953 -13.2496 -19.9642 -29.7633 -17.3166
1.7344 -27.1398 -33.2008 -13.2778 -20.4516 -13.2515 -20.3866 -29.7559 -18.1221
1.7719 -27.1116 -33.1336 -13.2811 -20.8495 -13.2508 -20.8116 -29.7514 -19.0570
1.8094 -27.1180 -33.7513 -13.2857 -21.2432 -13.2541 -21.2320 -29.7254 -20.2363
1.8469 -27.0684 -34.5575 -13.2844 -21.6952 -13.2548 -21.6611 -29.6475 -21.5228
1.8844 -26.9693 -35.1444 -13.2858 -22.1234 -13.2570 -22.0816 -29.5740 -22.1042
1.9219 -26.8976 -35.4401 -13.2879 -22.5835 -13.2590 -22.5192 -29.5301 -22.6814
1.9594 -26.8483 -35.7543 -13.2897 -23.0347 -13.2604 -22.9417 -29.5037 -23.2992
1.9968 -26.8011 -36.2051 -13.2909 -23.4227 -13.2628 -23.3859 -29.5074 -24.2031
2.0343 -26.7653 -36.5968 -13.2973 -23.8507 -13.2656 -23.8124 -29.5019 -24.8413
2.0718 -26.7390 -37.1338 -13.3022 -24.2794 -13.2670 -24.2394 -29.5173 -25.6655
2.1093 -26.7088 -37.7193 -13.3055 -24.6822 -13.2703 -24.6509 -29.5354 -26.6973
2.1468 -26.6651 -38.3264 -13.3084 -25.1375 -13.2724 -25.0818 -29.4839 -27.8414
2.1843 -26.6228 -38.6817 -13.3083 -25.5277 -13.2737 -25.5002 -29.4013 -28.9029
2.2218 -26.6033 -39.2117 -13.3094 -25.9579 -13.2751 -25.9143 -29.3495 -29.4573
2.2593 -26.5786 -39.8604 -13.3101 -26.4479 -13.2759 -26.3323 -29.3951 -29.9326
2.2967 -26.5204 -40.3688 -13.3145 -26.8719 -13.2776 -26.7630 -29.4282 -30.8100
2.3342 -26.4428 -40.5897 -13.3203 -27.2865 -13.2782 -27.1848 -29.3853 -31.7642
2.3717 -26.4603 -40.5459 -13.3205 -27.6495 -13.2789 -27.5985 -29.3842 -32.2055
2.4092 -26.5261 -41.0707 -13.3179 -28.0843 -13.2803 -28.0326 -29.4422 -32.6028
2.4467 -26.5140 -42.0575 -13.3216 -28.6092 -13.2828 -28.4508 -29.5236 -33.5341
2.4842 -26.4284 -42.7092 -13.3230 -29.0002 -13.2822 -28.8739 -29.5290 -35.0519
2.5217 -26.3693 -42.7559 -13.3283 -29.3986 -13.2851 -29.3013 -29.4636 -36.2450
2.5592 -26.4351 -42.9379 -13.3327 -29.8133 -13.2882 -29.7056 -29.4012 -36.8046
2.5966 -26.4879 -43.8801 -13.3315 -30.2544 -13.2901 -30.1131 -29.4109 -37.4399
2.6341 -26.3976 -44.9109 -13.3326 -30.6775 -13.2884 -30.5589 -29.4436 -38.3999
2.6716 -26.2769 -45.0829 -13.3339 -31.0721 -13.2924 -30.9584 -29.4198 -39.4699
2.7091 -26.2966 -44.7882 -13.3279 -31.5041 -13.2914 -31.3783 -29.3755 -40.2357
2.7466 -26.4109 -45.2799 -13.3262 -31.9583 -13.2917 -31.7963 -29.4110 -40.7711
2.7841 -26.4535 -46.6007 -13.3320 -32.3756 -13.2912 -32.2327 -29.4997 -41.8842
2.8216 -26.3515 -47.4789 -13.3383 -32.7907 -13.2952 -32.6469 -29.5026 -43.3073
2.8591 -26.2675 -47.3211 -13.3372 -33.2049 -13.2938 -33.0800 -29.4365 -44.7611
2.8965 -26.3941 -47.1760 -13.3377 -33.6070 -13.2970 -33.5131 -29.3966 -45.2583
2.9340 -26.5291 -48.2575 -13.3419 -34.0274 -13.2976 -33.9355 -29.4110 -45.8862
2.9715 -26.4752 -49.6888 -13.3440 -34.4578 -13.2954 -34.3584 -29.4465 -46.8429
3.0090 -26.3401 -50.0064 -13.3450 -34.8914 -13.3010 -34.8071 -29.4261 -47.9406
3.0465 -26.3446 -49.4675 -13.3466 -35.3345 -13.3005 -35.2022 -29.4045 -48.9086
3.0840 -26.5214 -49.8724 -13.3456 -35.7332 -13.3023 -35.6412 -29.4107 -49.5706
3.1215 -26.5922 -51.4014 -13.3469 -36.1453 -13.3056 -36.0724 -29.4419 -50.6336
3.1590 -26.4975 -52.4371 -13.3492 -36.5746 -13.3045 -36.4794 -29.4378 -51.8567
3.1964 -26.4226 -52.3278 -13.3479 -36.9831 -13.3040 -36.9123 -29.4177 -52.8973
3.2339 -26.5486 -52.3630 -13.3460 -37.4150 -13.3060 -37.3474 -29.3864 -53.8929
3.2714 -26.6932 -53.7304 -13.3459 -37.8456 -13.3109 -37.7586 -29.3462 -55.0005
3.3089 -26.6169 -55.4682 -13.3459 -38.2713 -13.3072 -38.1906 -29.3028 -55.9600
3.3464 -26.4470 -55.8022 -13.3506 -38.6889 -13.3098 -38.6330 -29.2578 -56.6530
3.3839 -26.4609 -55.3150 -13.3506 -39.1333 -13.3117 -39.0597 -29.2898 -57.2368
3.4214 -26.6509 -55.7117 -13.3517 -39.5535 -13.3134 -39.4680 -29.3603 -58.4148
3.4589 -26.7341 -57.4180 -13.3497 -39.9484 -13.3104 -39.8903 -29.3534 -60.1433
3.4963 -26.5981 -58.7855 -13.3556 -40.3796 -13.3142 -40.3144 -29.2609 -61.7214
3.5338 -26.5254 -58.8937 -13.3532 -40.8480 -13.3150 -40.7390 -29.1675 -62.6961
3.5713 -26.6567 -59.0575 -13.3492 -41.2730 -13.3139 -41.1738 -29.1509 -63.7035
3.6088 -26.8113 -60.7507 -13.3526 -41.6536 -13.3156 -41.5927 -29.1379 -65.1406
3.6463 -26.7342 -62.7905 -13.3535 -42.0878 -13.3176 -42.0241 -29.0450 -66.6779
3.6838 -26.5574 -63.4714 -13.3546 -42.5467 -13.3181 -42.4488 -28.9697 -67.7104
3.7213 -26.5829 -63.2445 -13.3563 -42.9602 -13.3196 -42.8798 -28.9688 -68.5124
3.7588 -26.7641 -64.1016 -13.3562 -43.3664 -13.3198 -43.2871 -29.0195 -69.9675
3.7962 -26.8230 -66.1407 -13.3575 -43.7780 -13.3201 -43.7157 -28.9710 -71.9884
3.8337 -26.6772 -67.5841 -13.3562 -44.2188 -13.3183 -44.1607 -28.8205 -73.5779
3.8712 -26.5979 -67.6335 -13.3584 -44.6772 -13.3226 -44.5809 -28.7264 -74.2657
3.9087 -26.7181 -67.8364 -13.3581 -45.0949 -13.3223 -45.0075 -28.7216 -75.2101
3.9462 -26.8806 -69.4081 -13.3603 -45.5227 -13.3226 -45.4370 -28.6951 -76.5547
3.9837 -26.8288 -71.4334 -13.3612 -45.9457 -13.3252 -45.8754 -28.5753 -78.0962
4.0212 -26.6822 -72.2586 -13.3600 -46.3801 -13.3270 -46.2846 -28.4459 -78.7867
4.0587 -26.6707 -72.2694 -13.3626 -46.8351 -13.3269 -46.7307 -28.4210 -79.2837
4.0961 -26.8124 -72.9657 -13.3596 -47.2368 -13.3265 -47.1346 -28.4495 -80.5347
4.1336 -26.8553 -74.7742 -13.3638 -47.6625 -13.3256 -47.5553 -28.3824 -82.4271
4.1711 -26.7501 -76.2473 -13.3681 -48.1045 -13.3297 -48.0019 -28.2108 -83.9428
4.2086 -26.6531 -76.7413 -13.3660 -48.5171 -13.3295 -48.4265 -28.0505 -84.5412
4.2461 -26.6986 -77.2243 -13.3687 -48.9632 -13.3283 -48.8580 -27.9909 -85.0537
4.2836 -26.7669 -78.5481 -13.3667 -49.3955 -13.3309 -49.2975 -27.9735 -86.3775
4.3211 -26.7148 -80.3129 -13.3642 -49.8033 -13.3291 -49.7220 -27.8250 -87.8744
4.3586 -26.5967 -81.2890 -13.3695 -50.2040 -13.3317 -50.1392 -27.6352 -88.7664
4.3960 -26.5378 -81.8420 -13.3697 -50.6561 -13.3327 -50.5803 -27.5389 -89.2084
4.4335 -26.5461 -82.6471 -13.3715 -51.1094 -13.3340 -51.0263 -27.4875 -90.0286
4.4710 -26.5124 -83.8984 -13.3733 -51.5179 -13.3356 -51.4476 -27.3824 -91.3646
4.5085 -26.4353 -85.0315 -13.3724 -51.9481 -13.3353 -51.8758 -27.2002 -92.4984
4.5460 -26.3852 -85.7711 -13.3732 -52.3946 -13.3370 -52.3116 -27.0548 -92.9537
4.5835 -26.3529 -86.5898 -13.3743 -52.8097 -13.3386 -52.7433 -26.9565 -93.4269
4.6210 -26.3160 -87.5272 -13.3735 -53.2274 -13.3361 -53.1446 -26.8947 -94.2168
4.6585 -26.2799 -88.5589 -13.3767 -53.6881 -13.3389 -53.6015 -26.7892 -95.3008
4.6959 -26.2273 -89.4456 -13.3775 -54.1066 -13.3397 -54.0314 -26.6265 -96.1253
4.7334 -26.1963 -90.3764 -13.3786 -54.5168 -13.3410 -54.4608 -26.4988 -96.6790
4.7709 -26.1191 -91.4582 -13.3791 -54.9541 -13.3405 -54.8892 -26.4015 -97.2300
4.8084 -26.0366 -92.3135 -13.3826 -55.3784 -13.3438 -55.3277 -26.2860 -98.1257
4.8459 -25.9850 -92.9497 -13.3801 -55.7867 -13.3443 -55.7474 -26.1158 -98.6676
4.8834 -25.9717 -93.8637 -13.3841 -56.2431 -13.3463 -56.1874 -25.9783 -98.8886
4.9209 -25.9013 -94.9834 -13.3837 -56.6621 -13.3474 -56.6065 -25.8793 -99.1809
4.9584 -25.7773 -95.8127 -13.3832 -57.1315 -13.3486 -57.0595 -25.8143 -99.6392
4.9958 -25.7115 -96.1188 -13.3847 -57.5180 -13.3480 -57.4557 -25.6954 -100.2898
5.0333 -25.7222 -96.7581 -13.3838 -57.9454 -13.3477 -57.8857 -25.5759 -100.7556
5.0708 -25.6907 -98.1280 -13.3874 -58.3762 -13.3495 -58.3441 -25.4634 -101.1089
5.1083 -25.5443 -99.3151 -13.3877 -58.8229 -13.3524 -58.7762 -25.3700 -101.5515
5.1458 -25.3833 -99.6557 -13.3860 -59.2395 -13.3526 -59.1964 -25.2386 -101.9580
5.1833 -25.3622 -99.7945 -13.3885 -59.6849 -13.3523 -59.6293 -25.1297 -102.3323
5.2208 -25.3818 -100.6940 -13.3891 -60.1225 -13.3524 -60.0671 -25.0019 -102.4652
5.2583 -25.2850 -102.0559 -13.3918 -60.5619 -13.3533 -60.4986 -24.9087 -102.6125
5.2957 -25.1073 -102.6763 -13.3982 -60.9769 -13.3574 -60.9213 -24.8303 -102.9208
5.3332 -25.0142 -102.6023 -13.3949 -61.3937 -13.3564 -61.3575 -24.7521 -103.2276
5.3707 -25.0446 -103.0322 -13.3968 -61.8289 -13.3559 -61.8019 -24.6327 -103.6841
5.4082 -25.0108 -104.3082 -13.3969 -62.2564 -13.3591 -62.2294 -24.5194 -104.1405
5.4457 -24.8447 -105.4543 -13.3963 -62.7045 -13.3595 -62.6681 -24.3873 -104.3321
5.4832 -24.6755 -105.5706 -13.3971 -63.1233 -13.3632 -63.0905 -24.2683 -104.3560
5.5207 -24.6572 -105.4298 -13.3982 -63.5377 -13.3638 -63.5183 -24.1903 -104.3335
5.5582 -24.6957 -106.2922 -13.3988 -63.9866 -13.3653 -63.9445 -24.1267 -104.5102
5.5956 -24.5964 -107.6901 -13.4006 -64.4332 -13.3666 -64.4045 -24.0345 -104.8343
5.6331 -24.3994 -108.2105 -13.4071 -64.8664 -13.3684 -64.8314 -23.9397 -105.0186
5.6706 -24.3022 -107.8572 -13.4089 -65.2784 -13.3724 -65.2553 -23.8678 -104.9874
5.7081 -24.3530 -108.0500 -13.4085 -65.7051 -13.3728 -65.6759 -23.8115 -105.1413
5.7456 -24.3598 -109.1915 -13.4110 -66.1558 -13.3736 -66.1189 -23.7354 -105.4879
5.7831 -24.1997 -110.2832 -13.4119 -66.5801 -13.3751 -66.5380 -23.6185 -105.6787
5.8206 -24.0320 -110.3433 -13.4162 -67.0085 -13.3757 -66.9633 -23.5129 -105.5913
5.8581 -24.0086 -110.2319 -13.4150 -67.4681 -13.3737 -67.4183 -23.4746 -105.3772
5.8955 -24.0348 -110.9693 -13.4165 -67.8874 -13.3792 -67.8466 -23.4477 -105.5705
5.9330 -23.9402 -112.0685 -13.4158 -68.3197 -13.3815 -68.2795 -23.3766 -106.0494
5.9705 -23.7684 -112.5260 -13.4182 -68.7402 -13.3846 -68.6917 -23.2598 -106.2106
6.0080 -23.6876 -112.2604 -13.4185 -69.2018 -13.3842 -69.1433 -23.1768 -105.9700
6.0455 -23.7323 -112.4838 -13.4252 -69.6206 -13.3897 -69.5665 -23.1601 -105.8317
6.0830 -23.7020 -113.4993 -13.4247 -70.0332 -13.3890 -69.9880 -23.1369 -106.0850
6.1205 -23.5618 -114.2392 -13.4237 -70.4908 -13.3883 -70.4289 -23.0604 -106.5611
6.1580 -23.4355 -114.1968 -13.4308 -70.9294 -13.3919 -70.8482 -22.9452 -106.4498
6.1954 -23.4362 -114.0692 -13.4334 -71.3537 -13.3941 -71.2914 -22.8952 -106.0425
6.2329 -23.4689 -114.7712 -13.4337 -71.7886 -13.3961 -71.7264 -22.9113 -105.9796
6.2704 -23.3815 -115.7269 -13.4317 -72.2278 -13.3981 -72.1499 -22.9045 -106.3364
6.3079 -23.2328 -116.0309 -13.4332 -72.6576 -13.4000 -72.5804 -22.8160 -106.6577
6.3454 -23.1678 -115.8235 -13.4323 -73.0733 -13.3996 -73.0012 -22.7219 -106.5271
6.3829 -23.2042 -116.0524 -13.4339 -73.4913 -13.4014 -73.4234 -22.7129 -106.2546
6.4204 -23.1791 -116.9637 -13.4388 -73.9239 -13.4051 -73.8492 -22.7266 -106.3645
6.4579 -23.0509 -117.5517 -13.4417 -74.3564 -13.4070 -74.2884 -22.6803 -106.7929
6.4953 -22.9561 -117.5071 -13.4422 -74.7908 -13.4093 -74.6968 -22.5941 -106.8497
6.5328 -22.9519 -117.4475 -13.4434 -75.2182 -13.4050 -75.1201 -22.5429 -106.4492
6.5703 -22.9680 -118.0855 -13.4484 -75.6825 -13.4082 -75.5752 -22.5674 -106.2022
6.6078 -22.9028 -118.8532 -13.4514 -76.0874 -13.4115 -75.9917 -22.6060 -106.4658
6.6453 -22.7970 -119.1442 -13.4499 -76.5094 -13.4125 -76.4171 -22.5616 -106.9298
6.6828 -22.7420 -119.1933 -13.4506 -76.9542 -13.4131 -76.8568 -22.4752 -106.9431
6.7203 -22.7421 -119.5079 -13.4545 -77.4021 -13.4157 -77.3070 -22.4403 -106.6197
6.7578 -22.6975 -120.1124 -13.4556 -77.7987 -13.4183 -77.7237 -22.4727 -106.4927
6.7952 -22.6080 -120.4612 -13.4583 -78.2199 -13.4199 -78.1424 -22.4905 -106.7762
6.8327 -22.5493 -120.5083 -13.4573 -78.6771 -13.4196 -78.5848 -22.4488 -107.0768
6.8702 -22.5455 -120.7526 -13.4604 -79.0711 -13.4243 -79.0022 -22.3924 -106.9502
6.9077 -22.5176 -121.3996 -13.4598 -79.5194 -13.4240 -79.4308 -22.3983 -106.7673
6.9452 -22.4364 -121.8714 -13.4634 -79.9644 -13.4254 -79.8701 -22.4233 -106.7735
6.9827 -22.3717 -121.9069 -13.4654 -80.3936 -13.4269 -80.3141 -22.4230 -107.0212
7.0202 -22.3627 -122.0074 -13.4684 -80.8056 -13.4300 -80.7273 -22.4029 -107.1396
7.0577 -22.3514 -122.5130 -13.4686 -81.2316 -13.4309 -81.1373 -22.3804 -106.9951
7.0951 -22.2665 -123.0171 -13.4709 -81.6802 -13.4314 -81.5939 -22.3938 -106.9250
7.1326 -22.1952 -122.9961 -13.4735 -82.1149 -13.4350 -82.0330 -22.4290 -106.9819
7.1701 -22.1991 -122.9408 -13.4778 -82.5365 -13.4364 -82.4451 -22.4278 -107.1444
7.2076 -22.2189 -123.3943 -13.4794 -82.9505 -13.4410 -82.8695 -22.4191 -107.1315
7.2451 -22.1515 -124.1458 -13.4748 -83.4028 -13.4383 -83.3087 -22.4134 -107.1304
7.2826 -22.0491 -124.3801 -13.4785 -83.8351 -13.4438 -83.7345 -22.4390 -107.2075
7.3201 -22.0082 -124.1484 -13.4842 -84.2384 -13.4440 -84.1390 -22.4566 -107.2775
7.3576 -22.0457 -124.3088 -13.4841 -84.6944 -13.4433 -84.5980 -22.4523 -107.3894
7.3950 -22.0548 -125.0621 -13.4878 -85.1070 -13.4505 -85.0238 -22.4577 -107.3677
7.4325 -21.9564 -125.6671 -13.4874 -85.5383 -13.4485 -85.4275 -22.4782 -107.3926
7.4700 -21.8600 -125.6804 -13.4893 -85.9674 -13.4490 -85.8735 -22.5077 -107.3601
7.5075 -21.8618 -125.4644 -13.4911 -86.4280 -13.4519 -86.3201 -22.5404 -107.5608
7.5450 -21.9015 -125.8487 -13.4942 -86.8283 -13.4570 -86.7229 -22.5642 -107.6648
7.5825 -21.8488 -126.5877 -13.4916 -87.2519 -13.4550 -87.1434 -22.5767 -107.7752
7.6200 -21.7559 -126.8204 -13.4939 -87.6857 -13.4583 -87.6050 -22.5902 -107.8475
7.6575 -21.7383 -126.6139 -13.5014 -88.1170 -13.4624 -88.0165 -22.6290 -107.8927
7.6949 -21.7913 -126.7904 -13.5021 -88.5546 -13.4627 -88.4378 -22.6686 -107.9790
7.7324 -21.7876 -127.6716 -13.5044 -88.9652 -13.4644 -88.8761 -22.7093 -108.0876
7.7699 -21.6904 -128.2964 -13.5050 -89.4012 -13.4636 -89.3029 -22.7380 -108.3059
7.8074 -21.6068 -128.2051 -13.5115 -89.8274 -13.4684 -89.7274 -22.7846 -108.4820
7.8449 -21.6097 -127.9920 -13.5108 -90.2514 -13.4669 -90.1605 -22.8296 -108.6733
7.8824 -21.6460 -128.4650 -13.5146 -90.6992 -13.4744 -90.5976 -22.8626 -108.9235
7.9199 -21.6006 -129.0869 -13.5181 -91.1315 -13.4746 -91.0326 -22.8833 -109.2298
7.9574 -21.5275 -129.2459 -13.5223 -91.5357 -13.4797 -91.4462 -22.8875 -109.2429
7.9948 -21.5173 -129.0750 -13.5221 -91.9722 -13.4821 -91.8642 -22.9356 -109.1790
8.0323 -21.5586 -129.3392 -13.5197 -92.4075 -13.4818 -92.2855 -23.0194 -109.1830
8.0698 -21.5501 -130.1086 -13.5231 -92.8497 -13.4855 -92.7341 -23.1059 -109.5890
8.1073 -21.4685 -130.5598 -13.5264 -93.2512 -13.4873 -93.1242 -23.1557 -110.0440
8.1448 -21.3925 -130.6341 -13.5268 -93.6901 -13.4858 -93.5737 -23.1727 -110.2934
8.1823 -21.3866 -130.6142 -13.5301 -94.1076 -13.4931 -94.0081 -23.2297 -110.3850
8.2198 -21.3801 -130.9008 -13.5311 -94.5209 -13.4947 -94.4040 -23.3056 -110.7664
8.2573 -21.3269 -131.2515 -13.5284 -94.9364 -13.4914 -94.8279 -23.3465 -111.1091
8.2947 -21.2921 -131.3691 -13.5312 -95.4085 -13.4975 -95.2699 -23.3661 -111.3679
8.3322 -21.2828 -131.4513 -13.5348 -95.8032 -13.4978 -95.6637 -23.4243 -111.3222
8.3697 -21.2645 -131.8989 -13.5347 -96.2444 -13.4966 -96.1119 -23.5255 -111.5198
8.4072 -21.2010 -132.2828 -13.5347 -96.6669 -13.4998 -96.5156 -23.6241 -112.0458
8.4447 -21.1430 -132.3405 -13.5389 -97.1123 -13.5010 -96.9615 -23.6550 -112.7458
8.4822 -21.1545 -132.2667 -13.5421 -97.5310 -13.5041 -97.3682 -23.6557 -112.9983
8.5197 -21.1808 -132.7234 -13.5421 -97.9467 -13.5043 -97.7909 -23.7116 -112.9831
8.5572 -21.1294 -133.4331 -13.5400 -98.3860 -13.5034 -98.2234 -23.8152 -113.2457
8.5946 -21.0407 -133.6830 -13.5473 -98.8096 -13.5081 -98.6590 -23.9191 -113.8634
8.6321 -21.0080 -133.5854 -13.5467 -99.2433 -13.5071 -99.0960 -23.9417 -114.4225
8.6696 -21.0517 -133.7921 -13.5456 -99.6632 -13.5092 -99.5077 -23.9874 -114.6453
8.7071 -21.0473 -134.5961 -13.5466 -100.0869 -13.5117 -99.9448 -24.0975 -114.8114
8.7446 -20.9485 -135.1508 -13.5519 -100.5281 -13.5142 -100.3621 -24.2422 -115.5671
8.7821 -20.8606 -134.9804 -13.5488 -100.9592 -13.5134 -100.7970 -24.2985 -116.4300
8.8196 -20.8875 -134.7483 -13.5501 -101.3764 -13.5135 -101.2158 -24.3105 -116.9538
8.8571 -20.9557 -135.2830 -13.5517 -101.8296 -13.5185 -101.6554 -24.3717 -117.0586
8.8945 -20.9113 -136.0419 -13.5504 -102.2223 -13.5171 -102.0490 -24.5119 -117.4634
8.9320 -20.8018 -136.2561 -13.5496 -102.6642 -13.5153 -102.4940 -24.6286 -118.3817
8.9695 -20.7900 -135.8881 -13.5538 -103.1326 -13.5166 -102.9437 -24.6582 -119.3827
9.0070 -20.8766 -135.9765 -13.5620 -103.5425 -13.5222 -103.3496 -24.6712 -119.9079
