!
! Hittite Microwave Corporation
! 2 Elizabeth Drive
! Chelmsford, MA 01824
! http://www.hittite.com
! Tel: 978-250-3343
! Fax: 978-250-3373
! 
! Device:      HMC424LP3
! Description: 0.5 dB GaAs MMIC 6-Bit Digital Attenuator
! Frequency:    DC -  13.00 GHz
! Package:     LP3  - 3x3 mm Quad Flatpack No-Lead (QFN) Plastic Package: 16 pin
! Ports:       2 RF, 7 DC
!              Pad  1  = Ground
!              Pad  2  = RF IN   = Port 1
!              Pad  3  = Ground
!              Pad  4  = V6
!              Pad  5  = V5
!              Pad  6  = V4
!              Pad  7  = V3
!              Pad  8  = V2
!              Pad  9  = V1
!              Pad 10  = Ground
!              Pad 11  = RF OUT  = Port 2
!              Pad 12  = Ground
!              Pad 15  = VEE
!
! Control:     -5 Volt control voltage
! State:        6 
! Attenuation:  3.0 dB
! Voltages:    Vdd = -5.00 Volts  Idd =  -2.440 mA
!              V1  = 0.00 Volts  I1  =  30.0 uA
!              V2  = -5.00 Volts  I2  =  -1.0 uA
!              V3  = -5.00 Volts  I3  =  -1.0 uA
!              V4  = 0.00 Volts  I4  =  30.0 uA
!              V5  = 0.00 Volts  I5  =  29.0 uA
!              V6  = 0.00 Volts  I6  =  30.0 uA
!
! Data:    The device was measured on evaluation board 105354-1. 
!          Data was collected using a calibrated network analyzer.
!          The evaluation circuit board was modeled and simulated.  This was use
!          to removed the evaluation board circuit from the measured data.
!          The reference plane is the edge of the package pin.
!
! Misc:    Lot xxxx, Unit 1
!          Application 20120001, Data collected in Application 20090083
!
! Date Measured:  2009-09-15
! Date:           2012-05-14  MJV
! Note: 
!   Hittite supplies this data as a sample of measured data at the package pin
!   for this product.  Your particular data for this product may vary.
!   Data was taken at 25 degrees C.
!   Hittite reserves the right to change this data at anytime.
!
# GHz S MA R 50

0.01	0.014739185	150.4279	0.53144912	-1.3633657	0.53083762	-1.4000657	0.13268265	2.7847607	
0.11	0.018096045	-174.50669	0.52782502	-2.4770284	0.5273391	-2.4573284	0.12759764	-1.7903752	
0.21	0.018065695	-167.7001	0.52680125	-4.202561	0.52631627	-4.200661	0.1266002	-5.8904193	
0.31	0.016669613	-160.80448	0.5261189	-5.9526429	0.52545303	-5.9791429	0.13165565	-8.1890937	
0.41	0.017784663	-152.52952	0.52564455	-7.7102257	0.52528158	-7.6989257	0.13257831	-9.8399685	
0.51	0.018447737	-143.93119	0.52448795	-9.4927353	0.52412577	-9.5050353	0.13107805	-12.196525	
0.61	0.019747861	-139.27906	0.52403846	-11.219221	0.52343549	-11.204821	0.13204375	-15.960477	
0.71	0.020217383	-129.81944	0.52350644	-12.976066	0.52278369	-13.021566	0.13827725	-18.1793	
0.81	0.022039364	-125.0806	0.52305192	-14.684066	0.52220954	-14.656366	0.13803302	-19.008618	
0.91	0.023107953	-120.78431	0.52227936	-16.44504	0.52173847	-16.43634	0.13847694	-22.275647	
1.01	0.023101855	-116.94489	0.52179761	-18.11662	0.52125722	-18.14652	0.141706	-24.928764	
1.11	0.024748212	-112.19838	0.52148135	-19.850895	0.52058156	-19.855895	0.1479928	-25.873634	
1.21	0.026040635	-110.85559	0.52066776	-21.595377	0.52018843	-21.601877	0.14594535	-26.273522	
1.31	0.026636472	-109.28428	0.52024374	-23.313023	0.51946568	-23.313723	0.14801143	-29.574791	
1.41	0.026535364	-105.11794	0.51974815	-24.985472	0.51909034	-24.991272	0.15248316	-30.806898	
1.51	0.027957733	-103.70795	0.51949778	-26.718402	0.51878056	-26.707802	0.15618729	-31.106878	
1.61	0.028596539	-102.60151	0.51863103	-28.422006	0.51779576	-28.426006	0.15317812	-31.641437	
1.71	0.027927699	-102.9457	0.51810329	-30.09856	0.51726888	-30.10396	0.1547447	-34.673351	
1.81	0.028210356	-100.33138	0.51767216	-31.767079	0.51701699	-31.771479	0.15874109	-35.41994	
1.91	0.028630876	-101.58935	0.51751072	-33.513008	0.51661778	-33.479608	0.15938376	-35.897868	
2.01	0.028106354	-103.68935	0.51637099	-35.194727	0.51583622	-35.170927	0.15625587	-37.0285	
2.11	0.027108271	-104.52022	0.51615608	-36.856555	0.51556218	-36.856955	0.15817777	-40.176355	
2.21	0.027826815	-104.09629	0.51585306	-38.507932	0.51514088	-38.550032	0.16223617	-40.770665	
2.31	0.028285382	-106.17301	0.51553521	-40.266842	0.51452719	-40.209742	0.16128392	-41.468062	
2.41	0.027846761	-109.41429	0.51452816	-41.844904	0.51381781	-41.868304	0.15905678	-43.419398	
2.51	0.027594981	-110.23541	0.51443259	-43.606325	0.51366322	-43.538325	0.16220994	-46.38404	
2.61	0.028913597	-112.6628	0.5143075	-45.268028	0.51342009	-45.260528	0.16595898	-46.682279	
2.71	0.029925559	-116.12085	0.51352615	-46.997372	0.51293527	-46.970872	0.16333385	-48.024479	
2.81	0.029936463	-120.62189	0.51297842	-48.620174	0.51238817	-48.637974	0.1626684	-50.484266	
2.91	0.031424339	-120.8672	0.51273944	-50.275359	0.51238537	-50.322359	0.16621591	-53.074424	
3.01	0.033670253	-124.66506	0.51230991	-52.049369	0.51160262	-52.016769	0.16937761	-53.348817	
3.11	0.035325105	-128.62369	0.51158436	-53.708091	0.51111339	-53.692491	0.16528815	-55.118994	
3.21	0.036223559	-131.5623	0.51082842	-55.374052	0.51059323	-55.348352	0.16578535	-58.069984	
3.31	0.038615056	-133.63043	0.51078682	-57.071171	0.5100229	-57.003171	0.16921325	-60.044856	
3.41	0.041785404	-136.50141	0.50991645	-58.743174	0.50968168	-58.749374	0.17047308	-60.705241	
3.51	0.043571552	-139.30516	0.50920777	-60.388887	0.50844622	-60.392387	0.16661515	-63.020828	
3.61	0.04572574	-141.06524	0.50880725	-62.06526	0.50798781	-62.05226	0.16897282	-66.35467	
3.71	0.04884644	-141.64036	0.50841669	-63.739896	0.50765632	-63.747796	0.17287707	-68.059037	
3.81	0.051630569	-143.48986	0.50763265	-65.447255	0.50687345	-65.434455	0.17282378	-68.907057	
3.91	0.053032171	-145.22613	0.50660556	-67.078957	0.50625573	-67.043357	0.16976722	-71.888845	
4.01	0.054765524	-136.17383	0.50686593	-68.686577	0.50634101	-68.693577	0.18335063	-73.163197	
4.11	0.056911902	-136.75013	0.50623125	-70.39302	0.50564877	-70.38842	0.18673791	-73.953035	
4.21	0.058470582	-137.30218	0.50539328	-72.040663	0.50504428	-72.015863	0.18676719	-74.836986	
4.31	0.058721094	-136.46025	0.50498881	-73.642538	0.50417552	-73.689238	0.18617587	-77.250088	
4.41	0.059480737	-135.46647	0.50454288	-75.338599	0.50373031	-75.282699	0.19301112	-78.762554	
4.51	0.060248766	-135.42823	0.5035975	-76.999991	0.50307596	-77.004491	0.19515975	-78.594485	
4.61	0.059997382	-135.1364	0.50294712	-78.668307	0.50231058	-78.664207	0.19447595	-79.224016	
4.71	0.059393068	-133.23063	0.50254105	-80.261265	0.50167395	-80.264565	0.19427871	-80.884095	
4.81	0.059245994	-131.73587	0.5020912	-81.914758	0.5013403	-81.895858	0.20092877	-81.640461	
4.91	0.058470741	-130.58463	0.50083319	-83.609485	0.50002659	-83.600185	0.20081146	-80.863903	
5.01	0.056677209	-128.5735	0.5005372	-85.177016	0.49978861	-85.191316	0.19907877	-81.495263	
5.11	0.055100721	-124.68719	0.49999815	-86.80465	0.49936535	-86.79975	0.19946593	-82.634999	
5.21	0.054083588	-122.32001	0.49934296	-88.44719	0.4989407	-88.46309	0.20503211	-83.047417	
5.31	0.052432141	-119.08496	0.49835667	-90.105026	0.49812722	-90.123026	0.20425585	-81.736938	
5.41	0.050111799	-113.86501	0.49827177	-91.714405	0.49764114	-91.702505	0.20233106	-82.623155	
5.51	0.049596255	-108.4424	0.4980066	-93.304754	0.49731905	-93.310454	0.20469575	-83.202945	
5.61	0.048643078	-102.85546	0.49762423	-94.956153	0.49705165	-94.946353	0.20940955	-83.072131	
5.71	0.046878076	-97.489239	0.49700681	-96.615913	0.49620638	-96.599113	0.20843473	-81.694931	
5.81	0.047037607	-89.444302	0.49697368	-98.210856	0.49600196	-98.218856	0.20643975	-82.512376	
5.91	0.047089831	-84.001678	0.49647067	-99.862346	0.49589942	-99.857646	0.21083455	-82.748257	
6.01	0.04772689	-77.32822	0.49614961	-101.50327	0.49557872	-101.50327	0.21455662	-81.974238	
6.11	0.048384334	-70.339333	0.4955994	-103.17299	0.49491518	-103.15739	0.21269012	-80.60408	
6.21	0.050602633	-62.661277	0.49565365	-104.80547	0.49462756	-104.78007	0.21007074	-81.370984	
6.31	0.052043398	-57.963255	0.4954834	-106.47985	0.49485631	-106.45915	0.21438712	-81.341726	
6.41	0.053853848	-50.968348	0.49496262	-108.13781	0.49422237	-108.09981	0.21505067	-80.307056	
6.51	0.056082238	-44.592688	0.49429747	-109.81461	0.49378556	-109.77571	0.21195433	-79.269117	
6.61	0.058726426	-39.456707	0.49480175	-111.49729	0.49411863	-111.47109	0.20795281	-80.243786	
6.71	0.05993673	-35.149758	0.49465783	-113.18514	0.49380433	-113.17964	0.21017467	-80.473291	
6.81	0.062072133	-30.122271	0.49427813	-114.88589	0.49342528	-114.89049	0.20710552	-79.820169	
6.91	0.064185024	-25.605168	0.49430339	-116.61234	0.49345049	-116.59624	0.20204218	-79.915549	
7.01	0.065211678	-21.886585	0.49445128	-118.35515	0.49393921	-118.33955	0.19604995	-81.449138	
7.11	0.065297686	-17.299522	0.49446772	-120.12325	0.49406939	-120.08975	0.19709324	-82.492079	
7.21	0.065851055	-12.451252	0.49416125	-121.85746	0.49364948	-121.81546	0.1906709	-82.332687	
7.31	0.066425017	-7.6145277	0.49463759	-123.63282	0.4939547	-123.61482	0.1834777	-84.215408	
7.41	0.06582132	-2.7890776	0.49512802	-125.44812	0.49438752	-125.40492	0.17826974	-86.828031	
7.51	0.065984283	3.2692121	0.4952485	-127.24693	0.49456476	-127.21853	0.17687659	-88.721676	
7.61	0.065967492	9.0929843	0.49487904	-129.071	0.49425271	-129.0331	0.16865485	-89.634293	
7.71	0.06611278	14.90298	0.49533187	-130.92989	0.49464802	-130.88469	0.16034443	-93.117554	
7.81	0.065591387	21.854724	0.49564035	-132.80347	0.49489909	-132.79447	0.15488131	-96.864195	
7.91	0.067411524	28.838062	0.49539898	-134.67629	0.49465808	-134.65899	0.15137812	-99.943283	
8.01	0.06962835	35.533123	0.49469874	-136.55913	0.49418642	-136.55783	0.14164015	-102.71959	
8.11	0.071253558	42.61846	0.49523121	-138.52078	0.49454749	-138.48768	0.13466773	-108.84832	
8.21	0.07461596	49.486061	0.49491224	-140.45766	0.49411518	-140.43776	0.13106565	-114.3241	
8.31	0.078894681	55.55224	0.49453669	-142.36161	0.49379708	-142.35081	0.12796302	-119.03834	
8.41	0.083392457	61.124203	0.49376877	-144.29882	0.49320062	-144.27742	0.12025625	-124.85164	
8.51	0.088090912	66.74677	0.49392259	-146.28898	0.49312713	-146.26088	0.11969932	-133.71435	
8.61	0.094270429	71.36737	0.49311008	-148.29945	0.49242929	-148.25185	0.12258957	-140.24149	
8.71	0.10013335	75.505047	0.49231254	-150.2157	0.49157625	-150.1978	0.12391807	-145.87819	
8.81	0.10572956	79.356679	0.49107792	-152.18735	0.49045641	-152.17715	0.12393007	-153.1751	
8.91	0.11095808	83.064367	0.49091398	-154.19846	0.49034912	-154.18426	0.13337375	-160.18045	
9.01	0.11623743	85.586393	0.48979578	-156.15732	0.48906326	-156.14942	0.14057344	-163.89707	
9.11	0.12162801	87.872584	0.48850572	-158.07649	0.48788746	-158.07109	0.14763004	-167.69186	
9.21	0.12486382	90.827132	0.48751701	-160.00618	0.48684395	-159.96158	0.15247387	-171.68246	
9.31	0.12948479	92.725315	0.48642376	-162.01723	0.48580813	-161.96463	0.16515844	-175.42085	
9.41	0.13246474	95.220387	0.4852284	-163.90246	0.48461428	-163.86176	0.172178	-175.89591	
9.51	0.13426628	97.03139	0.48319194	-165.73791	0.4825804	-165.71171	0.17648621	-178.29334	
9.61	0.13568707	99.209167	0.48209544	-167.62476	0.48159617	-167.59246	0.18558333	179.79492	
9.71	0.13508253	101.27146	0.48131051	-169.46555	0.48059068	-169.43715	0.19442582	178.90003	
9.81	0.13400348	103.09337	0.48004936	-171.30863	0.4794418	-171.31143	0.20025542	178.83194	
9.91	0.13205637	105.04211	0.47825433	-173.0719	0.47775904	-173.0599	0.20408948	177.79011	
10.01	0.13006271	107.06874	0.4773978	-174.92651	0.47668382	-174.86671	0.2125296	176.99195	
10.11	0.12733861	109.48286	0.47614611	-176.75888	0.475653	-176.71528	0.22032561	177.08279	
10.21	0.12341194	111.77643	0.47506905	-178.50936	0.47419475	-178.50196	0.22474056	177.93409	
10.31	0.11891065	114.90099	0.47335655	179.72101	0.47281189	179.78001	0.22739248	177.52026	
10.41	0.11509381	117.29022	0.47212283	177.94945	0.47147101	177.96405	0.23620197	177.66769	
10.51	0.11080131	120.72363	0.47090765	176.17744	0.47031166	176.22644	0.24319962	178.41914	
10.61	0.10575273	124.70653	0.46996399	174.50086	0.46931516	174.54546	0.24682078	179.42827	
10.71	0.1009905	128.88144	0.46868896	172.75198	0.46798801	172.80788	0.25027057	179.27715	
10.81	0.097304273	133.41896	0.46783092	170.9692	0.46734642	171.0352	0.25833508	179.72016	
10.91	0.092890295	138.48021	0.46665855	169.28228	0.46617527	169.30458	0.26302969	-179.11041	
11.01	0.090340931	143.91813	0.46561171	167.58841	0.46502242	167.60771	0.26503934	-178.32279	
11.11	0.087813191	150.13734	0.46460823	165.88052	0.46375318	165.91542	0.26726203	-178.19174	
11.21	0.086419488	155.49191	0.46360723	164.15588	0.46275402	164.19028	0.27368661	-177.76929	
11.31	0.085748737	161.22238	0.46238404	162.44353	0.46174568	162.50693	0.27614437	-176.81842	
11.41	0.086866151	166.836	0.4616446	160.79304	0.46090112	160.84384	0.27698063	-176.16917	
11.51	0.087943858	172.09816	0.46043336	159.13067	0.45995652	159.15477	0.27785741	-176.46576	
11.61	0.089520643	176.51008	0.4593447	157.35131	0.45860492	157.39381	0.28382147	-176.49378	
11.71	0.091834771	-178.84699	0.45823283	155.64277	0.45796913	155.70037	0.28454264	-175.93029	
11.81	0.095132115	-174.90273	0.45748705	153.96808	0.45696065	154.00648	0.28526892	-176.13488	
11.91	0.09829984	-171.57746	0.45608923	152.22809	0.45540712	152.28559	0.28682084	-176.52104	
12.01	0.10184601	-168.5687	0.45531191	150.47972	0.45468331	150.53822	0.29164118	-176.7709	
12.11	0.10594909	-165.85061	0.45411027	148.75735	0.45374445	148.82605	0.29196567	-176.48587	
12.21	0.11070046	-163.79421	0.4530184	147.06457	0.45254924	147.07967	0.29282857	-177.18043	
12.31	0.11546813	-162.10183	0.45148126	145.25733	0.45106562	145.29213	0.29627306	-177.68858	
12.41	0.12044982	-160.97794	0.44965187	143.4617	0.4491862	143.485	0.30153942	-177.9622	
12.51	0.12424074	-160.46133	0.44821153	141.75047	0.44743816	141.78627	0.30256045	-177.76713	
12.61	0.12776828	-159.37064	0.44638885	140.15203	0.44587522	140.18823	0.30408223	-178.88831	
12.71	0.13318086	-157.54139	0.44554228	138.445	0.44497839	138.5203	0.3091111	-179.37215	
12.81	0.13893116	-156.39559	0.44459167	136.74983	0.44387565	136.79373	0.31317	-179.67388	
12.91	0.14585911	-155.51888	0.44391395	134.99817	0.44335213	135.03727	0.31487761	-179.60137	
13.01	0.15192578	-154.95746	0.44284836	133.25306	0.44238974	133.32276	0.31723521	179.51771	
13.11	0.15972924	-154.52779	0.44126883	131.47656	0.44071036	131.54086	0.32264614	179.1554	
13.21	0.16748381	-154.09223	0.43998809	129.7225	0.43943123	129.7572	0.32677922	178.96127	
13.31	0.17466487	-153.94302	0.43858568	127.99629	0.43787933	128.02839	0.33001848	178.85161	
13.41	0.18284735	-153.8942	0.43717598	126.2677	0.43622073	126.2984	0.33352718	178.20489	
13.51	0.19158599	-153.64387	0.43511741	124.50715	0.43466679	124.57345	0.34069481	178.0018	
13.61	0.20051982	-153.70606	0.43357004	122.77812	0.43292161	122.84872	0.34545009	178.02228	
13.71	0.21057383	-153.77906	0.43194113	121.07281	0.43139445	121.13271	0.34885916	178.0048	
13.81	0.22033474	-153.51179	0.43008503	119.36182	0.42949125	119.44292	0.35400641	177.51542	
13.91	0.22984562	-153.61297	0.42807943	117.66479	0.42739	117.70629	0.36193729	177.71198	
14.01	0.24052051	-153.72215	0.42621476	115.96006	0.42557733	116.02616	0.36525198	178.00719	
14.11	0.25039274	-153.52566	0.42442134	114.29333	0.4237378	114.29873	0.37025344	178.09845	
14.21	0.25966109	-153.37178	0.42253952	112.62702	0.42200475	112.68602	0.37453341	178.02953	
14.31	0.27010553	-153.33134	0.42022244	110.97695	0.41954567	111.05485	0.38132872	178.51981	
14.41	0.28004639	-153.09471	0.41846059	109.36939	0.41783475	109.43319	0.38284298	178.94465	
14.51	0.28962942	-152.81102	0.41653266	107.76852	0.41590971	107.81952	0.38636734	179.09743	
14.61	0.29875593	-152.45064	0.41494831	106.16678	0.41423234	106.18258	0.38845009	179.36434	
14.71	0.30758283	-151.97881	0.4127932	104.59085	0.41222329	104.64745	0.39281335	179.96261	
14.81	0.31572741	-151.66869	0.41127151	103.01721	0.41070371	103.05341	0.39136472	-179.26601	
14.91	0.3236831	-150.9591	0.40933644	101.44502	0.40891252	101.50072	0.39163979	-179.08559	
15.01	0.32980807	-150.34968	0.40787663	99.902829	0.40736041	99.942129	0.39098719	-178.49862	
15.11	0.33538278	-149.67838	0.40626749	98.417682	0.40594021	98.446282	0.39110197	-177.94985	
15.21	0.34039972	-148.9351	0.40495578	96.900155	0.4043967	96.929955	0.3860994	-176.91638	
15.31	0.34513967	-148.06213	0.40410809	95.40414	0.40364311	95.43844	0.38259532	-176.65115	
15.41	0.34849075	-147.23846	0.40318543	93.878977	0.40281425	93.942777	0.37866705	-175.71984	
15.51	0.35108833	-146.26898	0.40218228	92.403048	0.40167327	92.437248	0.37306037	-174.90008	
15.61	0.35088743	-145.06909	0.40161929	90.848819	0.40106482	90.887219	0.36363439	-173.75598	
15.71	0.34969618	-143.80386	0.40117492	89.367431	0.40085174	89.403931	0.35500105	-173.43566	
15.81	0.35034177	-142.21337	0.40096114	87.886883	0.40040757	87.928083	0.34761121	-172.1537	
15.91	0.35021925	-140.69714	0.40098676	86.276154	0.40066373	86.347054	0.33595255	-170.9682	
16.01	0.34781343	-139.10719	0.40113207	84.663672	0.40057827	84.700872	0.32230325	-169.72107	
16.11	0.34390869	-137.28871	0.40107031	83.02451	0.40051659	83.09551	0.30925569	-168.97767	
16.21	0.34118826	-134.93764	0.40083638	81.5312	0.40032907	81.5941	0.29807334	-167.22923	
16.31	0.34092189	-132.51975	0.40158146	79.899014	0.40102703	79.965214	0.28082678	-165.44311	
16.41	0.34055407	-130.21248	0.402651	78.150236	0.40204882	78.232836	0.26386565	-163.85718	
16.51	0.33898222	-128.20528	0.40368455	76.339901	0.40335935	76.406301	0.24618885	-162.32166	
16.61	0.33690143	-126.38072	0.40453641	74.54506	0.40430361	74.60536	0.23155197	-160.32265	
16.71	0.33420069	-124.49678	0.40499385	72.646283	0.40462101	72.717783	0.21410393	-157.38869	
16.81	0.32915906	-122.51443	0.40563894	70.705035	0.40531217	70.751535	0.19595984	-154.56518	
16.91	0.32542269	-120.54816	0.40675199	68.715497	0.40637753	68.764897	0.17901929	-151.72643	
17.01	0.32011917	-118.61727	0.40748365	66.656141	0.40701479	66.711541	0.16456186	-148.12667	
17.11	0.31439721	-117.04005	0.40774822	64.526851	0.40741975	64.583851	0.14814461	-143.50753	
17.21	0.30633018	-115.63864	0.40824654	62.293259	0.4077768	62.367258	0.1324768	-138.47963	
17.31	0.29722712	-114.23021	0.40799737	59.997261	0.40780952	60.088761	0.11753375	-133.43065	
17.41	0.2839378	-112.67756	0.4074084	57.674922	0.4070802	57.769121	0.1058363	-127.13627	
17.51	0.26973691	-110.75013	0.40582012	55.359186	0.40539983	55.428985	0.092072732	-119.20032	
17.61	0.25694384	-107.9014	0.40473263	53.182907	0.40436003	53.258907	0.080629541	-111.29553	
17.71	0.2485853	-105.27425	0.40502946	51.007297	0.40442372	51.043497	0.071111071	-101.56767	
17.81	0.2358048	-104.32309	0.40560285	48.510432	0.40522944	48.538332	0.064783921	-92.099061	
17.91	0.22155757	-102.33257	0.40326769	45.975084	0.40285005	46.047184	0.05785022	-76.097138	
18.01	0.2125091	-99.165194	0.40220396	43.729929	0.40211135	43.77493	0.049734922	-61.673288	
18.11	0.20804844	-98.982622	0.40366563	41.491734	0.40320117	41.545234	0.049119138	-45.952228	
18.21	0.19902439	-101.62721	0.40645326	38.817402	0.40603232	38.885902	0.046405127	-26.633003	
18.31	0.18282257	-105.29924	0.40770659	35.886618	0.40751887	35.932517	0.050265777	-8.7651411	
18.41	0.16013814	-110.25466	0.40814266	32.709521	0.40776692	32.752821	0.055767809	15.001889	
18.51	0.13729689	-115.6298	0.40734066	29.833881	0.40696565	29.874781	0.060520274	28.189469	
18.61	0.11834449	-124.18138	0.40729286	26.887199	0.40682422	26.962599	0.074433585	39.012164	
18.71	0.10478774	-136.7668	0.40768094	23.853577	0.40730563	23.867977	0.088044434	47.554873	
18.81	0.091716665	-158.13175	0.40676144	20.21706	0.40638697	20.239162	0.11125639	55.860926	
18.91	0.094655028	175.86178	0.40506274	16.582142	0.40450351	16.633141	0.12936096	63.376031	
19.01	0.10619402	154.33917	0.39959759	13.185073	0.39918375	13.229273	0.15099968	66.160026	
19.11	0.12242307	138.05194	0.39362739	10.054102	0.39321973	10.075804	0.17181434	69.698058	
19.21	0.14677004	130.32399	0.39007541	7.1225585	0.38958172	7.1638585	0.19228898	71.68505	
