! Device:      ADRF5700					
! Description: 2 dB LSB, 5-Bit, Silicon Digital Attenuator, 100 MHz to 22 GHz			
! Frequency:   10MHz -  30.00 GHz						
! Ports:       										
!        RF1 = Port 1
!        RF2 = Port 2
!						
! VDD  =  +3.30 Volts
! VSS  =  -3.30 Volts
!				
! State:        14.00 dB attenuation 	
! Data:  Data was collected using an calibrated 4 port network analyzer 						
!             The reference plane is the edge of the device.
! Notes: Analog Devices supplies this data as a sample of measured data						
!             for this product.  Your particular data for this product may vary.						
!             Data was taken at 25 degrees C.						
!             Analog Devices reserves the right to change this data at anytime.	
!
# GHz S  dB   R 50
0.0100 -33.0766 -20.6637 -15.1363 -0.0609 -15.1303 0.2434 -32.6492 -4.2016
0.0475 -33.4654 -4.1905 -15.1754 -0.5394 -15.1461 -0.5243 -32.6546 13.7695
0.0850 -32.9682 -1.6858 -15.1665 -1.0413 -15.1426 -1.0646 -32.1163 15.0611
0.1225 -32.8748 -0.8835 -15.1694 -1.5312 -15.1413 -1.5030 -31.8797 16.1429
0.1600 -32.7833 -2.3090 -15.1768 -1.9901 -15.1467 -2.0012 -31.8464 15.4210
0.1974 -32.4507 -4.2152 -15.1826 -2.4395 -15.1492 -2.4536 -31.7143 13.7096
0.2349 -32.0826 -4.4840 -15.1843 -2.8573 -15.1540 -2.9125 -31.4686 12.6897
0.2724 -31.9937 -4.2428 -15.1853 -3.3457 -15.1600 -3.3545 -31.3101 12.1985
0.3099 -32.0012 -5.2718 -15.1870 -3.8470 -15.1653 -3.7652 -31.2565 11.2914
0.3474 -31.7572 -7.8573 -15.1922 -4.2513 -15.1606 -4.2076 -31.0740 9.4527
0.3849 -31.3334 -8.9732 -15.1931 -4.6132 -15.1659 -4.6687 -30.7786 8.4945
0.4224 -31.0281 -8.2490 -15.1897 -5.1047 -15.1649 -5.0827 -30.5260 9.1059
0.4599 -31.0291 -7.7560 -15.1970 -5.5350 -15.1652 -5.5235 -30.5148 10.0065
0.4973 -31.1147 -8.9163 -15.2016 -5.9956 -15.1704 -5.9643 -30.6901 9.7556
0.5348 -30.9667 -10.9985 -15.2026 -6.4806 -15.1716 -6.4060 -30.7799 7.8058
0.5723 -30.7057 -11.7695 -15.2061 -6.8577 -15.1765 -6.8497 -30.6792 6.1535
0.6098 -30.5663 -11.7098 -15.2079 -7.2588 -15.1795 -7.2716 -30.4894 5.4217
0.6473 -30.5457 -12.3524 -15.2078 -7.7623 -15.1774 -7.7011 -30.4160 5.1851
0.6848 -30.4559 -13.8381 -15.2108 -8.1694 -15.1791 -8.1410 -30.3695 4.6675
0.7223 -30.2604 -15.0039 -15.2117 -8.6164 -15.1850 -8.5651 -30.3162 3.9558
0.7598 -30.1099 -15.1998 -15.2129 -9.0719 -15.1871 -8.9916 -30.3073 3.5879
0.7972 -30.0375 -15.4343 -15.2186 -9.4454 -15.1891 -9.4361 -30.3125 3.4029
0.8347 -29.9991 -16.2403 -15.2217 -9.8795 -15.1921 -9.8974 -30.4105 2.6575
0.8722 -29.8973 -17.2190 -15.2226 -10.3288 -15.1927 -10.3019 -30.4392 0.9802
0.9097 -29.7859 -18.0093 -15.2269 -10.7676 -15.1967 -10.7477 -30.3954 -0.4840
0.9472 -29.7296 -18.8221 -15.2285 -11.1323 -15.2002 -11.1693 -30.2640 -1.4594
0.9847 -29.6183 -19.8026 -15.2351 -11.5906 -15.2032 -11.5936 -30.1745 -1.8973
1.0222 -29.4526 -20.4607 -15.2334 -12.0727 -15.2022 -12.0175 -30.1268 -2.1620
1.0596 -29.3089 -20.7486 -15.2325 -12.5111 -15.2047 -12.4673 -30.1210 -2.6254
1.0971 -29.2714 -21.0946 -15.2369 -12.9065 -15.2084 -12.8995 -30.1533 -3.1557
1.1346 -29.2539 -22.1524 -15.2433 -13.3196 -15.2108 -13.3110 -30.1575 -4.1582
1.1721 -29.1113 -23.3986 -15.2436 -13.7667 -15.2137 -13.7562 -30.1421 -5.3607
1.2096 -28.9079 -23.9431 -15.2458 -14.1972 -15.2177 -14.1778 -30.0528 -6.2046
1.2471 -28.8117 -23.9230 -15.2488 -14.6445 -15.2184 -14.5901 -29.9742 -6.4950
1.2846 -28.8150 -24.4415 -15.2522 -15.1167 -15.2219 -15.0249 -29.9761 -7.0176
1.3221 -28.7370 -25.7339 -15.2574 -15.5019 -15.2256 -15.4624 -29.9892 -7.6939
1.3596 -28.5338 -26.5458 -15.2604 -15.8902 -15.2268 -15.8692 -29.9763 -8.1900
1.3970 -28.3591 -26.2913 -15.2573 -16.3887 -15.2286 -16.2945 -30.0014 -8.6383
1.4345 -28.3399 -26.2030 -15.2618 -16.7869 -15.2334 -16.7369 -30.0896 -9.2930
1.4720 -28.3788 -26.9731 -15.2673 -17.1923 -15.2333 -17.1576 -30.1724 -10.4986
1.5095 -28.2940 -28.4243 -15.2694 -17.6345 -15.2350 -17.5921 -30.1583 -12.2079
1.5470 -28.1197 -29.0749 -15.2706 -18.0404 -15.2403 -18.0246 -30.0668 -13.4181
1.5845 -27.9992 -29.0427 -15.2722 -18.4547 -15.2421 -18.4481 -30.0150 -13.9055
1.6220 -27.9766 -29.2369 -15.2750 -18.8836 -15.2439 -18.8657 -30.0236 -14.4006
1.6595 -27.9485 -30.1726 -15.2764 -19.3232 -15.2483 -19.2939 -30.0497 -15.4647
1.6969 -27.8140 -30.9431 -15.2777 -19.7455 -15.2518 -19.7133 -30.0462 -16.4977
1.7344 -27.6742 -31.0943 -15.2803 -20.1941 -15.2543 -20.1266 -30.0312 -17.3364
1.7719 -27.6380 -30.9559 -15.2833 -20.5878 -15.2552 -20.5451 -30.0341 -18.2616
1.8094 -27.6442 -31.4755 -15.2889 -20.9698 -15.2574 -20.9594 -30.0088 -19.5442
1.8469 -27.5908 -32.2722 -15.2864 -21.4289 -15.2570 -21.3794 -29.9265 -20.6870
1.8844 -27.4889 -32.7999 -15.2894 -21.8317 -15.2605 -21.8068 -29.8467 -21.3500
1.9219 -27.4040 -33.0686 -15.2919 -22.2889 -15.2629 -22.2312 -29.7894 -21.8955
1.9594 -27.3574 -33.2912 -15.2917 -22.7440 -15.2633 -22.6545 -29.7668 -22.5865
1.9968 -27.3038 -33.7477 -15.2948 -23.1291 -15.2665 -23.0856 -29.7743 -23.4820
2.0343 -27.2636 -34.1048 -15.3011 -23.5464 -15.2693 -23.5129 -29.7629 -24.1102
2.0718 -27.2289 -34.6243 -15.3063 -23.9650 -15.2702 -23.9272 -29.7853 -24.9699
2.1093 -27.1941 -35.1525 -15.3091 -24.3747 -15.2736 -24.3453 -29.7862 -25.9349
2.1468 -27.1544 -35.7009 -15.3134 -24.8164 -15.2770 -24.7691 -29.7577 -27.2027
2.1843 -27.1007 -35.9671 -15.3112 -25.2014 -15.2776 -25.1655 -29.6633 -28.2426
2.2218 -27.0877 -36.5173 -15.3150 -25.6242 -15.2799 -25.5933 -29.6005 -28.8292
2.2593 -27.0495 -37.1183 -15.3154 -26.1116 -15.2792 -25.9975 -29.6537 -29.2709
2.2967 -26.9880 -37.6420 -15.3189 -26.5309 -15.2793 -26.4142 -29.6857 -30.1395
2.3342 -26.9104 -37.7608 -15.3238 -26.9255 -15.2822 -26.8266 -29.6388 -31.0500
2.3717 -26.9142 -37.6527 -15.3246 -27.3064 -15.2854 -27.2494 -29.6315 -31.5221
2.4092 -26.9900 -38.1136 -15.3215 -27.7242 -15.2846 -27.6741 -29.6916 -31.9964
2.4467 -26.9811 -39.0609 -15.3237 -28.2412 -15.2860 -28.0825 -29.7756 -32.8817
2.4842 -26.8871 -39.6958 -15.3293 -28.6279 -15.2884 -28.4919 -29.7862 -34.4287
2.5217 -26.8287 -39.6983 -15.3338 -29.0126 -15.2901 -28.9178 -29.7134 -35.5708
2.5592 -26.8858 -39.8051 -15.3371 -29.4289 -15.2930 -29.3260 -29.6400 -36.1467
2.5966 -26.9437 -40.6997 -15.3364 -29.8651 -15.2942 -29.7243 -29.6569 -36.8581
2.6341 -26.8579 -41.7600 -15.3386 -30.2726 -15.2963 -30.1550 -29.6941 -37.8556
2.6716 -26.7228 -41.8979 -15.3395 -30.6619 -15.2975 -30.5612 -29.6652 -38.8969
2.7091 -26.7369 -41.4904 -15.3334 -31.0871 -15.2978 -30.9674 -29.6263 -39.6685
2.7466 -26.8486 -41.9414 -15.3314 -31.5327 -15.2977 -31.3806 -29.6572 -40.2800
2.7841 -26.9045 -43.2076 -15.3376 -31.9461 -15.2971 -31.7973 -29.7407 -41.2572
2.8216 -26.7977 -44.0834 -15.3438 -32.3664 -15.2988 -32.2121 -29.7443 -42.6927
2.8591 -26.7105 -43.8454 -15.3409 -32.7758 -15.2983 -32.6499 -29.6868 -44.1637
2.8965 -26.8281 -43.6044 -15.3440 -33.1758 -15.3016 -33.0743 -29.6402 -44.7976
2.9340 -26.9745 -44.6106 -15.3484 -33.5854 -15.3027 -33.4804 -29.6570 -45.4105
2.9715 -26.9260 -46.0353 -15.3491 -34.0120 -15.3018 -33.9198 -29.6852 -46.3155
3.0090 -26.7801 -46.3552 -15.3530 -34.4352 -15.3064 -34.3412 -29.6813 -47.4103
3.0465 -26.7785 -45.6792 -15.3526 -34.8798 -15.3088 -34.7349 -29.6601 -48.3815
3.0840 -26.9627 -45.9803 -15.3527 -35.2594 -15.3079 -35.1704 -29.6589 -49.1445
3.1215 -27.0405 -47.4634 -15.3544 -35.6590 -15.3108 -35.5948 -29.6878 -50.1832
3.1590 -26.9461 -48.5718 -15.3566 -36.0941 -15.3118 -36.0122 -29.6852 -51.4177
3.1964 -26.8644 -48.3996 -15.3568 -36.4954 -15.3099 -36.4269 -29.6639 -52.4279
3.2339 -26.9894 -48.2949 -15.3526 -36.9276 -15.3131 -36.8507 -29.6368 -53.4768
3.2714 -27.1409 -49.5886 -15.3528 -37.3431 -15.3177 -37.2538 -29.5912 -54.5647
3.3089 -27.0798 -51.3651 -15.3544 -37.7572 -15.3140 -37.6949 -29.5395 -55.5293
3.3464 -26.9022 -51.7271 -15.3579 -38.1783 -15.3162 -38.1188 -29.4888 -56.2469
3.3839 -26.9061 -51.1464 -15.3585 -38.6225 -15.3181 -38.5478 -29.5254 -56.8728
3.4214 -27.0971 -51.3830 -15.3600 -39.0284 -15.3207 -38.9420 -29.5977 -58.0742
3.4589 -27.2035 -53.0260 -15.3578 -39.4119 -15.3190 -39.3622 -29.5871 -59.8056
3.4963 -27.0721 -54.4387 -15.3620 -39.8415 -15.3230 -39.7821 -29.4988 -61.3855
3.5338 -26.9879 -54.5568 -15.3612 -40.3018 -15.3230 -40.1932 -29.4076 -62.3817
3.5713 -27.1228 -54.6068 -15.3568 -40.7215 -15.3222 -40.6238 -29.3923 -63.4062
3.6088 -27.3001 -56.1484 -15.3613 -41.1003 -15.3237 -41.0356 -29.3806 -64.9178
3.6463 -27.2323 -58.3127 -15.3620 -41.5311 -15.3256 -41.4635 -29.2931 -66.4437
3.6838 -27.0497 -59.0668 -15.3623 -41.9744 -15.3260 -41.8730 -29.2018 -67.4926
3.7213 -27.0682 -58.7386 -15.3651 -42.3778 -15.3275 -42.2996 -29.2079 -68.2859
3.7588 -27.2656 -59.3998 -15.3660 -42.7904 -15.3287 -42.7066 -29.2698 -69.7486
3.7962 -27.3463 -61.4822 -15.3670 -43.1932 -15.3280 -43.1345 -29.2052 -71.8484
3.8337 -27.2111 -62.9906 -15.3654 -43.6239 -15.3265 -43.5712 -29.0579 -73.3490
3.8712 -27.1175 -63.0327 -15.3673 -44.0805 -15.3303 -43.9907 -28.9586 -74.1508
3.9087 -27.2438 -63.0804 -15.3689 -44.4914 -15.3310 -44.3929 -28.9556 -75.1194
3.9462 -27.4205 -64.5584 -15.3706 -44.9107 -15.3317 -44.8306 -28.9257 -76.4997
3.9837 -27.3951 -66.6235 -15.3703 -45.3380 -15.3351 -45.2492 -28.8067 -78.0134
4.0212 -27.2399 -67.5304 -15.3698 -45.7628 -15.3355 -45.6667 -28.6692 -78.7379
4.0587 -27.2215 -67.4478 -15.3724 -46.2071 -15.3361 -46.1078 -28.6517 -79.2018
4.0961 -27.3759 -68.0447 -15.3701 -46.6077 -15.3366 -46.5056 -28.6772 -80.5119
4.1336 -27.4423 -69.7845 -15.3741 -47.0258 -15.3356 -46.9101 -28.6142 -82.4653
4.1711 -27.3441 -71.4409 -15.3788 -47.4569 -15.3390 -47.3553 -28.4281 -83.9258
4.2086 -27.2353 -71.8941 -15.3755 -47.8643 -15.3400 -47.7766 -28.2611 -84.5547
4.2461 -27.2871 -72.2728 -15.3779 -48.3075 -15.3387 -48.1888 -28.2108 -85.0676
4.2836 -27.3689 -73.6035 -15.3763 -48.7357 -15.3417 -48.6287 -28.1970 -86.3941
4.3211 -27.3308 -75.3762 -15.3747 -49.1242 -15.3412 -49.0371 -28.0447 -87.9409
4.3586 -27.2188 -76.3934 -15.3808 -49.5267 -15.3419 -49.4605 -27.8446 -88.8539
4.3960 -27.1529 -76.9277 -15.3807 -49.9708 -15.3438 -49.8944 -27.7411 -89.2794
4.4335 -27.1667 -77.7307 -15.3823 -50.4167 -15.3446 -50.3403 -27.6933 -90.0389
4.4710 -27.1451 -78.9997 -15.3843 -50.8159 -15.3467 -50.7449 -27.5863 -91.3755
4.5085 -27.0761 -80.1407 -15.3837 -51.2500 -15.3460 -51.1712 -27.4108 -92.5411
4.5460 -27.0239 -80.8886 -15.3852 -51.6800 -15.3482 -51.5947 -27.2535 -93.0248
4.5835 -26.9939 -81.6836 -15.3849 -52.0972 -15.3486 -52.0193 -27.1515 -93.4838
4.6210 -26.9662 -82.6463 -15.3844 -52.4891 -15.3478 -52.4207 -27.0960 -94.2484
4.6585 -26.9286 -83.6495 -15.3883 -52.9486 -15.3496 -52.8721 -26.9847 -95.3518
4.6959 -26.8816 -84.5391 -15.3887 -53.3701 -15.3511 -53.2927 -26.8214 -96.2012
4.7334 -26.8528 -85.4608 -15.3905 -53.7724 -15.3506 -53.7131 -26.6890 -96.6907
4.7709 -26.7816 -86.5760 -15.3906 -54.2107 -15.3508 -54.1416 -26.5894 -97.2485
4.8084 -26.6943 -87.4765 -15.3953 -54.6361 -15.3548 -54.5665 -26.4730 -98.1651
4.8459 -26.6503 -88.0812 -15.3928 -55.0211 -15.3560 -54.9825 -26.3073 -98.6828
4.8834 -26.6422 -88.9974 -15.3943 -55.4732 -15.3576 -55.4169 -26.1607 -98.9347
4.9209 -26.5671 -90.1376 -15.3947 -55.8818 -15.3577 -55.8319 -26.0591 -99.1715
4.9584 -26.4406 -91.0021 -15.3964 -56.3425 -15.3602 -56.2796 -25.9986 -99.6417
4.9958 -26.3669 -91.2764 -15.3969 -56.7193 -15.3590 -56.6540 -25.8685 -100.3198
5.0333 -26.3810 -91.8931 -15.3969 -57.1460 -15.3583 -57.0890 -25.7479 -100.7800
5.0708 -26.3572 -93.3023 -15.3996 -57.5851 -15.3630 -57.5368 -25.6393 -101.1113
5.1083 -26.2101 -94.5844 -15.3987 -58.0177 -15.3633 -57.9665 -25.5338 -101.5787
5.1458 -26.0424 -94.9405 -15.3962 -58.4382 -15.3636 -58.3798 -25.4115 -101.9702
5.1833 -26.0127 -95.0537 -15.4014 -58.8647 -15.3638 -58.8069 -25.2907 -102.3033
5.2208 -26.0395 -95.9073 -15.4012 -59.2989 -15.3650 -59.2386 -25.1670 -102.4256
5.2583 -25.9488 -97.3283 -15.4039 -59.7222 -15.3642 -59.6623 -25.0710 -102.5655
5.2957 -25.7653 -98.0062 -15.4103 -60.1311 -15.3684 -60.0883 -24.9943 -102.8764
5.3332 -25.6490 -97.9341 -15.4059 -60.5527 -15.3669 -60.5092 -24.9139 -103.1563
5.3707 -25.6806 -98.2567 -15.4076 -60.9879 -15.3684 -60.9505 -24.7954 -103.6412
5.4082 -25.6644 -99.5718 -15.4120 -61.3982 -15.3718 -61.3774 -24.6721 -104.0546
5.4457 -25.4944 -100.7905 -15.4097 -61.8361 -15.3719 -61.8053 -24.5353 -104.2251
5.4832 -25.3041 -100.9442 -15.4108 -62.2617 -15.3758 -62.2279 -24.4217 -104.2673
5.5207 -25.2810 -100.7229 -15.4102 -62.6719 -15.3766 -62.6371 -24.3438 -104.2316
5.5582 -25.3261 -101.5827 -15.4111 -63.1094 -15.3776 -63.0650 -24.2796 -104.4127
5.5956 -25.2303 -103.0195 -15.4144 -63.5511 -15.3777 -63.5235 -24.1843 -104.6898
5.6331 -25.0196 -103.6151 -15.4208 -63.9790 -15.3810 -63.9416 -24.0878 -104.8647
5.6706 -24.9058 -103.2410 -15.4230 -64.3827 -15.3848 -64.3523 -24.0145 -104.8313
5.7081 -24.9529 -103.3067 -15.4220 -64.8106 -15.3855 -64.7725 -23.9581 -104.9901
5.7456 -24.9720 -104.4535 -15.4246 -65.2521 -15.3871 -65.2051 -23.8762 -105.3277
5.7831 -24.8123 -105.6131 -15.4244 -65.6722 -15.3875 -65.6244 -23.7573 -105.5103
5.8206 -24.6286 -105.7111 -15.4303 -66.0875 -15.3892 -66.0536 -23.6495 -105.3581
5.8581 -24.5953 -105.5007 -15.4299 -66.5389 -15.3869 -66.5014 -23.6123 -105.1631
5.8955 -24.6247 -106.2290 -15.4305 -66.9549 -15.3931 -66.9142 -23.5861 -105.3618
5.9330 -24.5351 -107.3806 -15.4310 -67.3853 -15.3950 -67.3400 -23.5140 -105.8337
5.9705 -24.3481 -107.8814 -15.4341 -67.7959 -15.3988 -67.7478 -23.3929 -105.9668
6.0080 -24.2548 -107.5807 -15.4337 -68.2566 -15.3985 -68.1921 -23.3066 -105.7545
6.0455 -24.2939 -107.7148 -15.4407 -68.6558 -15.4027 -68.6073 -23.2907 -105.5802
6.0830 -24.2750 -108.7238 -15.4390 -69.0748 -15.4023 -69.0308 -23.2653 -105.8244
6.1205 -24.1258 -109.5668 -15.4401 -69.5224 -15.4036 -69.4492 -23.1871 -106.2646
6.1580 -23.9843 -109.5008 -15.4462 -69.9590 -15.4051 -69.8791 -23.0723 -106.1648
6.1954 -23.9731 -109.3012 -15.4485 -70.3856 -15.4084 -70.3111 -23.0194 -105.7550
6.2329 -24.0120 -109.9030 -15.4476 -70.7993 -15.4091 -70.7374 -23.0331 -105.6757
6.2704 -23.9274 -110.9449 -15.4464 -71.2419 -15.4120 -71.1559 -23.0273 -106.0253
6.3079 -23.7634 -111.2753 -15.4488 -71.6537 -15.4139 -71.5737 -22.9355 -106.3395
6.3454 -23.6907 -111.0328 -15.4475 -72.0659 -15.4148 -71.9892 -22.8427 -106.1734
6.3829 -23.7204 -111.1812 -15.4505 -72.4797 -15.4171 -72.4117 -22.8290 -105.8680
6.4204 -23.7007 -112.0964 -15.4553 -72.9090 -15.4200 -72.8388 -22.8430 -105.9970
6.4579 -23.5662 -112.7456 -15.4563 -73.3343 -15.4223 -73.2664 -22.7965 -106.4132
6.4953 -23.4568 -112.6981 -15.4571 -73.7640 -15.4240 -73.6712 -22.7067 -106.4696
6.5328 -23.4448 -112.5704 -15.4584 -74.1865 -15.4199 -74.0735 -22.6540 -106.0537
6.5703 -23.4652 -113.1513 -15.4651 -74.6367 -15.4231 -74.5388 -22.6771 -105.8060
6.6078 -23.4010 -113.9270 -15.4680 -75.0489 -15.4267 -74.9468 -22.7137 -106.0563
6.6453 -23.2831 -114.2672 -15.4686 -75.4603 -15.4275 -75.3661 -22.6675 -106.5051
6.6828 -23.2160 -114.2437 -15.4676 -75.8989 -15.4291 -75.7997 -22.5814 -106.5125
6.7203 -23.2155 -114.5476 -15.4722 -76.3364 -15.4318 -76.2489 -22.5418 -106.1476
6.7578 -23.1731 -115.1352 -15.4721 -76.7238 -15.4345 -76.6579 -22.5715 -106.0280
6.7952 -23.0716 -115.5053 -15.4751 -77.1513 -15.4359 -77.0611 -22.5935 -106.3050
6.8327 -23.0018 -115.5613 -15.4740 -77.5960 -15.4347 -77.5082 -22.5442 -106.5967
6.8702 -22.9942 -115.7392 -15.4763 -77.9896 -15.4399 -77.9147 -22.4909 -106.4468
6.9077 -22.9702 -116.3576 -15.4769 -78.4203 -15.4401 -78.3269 -22.4913 -106.2701
6.9452 -22.8808 -116.8599 -15.4817 -78.8577 -15.4430 -78.7657 -22.5190 -106.2835
6.9827 -22.8038 -116.9009 -15.4821 -79.2959 -15.4438 -79.2007 -22.5170 -106.5067
7.0202 -22.7925 -116.9613 -15.4857 -79.6945 -15.4461 -79.6081 -22.4932 -106.5986
7.0577 -22.7745 -117.4452 -15.4874 -80.1164 -15.4469 -80.0165 -22.4705 -106.4619
7.0951 -22.6873 -117.9452 -15.4864 -80.5506 -15.4471 -80.4623 -22.4834 -106.3848
7.1326 -22.6060 -117.9211 -15.4911 -81.0009 -15.4518 -80.8960 -22.5113 -106.4535
7.1701 -22.5992 -117.8019 -15.4944 -81.4054 -15.4536 -81.3039 -22.5110 -106.5952
7.2076 -22.6199 -118.2392 -15.4975 -81.8060 -15.4588 -81.7100 -22.5017 -106.5578
7.2451 -22.5578 -118.9919 -15.4918 -82.2565 -15.4551 -82.1707 -22.4980 -106.5643
7.2826 -22.4405 -119.2422 -15.4971 -82.6873 -15.4616 -82.5838 -22.5170 -106.6381
7.3201 -22.3885 -118.9743 -15.5027 -83.0812 -15.4619 -82.9853 -22.5330 -106.7188
7.3576 -22.4229 -119.0702 -15.5037 -83.5320 -15.4603 -83.4275 -22.5265 -106.8200
7.3950 -22.4357 -119.8154 -15.5060 -83.9339 -15.4671 -83.8529 -22.5316 -106.7866
7.4325 -22.3321 -120.4384 -15.5070 -84.3675 -15.4671 -84.2477 -22.5507 -106.7900
7.4700 -22.2247 -120.4597 -15.5067 -84.7781 -15.4679 -84.6775 -22.5751 -106.7599
7.5075 -22.2168 -120.2236 -15.5114 -85.2355 -15.4714 -85.1336 -22.6036 -106.9391
7.5450 -22.2547 -120.5283 -15.5139 -85.6298 -15.4771 -85.5305 -22.6308 -107.0388
7.5825 -22.2046 -121.2611 -15.5115 -86.0496 -15.4755 -85.9421 -22.6393 -107.1413
7.6200 -22.0980 -121.5491 -15.5156 -86.4778 -15.4770 -86.3952 -22.6535 -107.2120
7.6575 -22.0720 -121.2929 -15.5218 -86.9038 -15.4820 -86.7999 -22.6850 -107.2605
7.6949 -22.1201 -121.4308 -15.5227 -87.3348 -15.4819 -87.2130 -22.7233 -107.3155
7.7324 -22.1249 -122.2788 -15.5260 -87.7319 -15.4842 -87.6518 -22.7653 -107.4278
7.7699 -22.0216 -122.9184 -15.5246 -88.1689 -15.4836 -88.0690 -22.7962 -107.6571
7.8074 -21.9263 -122.8510 -15.5324 -88.5943 -15.4902 -88.4911 -22.8367 -107.8044
7.8449 -21.9196 -122.5926 -15.5326 -89.0153 -15.4883 -88.9132 -22.8792 -108.0019
7.8824 -21.9556 -123.0056 -15.5372 -89.4442 -15.4938 -89.3556 -22.9140 -108.2375
7.9199 -21.9117 -123.6258 -15.5393 -89.8773 -15.4960 -89.7738 -22.9320 -108.5126
7.9574 -21.8263 -123.8015 -15.5425 -90.2801 -15.4999 -90.1819 -22.9361 -108.5522
7.9948 -21.8055 -123.6002 -15.5437 -90.6979 -15.5028 -90.5942 -22.9761 -108.4822
8.0323 -21.8402 -123.8078 -15.5435 -91.1244 -15.5038 -91.0039 -23.0644 -108.4882
8.0698 -21.8388 -124.5598 -15.5464 -91.5729 -15.5068 -91.4464 -23.1510 -108.8580
8.1073 -21.7528 -125.0223 -15.5472 -91.9676 -15.5092 -91.8279 -23.1948 -109.3108
8.1448 -21.6668 -125.0990 -15.5488 -92.3900 -15.5070 -92.2758 -23.2124 -109.5851
8.1823 -21.6526 -125.0674 -15.5510 -92.8061 -15.5133 -92.7012 -23.2683 -109.6414
8.2198 -21.6445 -125.3152 -15.5515 -93.2132 -15.5174 -93.0970 -23.3421 -109.9982
8.2573 -21.5864 -125.6569 -15.5493 -93.6266 -15.5129 -93.5135 -23.3807 -110.3884
8.2947 -21.5408 -125.7787 -15.5550 -94.0919 -15.5184 -93.9487 -23.3997 -110.6348
8.3322 -21.5269 -125.8275 -15.5580 -94.4803 -15.5212 -94.3384 -23.4575 -110.6010
8.3697 -21.5050 -126.2457 -15.5558 -94.9186 -15.5205 -94.7713 -23.5531 -110.7450
8.4072 -21.4406 -126.6692 -15.5569 -95.3279 -15.5213 -95.1676 -23.6500 -111.2930
8.4447 -21.3786 -126.7000 -15.5616 -95.7773 -15.5245 -95.6073 -23.6811 -111.9878
8.4822 -21.3767 -126.6056 -15.5632 -96.1715 -15.5258 -96.0215 -23.6822 -112.2463
8.5197 -21.4040 -127.0356 -15.5658 -96.5897 -15.5266 -96.4302 -23.7366 -112.2459
8.5572 -21.3528 -127.7395 -15.5626 -97.0233 -15.5248 -96.8714 -23.8342 -112.4927
8.5946 -21.2565 -128.0430 -15.5701 -97.4360 -15.5302 -97.2815 -23.9364 -113.1093
8.6321 -21.2151 -127.8848 -15.5698 -97.8558 -15.5294 -97.7163 -23.9611 -113.6599
8.6696 -21.2498 -128.0591 -15.5706 -98.2864 -15.5329 -98.1225 -24.0044 -113.8414
8.7071 -21.2498 -128.8405 -15.5705 -98.6986 -15.5337 -98.5531 -24.1150 -114.0344
8.7446 -21.1506 -129.4360 -15.5761 -99.1326 -15.5370 -98.9710 -24.2554 -114.7651
8.7821 -21.0531 -129.3096 -15.5723 -99.5490 -15.5368 -99.4047 -24.3149 -115.6193
8.8196 -21.0704 -129.0103 -15.5719 -99.9680 -15.5391 -99.8140 -24.3218 -116.1541
8.8571 -21.1359 -129.4693 -15.5765 -100.4122 -15.5412 -100.2455 -24.3834 -116.2596
8.8945 -21.0955 -130.2404 -15.5748 -100.7870 -15.5400 -100.6192 -24.5216 -116.6863
8.9320 -20.9807 -130.4622 -15.5730 -101.2445 -15.5392 -101.0728 -24.6374 -117.5925
8.9695 -20.9486 -130.1035 -15.5783 -101.7128 -15.5417 -101.5165 -24.6676 -118.6191
9.0070 -21.0308 -130.0839 -15.5861 -102.1054 -15.5471 -101.9046 -24.6840 -119.1052
9.0445 -21.0523 -130.9519 -15.5822 -102.5068 -15.5424 -102.3240 -24.7625 -119.3166
