! Device:      ADRF5700					
! Description: 2 dB LSB, 5-Bit, Silicon Digital Attenuator, 100 MHz to 22 GHz			
! Frequency:   10MHz -  30.00 GHz						
! Ports:       										
!        RF1 = Port 1
!        RF2 = Port 2
!						
! VDD  =  +3.30 Volts
! VSS  =  -3.30 Volts
!				
! State:        16.00 dB attenuation 	
! Data:  Data was collected using an calibrated 4 port network analyzer 						
!             The reference plane is the edge of the device.
! Notes: Analog Devices supplies this data as a sample of measured data						
!             for this product.  Your particular data for this product may vary.						
!             Data was taken at 25 degrees C.						
!             Analog Devices reserves the right to change this data at anytime.	
!
# GHz S  dB   R 50
0.0100 -32.4949 -162.4766 -17.2162 0.0611 -17.2017 0.2238 -27.7487 -3.8166
0.0475 -33.1998 -177.7656 -17.2574 -0.5202 -17.2292 -0.4862 -27.9926 6.8456
0.0850 -33.7104 179.4748 -17.2481 -0.9899 -17.2219 -1.0300 -27.7085 7.6645
0.1225 -33.8337 177.5578 -17.2499 -1.4786 -17.2226 -1.4674 -27.6012 7.9903
0.1600 -33.9725 178.5060 -17.2576 -1.9246 -17.2257 -1.9398 -27.5862 7.1283
0.1974 -34.3614 179.8595 -17.2651 -2.3789 -17.2314 -2.3975 -27.5004 5.7406
0.2349 -34.8535 179.4506 -17.2652 -2.7719 -17.2336 -2.8312 -27.3370 4.7789
0.2724 -34.9997 178.1250 -17.2662 -3.2787 -17.2371 -3.2808 -27.2591 4.1368
0.3099 -34.9727 178.7601 -17.2668 -3.7730 -17.2410 -3.6767 -27.2129 3.1189
0.3474 -35.2631 -178.3866 -17.2722 -4.1505 -17.2394 -4.1079 -27.0946 1.6286
0.3849 -35.9157 -176.6577 -17.2710 -4.5253 -17.2451 -4.5653 -26.9023 0.7615
0.4224 -36.4928 -178.2867 -17.2704 -4.9858 -17.2437 -4.9788 -26.7678 0.7701
0.4599 -36.5470 179.5875 -17.2781 -5.4480 -17.2445 -5.4117 -26.7858 0.9754
0.4973 -36.3607 -179.6642 -17.2803 -5.8838 -17.2481 -5.8493 -26.9142 0.2261
0.5348 -36.5306 -176.8574 -17.2793 -6.3538 -17.2484 -6.2958 -26.9566 -1.5605
0.5723 -37.0233 -175.6534 -17.2851 -6.7338 -17.2523 -6.7188 -26.8699 -2.9373
0.6098 -37.3689 -176.3032 -17.2860 -7.1302 -17.2558 -7.1352 -26.7583 -3.6884
0.6473 -37.3798 -176.3970 -17.2852 -7.6213 -17.2553 -7.5512 -26.7137 -4.2929
0.6848 -37.4675 -173.9812 -17.2855 -8.0246 -17.2558 -7.9972 -26.6849 -4.9451
0.7223 -37.8040 -171.6916 -17.2889 -8.4695 -17.2598 -8.4250 -26.6668 -5.8159
0.7598 -38.1783 -171.5032 -17.2892 -8.9283 -17.2635 -8.8339 -26.6682 -6.4864
0.7972 -38.3938 -171.9075 -17.2945 -9.2942 -17.2625 -9.2778 -26.6864 -7.0757
0.8347 -38.4162 -171.1973 -17.2970 -9.7241 -17.2655 -9.7119 -26.7495 -8.1180
0.8722 -38.5860 -169.2571 -17.2979 -10.1648 -17.2684 -10.1312 -26.7549 -9.6669
0.9097 -38.7815 -167.8401 -17.3011 -10.5880 -17.2701 -10.5504 -26.7155 -10.9445
0.9472 -38.8381 -166.5483 -17.3024 -10.9460 -17.2736 -10.9938 -26.6258 -11.8270
0.9847 -38.9690 -164.4411 -17.3096 -11.4025 -17.2755 -11.4110 -26.5772 -12.5375
1.0222 -39.3337 -162.3456 -17.3085 -11.8839 -17.2772 -11.8261 -26.5533 -13.1261
1.0596 -39.7519 -161.2598 -17.3057 -12.3150 -17.2795 -12.2645 -26.5550 -13.8051
1.0971 -39.8840 -161.3621 -17.3117 -12.7064 -17.2841 -12.6868 -26.5869 -14.6595
1.1346 -39.7239 -159.7184 -17.3184 -13.1105 -17.2863 -13.1011 -26.5871 -15.7356
1.1721 -39.7879 -155.7303 -17.3181 -13.5525 -17.2880 -13.5310 -26.5679 -16.9039
1.2096 -40.2252 -152.2626 -17.3189 -13.9754 -17.2895 -13.9455 -26.5113 -17.8171
1.2471 -40.6115 -151.6806 -17.3221 -14.4226 -17.2917 -14.3593 -26.4651 -18.3292
1.2846 -40.6225 -151.9860 -17.3265 -14.8871 -17.2934 -14.7885 -26.4759 -19.0824
1.3221 -40.3713 -148.5659 -17.3312 -15.2718 -17.2978 -15.2053 -26.4777 -19.9322
1.3596 -40.5739 -143.4592 -17.3327 -15.6553 -17.2984 -15.6279 -26.4775 -20.6520
1.3970 -41.2626 -140.7516 -17.3288 -16.1449 -17.2985 -16.0496 -26.5042 -21.4148
1.4345 -41.6579 -141.5685 -17.3335 -16.5334 -17.3029 -16.4855 -26.5591 -22.3680
1.4720 -41.3420 -142.1758 -17.3404 -16.9467 -17.3040 -16.8917 -26.5965 -23.6846
1.5095 -40.9366 -138.6016 -17.3428 -17.3714 -17.3071 -17.3229 -26.5666 -25.1490
1.5470 -41.0272 -133.5886 -17.3427 -17.7729 -17.3099 -17.7530 -26.4991 -26.2706
1.5845 -41.4381 -130.7926 -17.3435 -18.1887 -17.3127 -18.1697 -26.4655 -26.9615
1.6220 -41.5852 -130.6435 -17.3461 -18.6067 -17.3158 -18.5817 -26.4788 -27.7286
1.6595 -41.2607 -129.6368 -17.3476 -19.0400 -17.3184 -19.0139 -26.4841 -28.8077
1.6969 -41.1355 -125.4515 -17.3499 -19.4622 -17.3217 -19.4342 -26.4717 -29.9233
1.7344 -41.3680 -121.5240 -17.3510 -19.9157 -17.3240 -19.8420 -26.4562 -30.8878
1.7719 -41.7792 -120.4970 -17.3540 -20.2914 -17.3245 -20.2437 -26.4469 -31.8853
1.8094 -41.6627 -121.0513 -17.3589 -20.6820 -17.3271 -20.6658 -26.4205 -33.0692
1.8469 -41.3919 -119.6548 -17.3580 -21.1253 -17.3283 -21.0735 -26.3616 -34.1606
1.8844 -41.2720 -116.4193 -17.3586 -21.5350 -17.3285 -21.4957 -26.3008 -34.9290
1.9219 -41.3557 -113.7849 -17.3622 -21.9958 -17.3313 -21.9106 -26.2665 -35.6400
1.9594 -41.4119 -112.4915 -17.3629 -22.4242 -17.3324 -22.3424 -26.2501 -36.5187
1.9968 -41.3830 -110.8818 -17.3655 -22.8065 -17.3356 -22.7655 -26.2446 -37.4743
2.0343 -41.3647 -109.6170 -17.3730 -23.2148 -17.3377 -23.1768 -26.2401 -38.2739
2.0718 -41.2562 -108.8528 -17.3765 -23.6408 -17.3399 -23.5890 -26.2376 -39.2432
2.1093 -41.1027 -108.0312 -17.3799 -24.0409 -17.3433 -24.0006 -26.2343 -40.3316
2.1468 -40.9327 -107.1948 -17.3838 -24.4915 -17.3461 -24.4193 -26.1932 -41.4927
2.1843 -40.9314 -105.7321 -17.3830 -24.8524 -17.3468 -24.8289 -26.1222 -42.4646
2.2218 -40.8182 -105.6576 -17.3829 -25.2766 -17.3491 -25.2269 -26.0813 -43.1684
2.2593 -40.6200 -105.2053 -17.3831 -25.7554 -17.3481 -25.6377 -26.1110 -43.8980
2.2967 -40.4394 -103.6093 -17.3883 -26.1785 -17.3504 -26.0563 -26.1284 -44.9621
2.3342 -40.4653 -101.2113 -17.3935 -26.5709 -17.3539 -26.4541 -26.0868 -45.8890
2.3717 -40.7667 -100.5882 -17.3916 -26.9383 -17.3528 -26.8676 -26.0810 -46.5480
2.4092 -40.9216 -103.1129 -17.3922 -27.3490 -17.3503 -27.2972 -26.1243 -47.3394
2.4467 -40.5399 -104.1853 -17.3952 -27.8589 -17.3556 -27.6971 -26.1678 -48.4612
2.4842 -40.1804 -102.1744 -17.4002 -28.2476 -17.3571 -28.1144 -26.1493 -49.7635
2.5217 -40.2917 -99.8363 -17.4034 -28.6278 -17.3589 -28.5180 -26.0774 -50.8995
2.5592 -40.6290 -100.9130 -17.4066 -29.0517 -17.3642 -28.9089 -26.0292 -51.5976
2.5966 -40.4275 -103.8519 -17.4045 -29.4779 -17.3653 -29.3292 -26.0331 -52.4202
2.6341 -39.8349 -103.2492 -17.4058 -29.8765 -17.3636 -29.7441 -26.0391 -53.5331
2.6716 -39.6820 -99.2624 -17.4071 -30.2501 -17.3658 -30.1512 -26.0125 -54.5811
2.7091 -40.1594 -97.8165 -17.4029 -30.6726 -17.3675 -30.5549 -25.9669 -55.4250
2.7466 -40.4519 -101.3038 -17.3993 -31.1161 -17.3674 -30.9712 -25.9894 -56.2514
2.7841 -40.0439 -104.9141 -17.4074 -31.5335 -17.3665 -31.3954 -26.0228 -57.3989
2.8216 -39.5000 -103.3061 -17.4118 -31.9378 -17.3694 -31.7864 -26.0069 -58.7752
2.8591 -39.6435 -99.8656 -17.4103 -32.3356 -17.3682 -32.2040 -25.9328 -59.9306
2.8965 -40.3156 -101.5119 -17.4155 -32.7296 -17.3713 -32.6309 -25.8980 -60.6514
2.9340 -40.2727 -107.0351 -17.4181 -33.1410 -17.3740 -33.0271 -25.9127 -61.5050
2.9715 -39.5484 -108.3100 -17.4211 -33.5539 -17.3707 -33.4437 -25.9023 -62.5084
3.0090 -39.3006 -104.7348 -17.4226 -33.9883 -17.3747 -33.8921 -25.8880 -63.5939
3.0465 -39.8287 -102.2586 -17.4220 -34.4125 -17.3755 -34.2968 -25.8578 -64.5797
3.0840 -40.3846 -107.0628 -17.4210 -34.8045 -17.3775 -34.7034 -25.8477 -65.4377
3.1215 -39.8913 -111.5472 -17.4218 -35.1951 -17.3793 -35.1156 -25.8475 -66.5265
3.1590 -39.3083 -110.7169 -17.4263 -35.6240 -17.3807 -35.5288 -25.8269 -67.7256
3.1964 -39.4374 -107.8695 -17.4252 -36.0179 -17.3797 -35.9441 -25.7898 -68.7151
3.2339 -39.9820 -110.0769 -17.4215 -36.4464 -17.3837 -36.3677 -25.7527 -69.7791
3.2714 -39.7670 -115.9670 -17.4219 -36.8623 -17.3846 -36.7665 -25.7100 -70.7683
3.3089 -38.9094 -117.0834 -17.4226 -37.2644 -17.3843 -37.1907 -25.6575 -71.7067
3.3464 -38.5952 -112.9950 -17.4280 -37.6874 -17.3850 -37.6354 -25.6184 -72.4994
3.3839 -39.0889 -111.4112 -17.4286 -38.1244 -17.3873 -38.0406 -25.6350 -73.3368
3.4214 -39.5852 -116.0709 -17.4283 -38.5233 -17.3903 -38.4323 -25.6512 -74.5499
3.4589 -39.0383 -120.8732 -17.4273 -38.9166 -17.3889 -38.8588 -25.6054 -75.9761
3.4963 -38.3050 -119.6081 -17.4331 -39.3314 -17.3912 -39.2701 -25.5229 -77.2560
3.5338 -38.3502 -117.5506 -17.4316 -39.7971 -17.3921 -39.6788 -25.4443 -78.1737
3.5713 -38.7353 -120.2262 -17.4279 -40.2058 -17.3908 -40.1111 -25.4136 -79.1908
3.6088 -38.3877 -126.1399 -17.4301 -40.5840 -17.3945 -40.5133 -25.3772 -80.4856
3.6463 -37.4538 -126.9216 -17.4320 -41.0036 -17.3957 -40.9281 -25.2913 -81.6917
3.6838 -37.0917 -124.1187 -17.4324 -41.4313 -17.3958 -41.3444 -25.2205 -82.6215
3.7213 -37.4301 -123.7176 -17.4360 -41.8508 -17.3968 -41.7654 -25.2068 -83.5263
3.7588 -37.5619 -128.3366 -17.4348 -42.2529 -17.3980 -42.1689 -25.2084 -84.8903
3.7962 -36.9226 -131.9214 -17.4367 -42.6484 -17.3989 -42.5847 -25.1317 -86.5132
3.8337 -36.3327 -130.8562 -17.4364 -43.0684 -17.3971 -43.0156 -25.0104 -87.6360
3.8712 -36.3800 -129.0654 -17.4373 -43.5334 -17.4004 -43.4252 -24.9366 -88.3950
3.9087 -36.6836 -131.1438 -17.4385 -43.9378 -17.3998 -43.8386 -24.9123 -89.3587
3.9462 -36.4283 -135.6215 -17.4419 -44.3436 -17.4020 -44.2687 -24.8680 -90.5792
3.9837 -35.7586 -137.0165 -17.4411 -44.7661 -17.4064 -44.6840 -24.7646 -91.7512
4.0212 -35.4330 -135.2190 -17.4391 -45.1852 -17.4063 -45.0936 -24.6690 -92.4330
4.0587 -35.6025 -134.7714 -17.4421 -45.6342 -17.4074 -45.5189 -24.6521 -93.1038
4.0961 -35.6860 -137.7338 -17.4415 -46.0168 -17.4070 -45.9202 -24.6416 -94.2640
4.1336 -35.2460 -140.2401 -17.4445 -46.4339 -17.4074 -46.3284 -24.5591 -95.7356
4.1711 -34.7834 -139.9375 -17.4488 -46.8658 -17.4094 -46.7607 -24.4211 -96.8854
4.2086 -34.6670 -138.8436 -17.4470 -47.2660 -17.4106 -47.1723 -24.3058 -97.4537
4.2461 -34.7172 -139.7972 -17.4496 -47.7035 -17.4105 -47.5984 -24.2661 -98.0957
4.2836 -34.5085 -142.0502 -17.4479 -48.1273 -17.4125 -48.0146 -24.2252 -99.2825
4.3211 -34.0542 -142.9718 -17.4466 -48.5139 -17.4119 -48.4253 -24.1051 -100.4266
4.3586 -33.7649 -142.3271 -17.4526 -48.9147 -17.4134 -48.8468 -23.9678 -101.1630
4.3960 -33.6855 -141.9861 -17.4521 -49.3472 -17.4162 -49.2807 -23.8953 -101.6903
4.4335 -33.5881 -142.7635 -17.4560 -49.7886 -17.4177 -49.7198 -23.8520 -102.5450
4.4710 -33.3302 -143.5564 -17.4567 -50.1890 -17.4200 -50.1292 -23.7602 -103.6088
4.5085 -33.0865 -143.6238 -17.4566 -50.6090 -17.4198 -50.5465 -23.6213 -104.5064
4.5460 -32.9510 -143.5747 -17.4551 -51.0417 -17.4220 -50.9609 -23.5146 -105.0185
4.5835 -32.8185 -143.9628 -17.4581 -51.4447 -17.4219 -51.3705 -23.4458 -105.5522
4.6210 -32.6521 -144.4624 -17.4584 -51.8471 -17.4195 -51.7776 -23.3937 -106.3270
4.6585 -32.4866 -144.8957 -17.4619 -52.2946 -17.4237 -52.2304 -23.3026 -107.2824
4.6959 -32.3285 -145.1112 -17.4634 -52.7096 -17.4243 -52.6310 -23.1818 -107.9896
4.7334 -32.1821 -145.5918 -17.4643 -53.1085 -17.4259 -53.0607 -23.0858 -108.5306
4.7709 -31.9525 -145.8618 -17.4644 -53.5339 -17.4258 -53.4816 -23.0148 -109.1685
4.8084 -31.7693 -145.7092 -17.4684 -53.9465 -17.4314 -53.8987 -22.9236 -109.9669
4.8459 -31.6795 -145.7506 -17.4662 -54.3397 -17.4307 -54.3060 -22.8060 -110.4387
4.8834 -31.5664 -146.4320 -17.4693 -54.7837 -17.4332 -54.7255 -22.7068 -110.8042
4.9209 -31.3484 -146.7610 -17.4711 -55.1990 -17.4314 -55.1459 -22.6438 -111.1761
4.9584 -31.1199 -146.2853 -17.4712 -55.6570 -17.4340 -55.5846 -22.5926 -111.7533
4.9958 -31.0824 -145.8382 -17.4725 -56.0145 -17.4335 -55.9709 -22.5016 -112.3812
5.0333 -31.0611 -146.5170 -17.4712 -56.4517 -17.4336 -56.3938 -22.4127 -112.8809
5.0708 -30.8368 -147.5969 -17.4761 -56.8766 -17.4363 -56.8384 -22.3324 -113.3070
5.1083 -30.5228 -147.4393 -17.4751 -57.2884 -17.4395 -57.2624 -22.2607 -113.8041
5.1458 -30.3757 -146.2930 -17.4744 -57.7116 -17.4387 -57.6733 -22.1695 -114.2629
5.1833 -30.4114 -146.0188 -17.4771 -58.1458 -17.4398 -58.0887 -22.0871 -114.6585
5.2208 -30.3515 -147.0051 -17.4777 -58.5703 -17.4422 -58.5107 -22.0089 -114.9511
5.2583 -30.0773 -147.6523 -17.4814 -58.9871 -17.4404 -58.9356 -21.9452 -115.2407
5.2957 -29.8342 -146.6935 -17.4883 -59.3991 -17.4446 -59.3570 -21.8896 -115.6115
5.3332 -29.8046 -145.6267 -17.4844 -59.8016 -17.4457 -59.7729 -21.8332 -116.0673
5.3707 -29.8622 -146.1488 -17.4862 -60.2478 -17.4458 -60.2201 -21.7467 -116.5854
5.4082 -29.6835 -147.3318 -17.4879 -60.6467 -17.4488 -60.6230 -21.6560 -117.0040
5.4457 -29.3638 -147.1857 -17.4871 -61.0781 -17.4490 -61.0515 -21.5678 -117.2682
5.4832 -29.2071 -145.8086 -17.4890 -61.4950 -17.4529 -61.4704 -21.4932 -117.4339
5.5207 -29.2915 -145.2220 -17.4878 -61.8951 -17.4531 -61.8887 -21.4481 -117.6178
5.5582 -29.2686 -146.4007 -17.4899 -62.3355 -17.4566 -62.3186 -21.4018 -117.9564
5.5956 -28.9960 -147.2176 -17.4936 -62.7651 -17.4567 -62.7409 -21.3397 -118.3436
5.6331 -28.7382 -146.2306 -17.4983 -63.1865 -17.4602 -63.1622 -21.2774 -118.6033
5.6706 -28.7315 -144.8359 -17.5028 -63.5922 -17.4627 -63.5702 -21.2317 -118.7757
5.7081 -28.8535 -145.1234 -17.5033 -64.0167 -17.4632 -63.9846 -21.1983 -119.1000
5.7456 -28.7609 -146.4082 -17.5033 -64.4545 -17.4654 -64.4154 -21.1430 -119.5211
5.7831 -28.4633 -146.5103 -17.5051 -64.8569 -17.4674 -64.8282 -21.0629 -119.7739
5.8206 -28.2953 -145.2635 -17.5109 -65.2742 -17.4674 -65.2492 -21.0020 -119.7909
5.8581 -28.3571 -144.6517 -17.5096 -65.7330 -17.4671 -65.6855 -20.9841 -119.9076
5.8955 -28.3523 -145.5334 -17.5117 -66.1434 -17.4736 -66.0995 -20.9758 -120.2858
5.9330 -28.1394 -146.1427 -17.5099 -66.5601 -17.4746 -66.5067 -20.9198 -120.7912
5.9705 -27.9046 -145.4130 -17.5148 -66.9582 -17.4780 -66.9293 -20.8426 -120.9854
6.0080 -27.8979 -144.3219 -17.5154 -67.4163 -17.4809 -67.3560 -20.7988 -121.0014
6.0455 -27.9849 -144.5045 -17.5220 -67.8132 -17.4852 -67.7692 -20.8037 -121.1252
6.0830 -27.8859 -145.4497 -17.5206 -68.2221 -17.4830 -68.1853 -20.7933 -121.5177
6.1205 -27.6514 -145.3912 -17.5205 -68.6620 -17.4844 -68.6001 -20.7321 -122.0006
6.1580 -27.5402 -144.2896 -17.5283 -69.0941 -17.4864 -69.0249 -20.6677 -122.0216
6.1954 -27.6177 -143.8133 -17.5287 -69.5040 -17.4892 -69.4494 -20.6574 -121.9058
6.2329 -27.6411 -144.6121 -17.5317 -69.9266 -17.4913 -69.8673 -20.6867 -122.1198
6.2704 -27.4518 -145.2424 -17.5290 -70.3547 -17.4943 -70.2923 -20.6818 -122.6436
6.3079 -27.2603 -144.5555 -17.5325 -70.7666 -17.4956 -70.6946 -20.6205 -122.9910
6.3454 -27.2521 -143.6337 -17.5322 -71.1651 -17.4968 -71.1017 -20.5708 -122.9878
6.3829 -27.3261 -143.7709 -17.5323 -71.5856 -17.4989 -71.5131 -20.5852 -123.0138
6.4204 -27.2427 -144.6177 -17.5383 -71.9986 -17.5009 -71.9341 -20.6108 -123.3942
6.4579 -27.0497 -144.5265 -17.5390 -72.4254 -17.5030 -72.3574 -20.5809 -123.8564
6.4953 -26.9595 -143.6848 -17.5417 -72.8383 -17.5059 -72.7549 -20.5262 -124.0120
6.5328 -27.0121 -143.2704 -17.5436 -73.2753 -17.5023 -73.1750 -20.5190 -123.8738
6.5703 -27.0198 -143.8772 -17.5481 -73.7077 -17.5054 -73.6124 -20.5662 -123.9859
6.6078 -26.8928 -144.3565 -17.5531 -74.1160 -17.5114 -74.0252 -20.6018 -124.4753
6.6453 -26.7463 -143.9502 -17.5519 -74.5237 -17.5115 -74.4300 -20.5682 -124.9801
6.6828 -26.7132 -143.4535 -17.5524 -74.9468 -17.5109 -74.8690 -20.5213 -125.0880
6.7203 -26.7257 -143.5723 -17.5563 -75.3866 -17.5167 -75.3029 -20.5323 -125.0240
6.7578 -26.6494 -143.9071 -17.5578 -75.7666 -17.5166 -75.6990 -20.5779 -125.2282
6.7952 -26.5209 -143.7151 -17.5602 -76.1791 -17.5192 -76.1133 -20.5994 -125.6911
6.8327 -26.4773 -143.2633 -17.5604 -76.6240 -17.5196 -76.5475 -20.5760 -126.1203
6.8702 -26.4808 -143.2092 -17.5626 -77.0115 -17.5234 -76.9545 -20.5622 -126.1545
6.9077 -26.4340 -143.7045 -17.5634 -77.4428 -17.5230 -77.3526 -20.5915 -126.2551
6.9452 -26.3092 -143.7401 -17.5670 -77.8712 -17.5249 -77.7842 -20.6334 -126.5619
6.9827 -26.2390 -143.2038 -17.5669 -78.3047 -17.5279 -78.2102 -20.6467 -126.9688
7.0202 -26.2583 -142.9941 -17.5710 -78.6981 -17.5301 -78.6085 -20.6452 -127.2438
7.0577 -26.2306 -143.3206 -17.5719 -79.1188 -17.5313 -79.0175 -20.6578 -127.3481
7.0951 -26.1082 -143.3601 -17.5720 -79.5527 -17.5293 -79.4525 -20.6988 -127.5491
7.1326 -26.0338 -142.7512 -17.5744 -79.9807 -17.5342 -79.8928 -20.7401 -127.9036
7.1701 -26.0781 -142.3410 -17.5793 -80.3931 -17.5367 -80.2941 -20.7587 -128.2433
7.2076 -26.0984 -142.8079 -17.5823 -80.7912 -17.5405 -80.6944 -20.7798 -128.4692
7.2451 -25.9857 -143.3083 -17.5748 -81.2241 -17.5382 -81.1474 -20.8023 -128.6835
7.2826 -25.8456 -142.9508 -17.5794 -81.6492 -17.5437 -81.5557 -20.8414 -129.0282
7.3201 -25.8279 -142.0987 -17.5875 -82.0417 -17.5470 -81.9496 -20.8736 -129.3750
7.3576 -25.9020 -142.1287 -17.5888 -82.4975 -17.5444 -82.3934 -20.8908 -129.7028
7.3950 -25.8903 -142.9525 -17.5915 -82.8932 -17.5514 -82.8051 -20.9214 -129.8915
7.4325 -25.7301 -143.1931 -17.5917 -83.3080 -17.5511 -83.1870 -20.9664 -130.1720
7.4700 -25.6131 -142.5589 -17.5943 -83.7262 -17.5515 -83.6303 -21.0214 -130.4939
7.5075 -25.6584 -141.9144 -17.5955 -84.1707 -17.5541 -84.0597 -21.0619 -130.9445
7.5450 -25.7148 -142.2742 -17.5993 -84.5584 -17.5593 -84.4613 -21.1024 -131.3025
7.5825 -25.6123 -142.8064 -17.5951 -84.9774 -17.5569 -84.8541 -21.1393 -131.6462
7.6200 -25.4839 -142.5753 -17.6008 -85.4092 -17.5604 -85.3069 -21.1763 -131.9986
7.6575 -25.4899 -141.8384 -17.6063 -85.8220 -17.5657 -85.7182 -21.2294 -132.3341
7.6949 -25.5776 -141.9850 -17.6090 -86.2499 -17.5629 -86.1316 -21.2859 -132.7460
7.7324 -25.5444 -142.9155 -17.6115 -86.6585 -17.5672 -86.5536 -21.3422 -133.1953
7.7699 -25.3888 -143.2121 -17.6107 -87.0801 -17.5676 -86.9663 -21.3909 -133.6575
7.8074 -25.2908 -142.4872 -17.6161 -87.4901 -17.5740 -87.3930 -21.4463 -134.1312
7.8449 -25.3292 -141.8934 -17.6175 -87.9018 -17.5720 -87.7953 -21.4990 -134.6353
7.8824 -25.3748 -142.2750 -17.6218 -88.3286 -17.5783 -88.2364 -21.5468 -135.1568
7.9199 -25.2955 -142.7382 -17.6262 -88.7487 -17.5810 -88.6489 -21.5802 -135.6705
7.9574 -25.1917 -142.4777 -17.6310 -89.1527 -17.5851 -89.0610 -21.6179 -135.9594
7.9948 -25.1964 -141.8578 -17.6318 -89.5644 -17.5862 -89.4534 -21.6890 -136.2785
8.0323 -25.2688 -142.0532 -17.6271 -89.9866 -17.5869 -89.8789 -21.7861 -136.7641
8.0698 -25.2376 -142.7586 -17.6314 -90.4354 -17.5902 -90.3049 -21.8692 -137.5361
8.1073 -25.1055 -142.9662 -17.6337 -90.8206 -17.5933 -90.6787 -21.9120 -138.2503
8.1448 -25.0111 -142.5677 -17.6337 -91.2520 -17.5909 -91.1275 -21.9504 -138.7634
8.1823 -25.0157 -142.1876 -17.6372 -91.6594 -17.5984 -91.5408 -22.0247 -139.2551
8.2198 -25.0053 -142.2468 -17.6378 -92.0565 -17.6014 -91.9334 -22.0905 -139.9459
8.2573 -24.9282 -142.3372 -17.6348 -92.4660 -17.5971 -92.3371 -22.1335 -140.6679
8.2947 -24.8828 -142.1001 -17.6386 -92.9181 -17.6035 -92.7728 -22.1759 -141.1626
8.3322 -24.8797 -141.8463 -17.6429 -93.3077 -17.6057 -93.1668 -22.2585 -141.5668
8.3697 -24.8486 -142.1584 -17.6427 -93.7440 -17.6050 -93.5940 -22.3648 -142.2605
8.4072 -24.7566 -142.2749 -17.6432 -94.1569 -17.6066 -93.9987 -22.4371 -143.2311
8.4447 -24.6820 -141.8963 -17.6476 -94.5907 -17.6088 -94.4282 -22.4541 -144.0880
8.4822 -24.7060 -141.4889 -17.6509 -94.9858 -17.6119 -94.8223 -22.4809 -144.5762
8.5197 -24.7415 -141.9216 -17.6503 -95.3993 -17.6119 -95.2327 -22.5583 -144.9926
8.5572 -24.6521 -142.5160 -17.6471 -95.8171 -17.6107 -95.6708 -22.6625 -145.7932
8.5946 -24.5145 -142.4419 -17.6542 -96.2390 -17.6140 -96.0764 -22.7288 -146.8445
8.6321 -24.4843 -141.8483 -17.6559 -96.6568 -17.6132 -96.4939 -22.7517 -147.6320
8.6696 -24.5503 -141.9214 -17.6547 -97.0714 -17.6165 -96.9083 -22.8104 -148.2307
8.7071 -24.5248 -142.7549 -17.6563 -97.4756 -17.6189 -97.3326 -22.9247 -148.9876
8.7446 -24.3701 -143.0991 -17.6610 -97.9153 -17.6214 -97.7437 -23.0145 -150.2771
8.7821 -24.2547 -142.4138 -17.6589 -98.3249 -17.6215 -98.1483 -23.0316 -151.3911
8.8196 -24.3118 -141.7588 -17.6588 -98.7315 -17.6221 -98.5748 -23.0465 -152.0835
8.8571 -24.4013 -142.3188 -17.6611 -99.1768 -17.6285 -98.9921 -23.1306 -152.6900
8.8945 -24.3221 -143.0649 -17.6602 -99.5633 -17.6228 -99.3710 -23.2368 -153.7382
8.9320 -24.1618 -142.8891 -17.6577 -100.0032 -17.6231 -99.8283 -23.2888 -155.1006
