# Hz S RI R 50
0.000000e+00 0.000000e+00 0.000000e+00
4.882812e+06 1.137216e-04 7.668702e-03
9.765625e+06 4.547495e-04 1.533019e-02
1.464844e+07 1.022673e-03 2.297727e-02
1.953125e+07 1.816809e-03 3.060276e-02
2.441406e+07 2.836204e-03 3.819953e-02
2.929688e+07 4.079636e-03 4.576050e-02
3.417969e+07 5.545618e-03 5.327863e-02
3.906250e+07 7.232401e-03 6.074699e-02
4.394531e+07 9.137978e-03 6.815870e-02
4.882812e+07 1.126009e-02 7.550701e-02
5.371094e+07 1.359624e-02 8.278525e-02
5.859375e+07 1.614369e-02 8.998690e-02
6.347656e+07 1.889944e-02 9.710554e-02
6.835938e+07 2.186031e-02 1.041349e-01
7.324219e+07 2.502287e-02 1.110689e-01
7.812500e+07 2.838349e-02 1.179015e-01
8.300781e+07 3.193833e-02 1.246270e-01
8.789062e+07 3.568339e-02 1.312398e-01
9.277344e+07 3.961444e-02 1.377343e-01
9.765625e+07 4.372711e-02 1.441054e-01
1.025391e+08 4.801686e-02 1.503480e-01
1.074219e+08 5.247899e-02 1.564572e-01
1.123047e+08 5.710866e-02 1.624284e-01
1.171875e+08 6.190091e-02 1.682572e-01
1.220703e+08 6.685063e-02 1.739393e-01
1.269531e+08 7.195262e-02 1.794707e-01
1.318359e+08 7.720159e-02 1.848476e-01
1.367188e+08 8.259213e-02 1.900664e-01
1.416016e+08 8.811877e-02 1.951238e-01
1.464844e+08 9.377596e-02 2.000167e-01
1.513672e+08 9.955812e-02 2.047420e-01
1.562500e+08 1.054596e-01 2.092972e-01
1.611328e+08 1.114746e-01 2.136798e-01
1.660156e+08 1.175976e-01 2.178875e-01
1.708984e+08 1.238227e-01 2.219183e-01
1.757812e+08 1.301443e-01 2.257703e-01
1.806641e+08 1.365565e-01 2.294420e-01
1.855469e+08 1.430536e-01 2.329320e-01
1.904297e+08 1.496299e-01 2.362391e-01
1.953125e+08 1.562797e-01 2.393623e-01
2.001953e+08 1.629974e-01 2.423007e-01
2.050781e+08 1.697772e-01 2.450539e-01
2.099609e+08 1.766137e-01 2.476214e-01
2.148438e+08 1.835013e-01 2.500031e-01
2.197266e+08 1.904345e-01 2.521987e-01
2.246094e+08 1.974079e-01 2.542086e-01
2.294922e+08 2.044163e-01 2.560329e-01
2.343750e+08 2.114542e-01 2.576722e-01
2.392578e+08 2.185167e-01 2.591270e-01
2.441406e+08 2.255985e-01 2.603982e-01
2.490234e+08 2.326947e-01 2.614867e-01
2.539062e+08 2.398004e-01 2.623934e-01
2.587891e+08 2.469107e-01 2.631196e-01
2.636719e+08 2.540210e-01 2.636667e-01
2.685547e+08 2.611267e-01 2.640360e-01
2.734375e+08 2.682232e-01 2.642291e-01
2.783203e+08 2.753061e-01 2.642476e-01
2.832031e+08 2.823713e-01 2.640933e-01
2.880859e+08 2.894144e-01 2.637681e-01
2.929688e+08 2.964315e-01 2.632739e-01
2.978516e+08 3.034186e-01 2.626128e-01
3.027344e+08 3.103718e-01 2.617868e-01
3.076172e+08 3.172874e-01 2.607981e-01
3.125000e+08 3.241619e-01 2.596491e-01
3.173828e+08 3.309917e-01 2.583420e-01
3.222656e+08 3.377733e-01 2.568791e-01
3.271484e+08 3.445037e-01 2.552630e-01
3.320312e+08 3.511795e-01 2.534961e-01
3.369141e+08 3.577977e-01 2.515809e-01
3.417969e+08 3.643555e-01 2.495201e-01
3.466797e+08 3.708499e-01 2.473161e-01
3.515625e+08 3.772783e-01 2.449716e-01
3.564453e+08 3.836379e-01 2.424894e-01
3.613281e+08 3.899264e-01 2.398720e-01
3.662109e+08 3.961412e-01 2.371221e-01
3.710938e+08 4.022801e-01 2.342426e-01
3.759766e+08 4.083409e-01 2.312361e-01
3.808594e+08 4.143214e-01 2.281053e-01
3.857422e+08 4.202196e-01 2.248530e-01
3.906250e+08 4.260336e-01 2.214819e-01
3.955078e+08 4.317616e-01 2.179949e-01
4.003906e+08 4.374017e-01 2.143946e-01
4.052734e+08 4.429524e-01 2.106838e-01
4.101562e+08 4.484121e-01 2.068652e-01
4.150391e+08 4.537792e-01 2.029416e-01
4.199219e+08 4.590523e-01 1.989156e-01
4.248047e+08 4.642302e-01 1.947900e-01
4.296875e+08 4.693115e-01 1.905675e-01
4.345703e+08 4.742950e-01 1.862508e-01
4.394531e+08 4.791797e-01 1.818425e-01
4.443359e+08 4.839644e-01 1.773452e-01
4.492188e+08 4.886483e-01 1.727615e-01
4.541016e+08 4.932303e-01 1.680942e-01
4.589844e+08 4.977096e-01 1.633457e-01
4.638672e+08 5.020855e-01 1.585186e-01
4.687500e+08 5.063571e-01 1.536154e-01
4.736328e+08 5.105239e-01 1.486387e-01
4.785156e+08 5.145850e-01 1.435909e-01
4.833984e+08 5.185401e-01 1.384744e-01
4.882812e+08 5.223885e-01 1.332918e-01
4.931641e+08 5.261298e-01 1.280454e-01
4.980469e+08 5.297636e-01 1.227375e-01
5.029297e+08 5.332894e-01 1.173706e-01
5.078125e+08 5.367069e-01 1.119469e-01
5.126953e+08 5.400157e-01 1.064687e-01
5.175781e+08 5.432157e-01 1.009384e-01
5.224609e+08 5.463066e-01 9.535809e-02
5.273438e+08 5.492882e-01 8.973003e-02
5.322266e+08 5.521604e-01 8.405640e-02
5.371094e+08 5.549229e-01 7.833935e-02
5.419922e+08 5.575757e-01 7.258101e-02
5.468750e+08 5.601188e-01 6.678347e-02
5.517578e+08 5.625521e-01 6.094882e-02
5.566406e+08 5.648756e-01 5.507910e-02
5.615234e+08 5.670893e-01 4.917632e-02
5.664062e+08 5.691932e-01 4.324248e-02
5.712891e+08 5.711874e-01 3.727955e-02
5.761719e+08 5.730719e-01 3.128947e-02
5.810547e+08 5.748470e-01 2.527416e-02
5.859375e+08 5.765127e-01 1.923552e-02
5.908203e+08 5.780691e-01 1.317542e-02
5.957031e+08 5.795165e-01 7.095695e-03
6.005859e+08 5.808549e-01 9.981833e-04
6.054688e+08 5.820846e-01 -5.115316e-03
6.103516e+08 5.832058e-01 -1.124302e-02
6.152344e+08 5.842187e-01 -1.738317e-02
6.201172e+08 5.851236e-01 -2.353402e-02
6.250000e+08 5.859207e-01 -2.969385e-02
6.298828e+08 5.866102e-01 -3.586097e-02
6.347656e+08 5.871925e-01 -4.203368e-02
6.396484e+08 5.876678e-01 -4.821033e-02
6.445312e+08 5.880365e-01 -5.438925e-02
6.494141e+08 5.882987e-01 -6.056883e-02
6.542969e+08 5.884550e-01 -6.674745e-02
6.591797e+08 5.885055e-01 -7.292350e-02
6.640625e+08 5.884506e-01 -7.909539e-02
6.689453e+08 5.882907e-01 -8.526157e-02
6.738281e+08 5.880261e-01 -9.142046e-02
6.787109e+08 5.876571e-01 -9.757052e-02
6.835938e+08 5.871842e-01 -1.037102e-01
6.884766e+08 5.866077e-01 -1.098380e-01
6.933594e+08 5.859279e-01 -1.159525e-01
6.982422e+08 5.851454e-01 -1.220520e-01
7.031250e+08 5.842604e-01 -1.281351e-01
7.080078e+08 5.832733e-01 -1.342004e-01
7.128906e+08 5.821847e-01 -1.402463e-01
7.177734e+08 5.809948e-01 -1.462713e-01
7.226562e+08 5.797041e-01 -1.522741e-01
7.275391e+08 5.783131e-01 -1.582532e-01
7.324219e+08 5.768221e-01 -1.642071e-01
7.373047e+08 5.752316e-01 -1.701343e-01
7.421875e+08 5.735421e-01 -1.760335e-01
7.470703e+08 5.717539e-01 -1.819032e-01
7.519531e+08 5.698676e-01 -1.877419e-01
7.568359e+08 5.678837e-01 -1.935482e-01
7.617188e+08 5.658025e-01 -1.993208e-01
7.666016e+08 5.636245e-01 -2.050581e-01
7.714844e+08 5.613504e-01 -2.107588e-01
7.763672e+08 5.589804e-01 -2.164214e-01
7.812500e+08 5.565152e-01 -2.220444e-01
7.861328e+08 5.539553e-01 -2.276266e-01
7.910156e+08 5.513011e-01 -2.331663e-01
7.958984e+08 5.485533e-01 -2.386623e-01
8.007812e+08 5.457122e-01 -2.441131e-01
8.056641e+08 5.427786e-01 -2.495172e-01
8.105469e+08 5.397529e-01 -2.548732e-01
8.154297e+08 5.366357e-01 -2.601796e-01
8.203125e+08 5.334276e-01 -2.654351e-01
8.251953e+08 5.301291e-01 -2.706382e-01
8.300781e+08 5.267410e-01 -2.757873e-01
8.349609e+08 5.232637e-01 -2.808811e-01
8.398438e+08 5.196980e-01 -2.859180e-01
8.447266e+08 5.160444e-01 -2.908967e-01
8.496094e+08 5.123037e-01 -2.958156e-01
8.544922e+08 5.084765e-01 -3.006733e-01
8.593750e+08 5.045634e-01 -3.054682e-01
8.642578e+08 5.005653e-01 -3.101988e-01
8.691406e+08 4.964827e-01 -3.148637e-01
8.740234e+08 4.923166e-01 -3.194614e-01
8.789062e+08 4.880675e-01 -3.239902e-01
8.837891e+08 4.837364e-01 -3.284487e-01
8.886719e+08 4.793240e-01 -3.328354e-01
8.935547e+08 4.748312e-01 -3.371487e-01
8.984375e+08 4.702587e-01 -3.413869e-01
9.033203e+08 4.656075e-01 -3.455487e-01
9.082031e+08 4.608785e-01 -3.496324e-01
9.130859e+08 4.560725e-01 -3.536364e-01
9.179688e+08 4.511906e-01 -3.575592e-01
9.228516e+08 4.462337e-01 -3.613991e-01
9.277344e+08 4.412029e-01 -3.651545e-01
9.326172e+08 4.360991e-01 -3.688238e-01
9.375000e+08 4.309234e-01 -3.724055e-01
9.423828e+08 4.256769e-01 -3.758979e-01
9.472656e+08 4.203609e-01 -3.792992e-01
9.521484e+08 4.149763e-01 -3.826080e-01
9.570312e+08 4.095245e-01 -3.858226e-01
9.619141e+08 4.040067e-01 -3.889413e-01
9.667969e+08 3.984242e-01 -3.919624e-01
9.716797e+08 3.927782e-01 -3.948843e-01
9.765625e+08 3.870702e-01 -3.977053e-01
9.814453e+08 3.813016e-01 -4.004238e-01
9.863281e+08 3.754737e-01 -4.030381e-01
9.912109e+08 3.695881e-01 -4.055465e-01
9.960938e+08 3.636464e-01 -4.079473e-01
1.000977e+09 3.576501e-01 -4.102389e-01
1.005859e+09 3.516009e-01 -4.124196e-01
1.010742e+09 3.455004e-01 -4.144876e-01
1.015625e+09 3.393503e-01 -4.164415e-01
1.020508e+09 3.331526e-01 -4.182794e-01
1.025391e+09 3.269089e-01 -4.199998e-01
1.030273e+09 3.206213e-01 -4.216010e-01
1.035156e+09 3.142916e-01 -4.230813e-01
1.040039e+09 3.079219e-01 -4.244391e-01
1.044922e+09 3.015143e-01 -4.256728e-01
1.049805e+09 2.950709e-01 -4.267809e-01
1.054688e+09 2.885938e-01 -4.277617e-01
1.059570e+09 2.820854e-01 -4.286136e-01
1.064453e+09 2.755480e-01 -4.293351e-01
1.069336e+09 2.689840e-01 -4.299248e-01
1.074219e+09 2.623957e-01 -4.303810e-01
1.079102e+09 2.557858e-01 -4.307023e-01
1.083984e+09 2.491569e-01 -4.308874e-01
1.088867e+09 2.425115e-01 -4.309347e-01
1.093750e+09 2.358524e-01 -4.308428e-01
1.098633e+09 2.291825e-01 -4.306106e-01
1.103516e+09 2.225046e-01 -4.302366e-01
1.108398e+09 2.158216e-01 -4.297196e-01
1.113281e+09 2.091365e-01 -4.290584e-01
1.118164e+09 2.024525e-01 -4.282519e-01
1.123047e+09 1.957727e-01 -4.272989e-01
1.127930e+09 1.891004e-01 -4.261984e-01
1.132812e+09 1.824388e-01 -4.249495e-01
1.137695e+09 1.757913e-01 -4.235512e-01
1.142578e+09 1.691615e-01 -4.220026e-01
1.147461e+09 1.625527e-01 -4.203029e-01
1.152344e+09 1.559687e-01 -4.184516e-01
1.157227e+09 1.494130e-01 -4.164478e-01
1.162109e+09 1.428894e-01 -4.142912e-01
1.166992e+09 1.364018e-01 -4.119812e-01
1.171875e+09 1.299539e-01 -4.095175e-01
1.176758e+09 1.235498e-01 -4.068998e-01
1.181641e+09 1.171935e-01 -4.041279e-01
1.186523e+09 1.108889e-01 -4.012018e-01
1.191406e+09 1.046403e-01 -3.981216e-01
1.196289e+09 9.845177e-02 -3.948873e-01
1.201172e+09 9.232761e-02 -3.914992e-01
1.206055e+09 8.627209e-02 -3.879578e-01
1.210938e+09 8.028955e-02 -3.842636e-01
1.215820e+09 7.438437e-02 -3.804171e-01
1.220703e+09 6.856098e-02 -3.764193e-01
1.225586e+09 6.282384e-02 -3.722710e-01
1.230469e+09 5.717745e-02 -3.679734e-01
1.235352e+09 5.162632e-02 -3.635275e-01
1.240234e+09 4.617500e-02 -3.589348e-01
1.245117e+09 4.082806e-02 -3.541967e-01
1.250000e+09 3.559009e-02 -3.493151e-01
1.254883e+09 3.046565e-02 -3.442916e-01
1.259766e+09 2.545935e-02 -3.391283e-01
1.264648e+09 2.057576e-02 -3.338274e-01
1.269531e+09 1.581947e-02 -3.283911e-01
1.274414e+09 1.119501e-02 -3.228220e-01
1.279297e+09 6.706926e-03 -3.171229e-01
1.284180e+09 2.359710e-03 -3.112964e-01
1.289062e+09 -1.842182e-03 -3.053457e-01
1.293945e+09 -5.894338e-03 -2.992739e-01
1.298828e+09 -9.792404e-03 -2.930845e-01
1.303711e+09 -1.353209e-02 -2.867811e-01
1.308594e+09 -1.710917e-02 -2.803673e-01
1.313477e+09 -2.051952e-02 -2.738472e-01
1.318359e+09 -2.375907e-02 -2.672248e-01
1.323242e+09 -2.682389e-02 -2.605043e-01
1.328125e+09 -2.971011e-02 -2.536904e-01
1.333008e+09 -3.241401e-02 -2.467876e-01
1.337891e+09 -3.493198e-02 -2.398008e-01
1.342773e+09 -3.726055e-02 -2.327348e-01
1.347656e+09 -3.939638e-02 -2.255949e-01
1.352539e+09 -4.133629e-02 -2.183865e-01
1.357422e+09 -4.307725e-02 -2.111148e-01
1.362305e+09 -4.461642e-02 -2.037856e-01
1.367188e+09 -4.595111e-02 -1.964047e-01
1.372070e+09 -4.707883e-02 -1.889779e-01
1.376953e+09 -4.799727e-02 -1.815112e-01
1.381836e+09 -4.870434e-02 -1.740109e-01
1.386719e+09 -4.919815e-02 -1.664833e-01
1.391602e+09 -4.947701e-02 -1.589346e-01
1.396484e+09 -4.953946e-02 -1.513715e-01
1.401367e+09 -4.938429e-02 -1.438004e-01
1.406250e+09 -4.901050e-02 -1.362282e-01
1.411133e+09 -4.841734e-02 -1.286615e-01
1.416016e+09 -4.760430e-02 -1.211071e-01
1.420898e+09 -4.657112e-02 -1.135719e-01
1.425781e+09 -4.531780e-02 -1.060628e-01
1.430664e+09 -4.384459e-02 -9.858672e-02
1.435547e+09 -4.215201e-02 -9.115065e-02
1.440430e+09 -4.024084e-02 -8.376153e-02
1.445312e+09 -3.811210e-02 -7.642631e-02
1.450195e+09 -3.576711e-02 -6.915193e-02
1.455078e+09 -3.320744e-02 -6.194531e-02
1.459961e+09 -3.043491e-02 -5.481329e-02
1.464844e+09 -2.745164e-02 -4.776270e-02
1.469727e+09 -2.425997e-02 -4.080028e-02
1.474609e+09 -2.086252e-02 -3.393271e-02
1.479492e+09 -1.726217e-02 -2.716654e-02
1.484375e+09 -1.346205e-02 -2.050826e-02
1.489258e+09 -9.465519e-03 -1.396423e-02
1.494141e+09 -5.276208e-03 -7.540669e-03
1.499023e+09 -8.979652e-04 -1.243683e-03
1.503906e+09 3.665127e-03 4.920786e-03
1.508789e+09 8.408762e-03 1.094695e-02
1.513672e+09 1.332842e-02 1.682919e-02
1.518555e+09 1.841937e-02 2.256207e-02
1.523438e+09 2.367668e-02 2.814034e-02
1.528320e+09 2.909524e-02 3.355894e-02
1.533203e+09 3.466975e-02 3.881302e-02
1.538086e+09 4.039475e-02 4.389795e-02
1.542969e+09 4.626461e-02 4.880931e-02
1.547852e+09 5.227355e-02 5.354290e-02
1.552734e+09 5.841567e-02 5.809477e-02
1.557617e+09 6.468492e-02 6.246119e-02
1.562500e+09 7.107516e-02 6.663868e-02
1.567383e+09 7.758012e-02 7.062401e-02
1.572266e+09 8.419347e-02 7.441419e-02
1.577148e+09 9.090878e-02 7.800647e-02
1.582031e+09 9.771955e-02 8.139837e-02
1.586914e+09 1.046192e-01 8.458767e-02
1.591797e+09 1.116013e-01 8.757238e-02
1.596680e+09 1.186590e-01 9.035078e-02
1.601562e+09 1.257857e-01 9.292140e-02
1.606445e+09 1.329749e-01 9.528302e-02
1.611328e+09 1.402198e-01 9.743468e-02
1.616211e+09 1.475139e-01 9.937564e-02
1.621094e+09 1.548504e-01 1.011054e-01
1.625977e+09 1.622229e-01 1.026238e-01
1.630859e+09 1.696248e-01 1.039308e-01
1.635742e+09 1.770495e-01 1.050267e-01
1.640625e+09 1.844908e-01 1.059118e-01
1.645508e+09 1.919422e-01 1.065869e-01
1.650391e+09 1.993976e-01 1.070528e-01
1.655273e+09 2.068506e-01 1.073107e-01
1.660156e+09 2.142953e-01 1.073619e-01
1.665039e+09 2.217257e-01 1.072078e-01
1.669922e+09 2.291359e-01 1.068503e-01
1.674805e+09 2.365201e-01 1.062910e-01
1.679688e+09 2.438729e-01 1.055322e-01
1.684570e+09 2.511886e-01 1.045759e-01
1.689453e+09 2.584619e-01 1.034246e-01
1.694336e+09 2.656876e-01 1.020808e-01
1.699219e+09 2.728606e-01 1.005472e-01
1.704102e+09 2.799760e-01 9.882656e-02
1.708984e+09 2.870290e-01 9.692180e-02
1.713867e+09 2.940150e-01 9.483598e-02
1.718750e+09 3.009295e-01 9.257226e-02
1.723633e+09 3.077682e-01 9.013390e-02
1.728516e+09 3.145268e-01 8.752427e-02
1.733398e+09 3.212015e-01 8.474680e-02
1.738281e+09 3.277883e-01 8.180504e-02
1.743164e+09 3.342835e-01 7.870256e-02
1.748047e+09 3.406836e-01 7.544305e-02
1.752930e+09 3.469853e-01 7.203023e-02
1.757812e+09 3.531853e-01 6.846787e-02
1.762695e+09 3.592805e-01 6.475979e-02
1.767578e+09 3.652680e-01 6.090986e-02
1.772461e+09 3.711451e-01 5.692196e-02
1.777344e+09 3.769092e-01 5.280003e-02
1.782227e+09 3.825577e-01 4.854798e-02
1.787109e+09 3.880884e-01 4.416978e-02
1.791992e+09 3.934991e-01 3.966940e-02
1.796875e+09 3.987878e-01 3.505079e-02
1.801758e+09 4.039526e-01 3.031792e-02
1.806641e+09 4.089916e-01 2.547476e-02
1.811523e+09 4.139034e-01 2.052526e-02
1.816406e+09 4.186864e-01 1.547335e-02
1.821289e+09 4.233393e-01 1.032294e-02
1.826172e+09 4.278607e-01 5.077947e-03
1.831055e+09 4.322497e-01 -2.577727e-04
1.835938e+09 4.365051e-01 -5.680373e-03
1.840820e+09 4.406260e-01 -1.118604e-02
1.845703e+09 4.446118e-01 -1.677101e-02
1.850586e+09 4.484616e-01 -2.243153e-02
1.855469e+09 4.521750e-01 -2.816391e-02
1.860352e+09 4.557515e-01 -3.396448e-02
1.865234e+09 4.591906e-01 -3.982965e-02
1.870117e+09 4.624920e-01 -4.575583e-02
1.875000e+09 4.656557e-01 -5.173952e-02
1.879883e+09 4.686814e-01 -5.777724e-02
1.884766e+09 4.715691e-01 -6.386557e-02
1.889648e+09 4.743188e-01 -7.000114e-02
1.894531e+09 4.769308e-01 -7.618063e-02
1.899414e+09 4.794051e-01 -8.240079e-02
1.904297e+09 4.817419e-01 -8.865840e-02
1.909180e+09 4.839418e-01 -9.495032e-02
1.914062e+09 4.860049e-01 -1.012734e-01
1.918945e+09 4.879317e-01 -1.076247e-01
1.923828e+09 4.897228e-01 -1.140011e-01
1.928711e+09 4.913787e-01 -1.203998e-01
1.933594e+09 4.929000e-01 -1.268179e-01
1.938477e+09 4.942874e-01 -1.332525e-01
1.943359e+09 4.955414e-01 -1.397008e-01
1.948242e+09 4.966630e-01 -1.461603e-01
1.953125e+09 4.976528e-01 -1.526281e-01
1.958008e+09 4.985116e-01 -1.591017e-01
1.962891e+09 4.992404e-01 -1.655787e-01
1.967773e+09 4.998399e-01 -1.720564e-01
1.972656e+09 5.003112e-01 -1.785324e-01
1.977539e+09 5.006551e-01 -1.850043e-01
1.982422e+09 5.008726e-01 -1.914699e-01
1.987305e+09 5.009647e-01 -1.979268e-01
1.992188e+09 5.009324e-01 -2.043728e-01
1.997070e+09 5.007769e-01 -2.108057e-01
2.001953e+09 5.004990e-01 -2.172233e-01
2.006836e+09 5.001000e-01 -2.236236e-01
2.011719e+09 4.995808e-01 -2.300046e-01
2.016602e+09 4.989427e-01 -2.363642e-01
2.021484e+09 4.981867e-01 -2.427004e-01
2.026367e+09 4.973140e-01 -2.490114e-01
2.031250e+09 4.963257e-01 -2.552953e-01
2.036133e+09 4.952229e-01 -2.615503e-01
2.041016e+09 4.940070e-01 -2.677745e-01
2.045898e+09 4.926789e-01 -2.739663e-01
2.050781e+09 4.912400e-01 -2.801239e-01
2.055664e+09 4.896914e-01 -2.862457e-01
2.060547e+09 4.880343e-01 -2.923300e-01
2.065430e+09 4.862699e-01 -2.983752e-01
2.070312e+09 4.843994e-01 -3.043798e-01
2.075195e+09 4.824240e-01 -3.103422e-01
2.080078e+09 4.803449e-01 -3.162610e-01
2.084961e+09 4.781634e-01 -3.221346e-01
2.089844e+09 4.758806e-01 -3.279617e-01
2.094727e+09 4.734979e-01 -3.337407e-01
2.099609e+09 4.710163e-01 -3.394705e-01
2.104492e+09 4.684371e-01 -3.451495e-01
2.109375e+09 4.657615e-01 -3.507765e-01
2.114258e+09 4.629907e-01 -3.563502e-01
2.119141e+09 4.601261e-01 -3.618693e-01
2.124023e+09 4.571687e-01 -3.673325e-01
2.128906e+09 4.541197e-01 -3.727387e-01
2.133789e+09 4.509805e-01 -3.780866e-01
2.138672e+09 4.477522e-01 -3.833750e-01
2.143555e+09 4.444360e-01 -3.886028e-01
2.148438e+09 4.410331e-01 -3.937688e-01
2.153320e+09 4.375447e-01 -3.988720e-01
2.158203e+09 4.339721e-01 -4.039111e-01
2.163086e+09 4.303164e-01 -4.088852e-01
2.167969e+09 4.265789e-01 -4.137931e-01
2.172852e+09 4.227607e-01 -4.186338e-01
2.177734e+09 4.188630e-01 -4.234062e-01
2.182617e+09 4.148871e-01 -4.281093e-01
2.187500e+09 4.108341e-01 -4.327421e-01
2.192383e+09 4.067053e-01 -4.373036e-01
2.197266e+09 4.025017e-01 -4.417929e-01
2.202148e+09 3.982248e-01 -4.462088e-01
2.207031e+09 3.938755e-01 -4.505505e-01
2.211914e+09 3.894551e-01 -4.548170e-01
2.216797e+09 3.849649e-01 -4.590073e-01
2.221680e+09 3.804059e-01 -4.631206e-01
2.226562e+09 3.757795e-01 -4.671558e-01
2.231445e+09 3.710868e-01 -4.711121e-01
2.236328e+09 3.663290e-01 -4.749886e-01
2.241211e+09 3.615073e-01 -4.787843e-01
2.246094e+09 3.566229e-01 -4.824983e-01
2.250977e+09 3.516771e-01 -4.861299e-01
2.255859e+09 3.466711e-01 -4.896779e-01
2.260742e+09 3.416060e-01 -4.931417e-01
2.265625e+09 3.364831e-01 -4.965203e-01
2.270508e+09 3.313037e-01 -4.998128e-01
2.275391e+09 3.260689e-01 -5.030184e-01
2.280273e+09 3.207800e-01 -5.061362e-01
2.285156e+09 3.154383e-01 -5.091654e-01
2.290039e+09 3.100450e-01 -5.121051e-01
2.294922e+09 3.046014e-01 -5.149544e-01
2.299805e+09 2.991087e-01 -5.177126e-01
2.304688e+09 2.935683e-01 -5.203788e-01
2.309570e+09 2.879814e-01 -5.229521e-01
2.314453e+09 2.823493e-01 -5.254317e-01
2.319336e+09 2.766735e-01 -5.278168e-01
2.324219e+09 2.709550e-01 -5.301065e-01
2.329102e+09 2.651954e-01 -5.323001e-01
2.333984e+09 2.593960e-01 -5.343967e-01
2.338867e+09 2.535582e-01 -5.363954e-01
2.343750e+09 2.476832e-01 -5.382956e-01
2.348633e+09 2.417726e-01 -5.400963e-01
2.353516e+09 2.358277e-01 -5.417968e-01
2.358398e+09 2.298500e-01 -5.433962e-01
2.363281e+09 2.238410e-01 -5.448938e-01
2.368164e+09 2.178020e-01 -5.462887e-01
2.373047e+09 2.117346e-01 -5.475803e-01
2.377930e+09 2.056402e-01 -5.487676e-01
2.382812e+09 1.995205e-01 -5.498499e-01
2.387695e+09 1.933770e-01 -5.508265e-01
2.392578e+09 1.872112e-01 -5.516966e-01
2.397461e+09 1.810247e-01 -5.524594e-01
2.402344e+09 1.748192e-01 -5.531141e-01
2.407227e+09 1.685963e-01 -5.536601e-01
2.412109e+09 1.623576e-01 -5.540965e-01
2.416992e+09 1.561050e-01 -5.544227e-01
2.421875e+09 1.498400e-01 -5.546379e-01
2.426758e+09 1.435644e-01 -5.547415e-01
2.431641e+09 1.372801e-01 -5.547327e-01
2.436523e+09 1.309888e-01 -5.546108e-01
2.441406e+09 1.246924e-01 -5.543752e-01
2.446289e+09 1.183927e-01 -5.540252e-01
2.451172e+09 1.120917e-01 -5.535602e-01
